Freq.	V(vin)/-I(Vg)
1.00000000000000e-002	1.06950101901815e+005,-7.23591116991156e+006
1.00230523807790e-002	1.06949610977682e+005,-7.21927635141534e+006
1.00461579027840e-002	1.06949117807378e+005,-7.20267980850479e+006
1.00693166885180e-002	1.06948622380725e+005,-7.18612145318463e+006
1.00925288607668e-002	1.06948124687479e+005,-7.16960119766204e+006
1.01157945425990e-002	1.06947624717359e+005,-7.15311895434620e+006
1.01391138573668e-002	1.06947122460071e+005,-7.13667463584778e+006
1.01624869287070e-002	1.06946617905202e+005,-7.12026815497854e+006
1.01859138805412e-002	1.06946111042387e+005,-7.10389942475084e+006
1.02093948370768e-002	1.06945601861137e+005,-7.08756835837714e+006
1.02329299228075e-002	1.06945090350933e+005,-7.07127486926961e+006
1.02565192625141e-002	1.06944576501256e+005,-7.05501887103962e+006
1.02801629812647e-002	1.06944060301488e+005,-7.03880027749731e+006
1.03038612044162e-002	1.06943541740965e+005,-7.02261900265110e+006
1.03276140576140e-002	1.06943020809032e+005,-7.00647496070728e+006
1.03514216667934e-002	1.06942497494884e+005,-6.99036806606952e+006
1.03752841581801e-002	1.06941971787797e+005,-6.97429823333842e+006
1.03992016582906e-002	1.06941443676901e+005,-6.95826537731106e+006
1.04231742939330e-002	1.06940913151315e+005,-6.94226941298056e+006
1.04472021922080e-002	1.06940380200094e+005,-6.92631025553564e+006
1.04712854805090e-002	1.06939844812261e+005,-6.91038782036011e+006
1.04954242865232e-002	1.06939306976797e+005,-6.89450202303249e+006
1.05196187382322e-002	1.06938766682592e+005,-6.87865277932552e+006
1.05438689639126e-002	1.06938223918540e+005,-6.86284000520574e+006
1.05681750921366e-002	1.06937678673449e+005,-6.84706361683303e+006
1.05925372517729e-002	1.06937130936112e+005,-6.83132353056016e+006
1.06169555719872e-002	1.06936580695214e+005,-6.81561966293236e+006
1.06414301822431e-002	1.06936027939456e+005,-6.79995193068687e+006
1.06659612123026e-002	1.06935472657455e+005,-6.78432025075249e+006
1.06905487922266e-002	1.06934914837747e+005,-6.76872454024918e+006
1.07151930523760e-002	1.06934354468909e+005,-6.75316471648754e+006
1.07398941234124e-002	1.06933791539365e+005,-6.73764069696847e+006
1.07646521362983e-002	1.06933226037551e+005,-6.72215239938265e+006
1.07894672222983e-002	1.06932657951830e+005,-6.70669974161016e+006
1.08143395129794e-002	1.06932087270523e+005,-6.69128264172000e+006
1.08392691402120e-002	1.06931513981879e+005,-6.67590101796970e+006
1.08642562361706e-002	1.06930938074117e+005,-6.66055478880485e+006
1.08893009333343e-002	1.06930359535411e+005,-6.64524387285867e+006
1.09144033644875e-002	1.06929778353826e+005,-6.62996818895162e+006
1.09395636627209e-002	1.06929194517468e+005,-6.61472765609091e+006
1.09647819614318e-002	1.06928608014308e+005,-6.59952219347011e+006
1.09900583943252e-002	1.06928018832300e+005,-6.58435172046872e+006
1.10153930954141e-002	1.06927426959356e+005,-6.56921615665172e+006
1.10407861990207e-002	1.06926832383273e+005,-6.55411542176916e+006
1.10662378397766e-002	1.06926235091889e+005,-6.53904943575574e+006
1.10917481526240e-002	1.06925635072910e+005,-6.52401811873037e+006
1.11173172728159e-002	1.06925032314009e+005,-6.50902139099575e+006
1.11429453359173e-002	1.06924426802840e+005,-6.49405917303794e+006
1.11686324778056e-002	1.06923818526965e+005,-6.47913138552599e+006
1.11943788346715e-002	1.06923207473875e+005,-6.46423794931142e+006
1.12201845430196e-002	1.06922593631049e+005,-6.44937878542791e+006
1.12460497396692e-002	1.06921976985907e+005,-6.43455381509079e+006
1.12719745617551e-002	1.06921357525765e+005,-6.41976295969669e+006
1.12979591467279e-002	1.06920735237954e+005,-6.40500614082308e+006
1.13240036323555e-002	1.06920110109678e+005,-6.39028328022786e+006
1.13501081567231e-002	1.06919482128146e+005,-6.37559429984898e+006
1.13762728582343e-002	1.06918851280456e+005,-6.36093912180398e+006
1.14024978756117e-002	1.06918217553721e+005,-6.34631766838960e+006
1.14287833478977e-002	1.06917580934901e+005,-6.33172986208136e+006
1.14551294144553e-002	1.06916941410976e+005,-6.31717562553317e+006
1.14815362149688e-002	1.06916298968844e+005,-6.30265488157689e+006
1.15080038894443e-002	1.06915653595341e+005,-6.28816755322192e+006
1.15345325782109e-002	1.06915005277257e+005,-6.27371356365484e+006
1.15611224219210e-002	1.06914354001290e+005,-6.25929283623894e+006
1.15877735615512e-002	1.06913699754126e+005,-6.24490529451386e+006
1.16144861384034e-002	1.06913042522370e+005,-6.23055086219515e+006
1.16412602941049e-002	1.06912382292569e+005,-6.21622946317388e+006
1.16680961706096e-002	1.06911719051196e+005,-6.20194102151627e+006
1.16949939101987e-002	1.06911052784707e+005,-6.18768546146321e+006
1.17219536554813e-002	1.06910383479438e+005,-6.17346270742994e+006
1.17489755493953e-002	1.06909711121730e+005,-6.15927268400558e+006
1.17760597352080e-002	1.06909035697807e+005,-6.14511531595280e+006
1.18032063565173e-002	1.06908357193874e+005,-6.13099052820735e+006
1.18304155572516e-002	1.06907675596063e+005,-6.11689824587771e+006
1.18576874816716e-002	1.06906990890401e+005,-6.10283839424468e+006
1.18850222743701e-002	1.06906303062940e+005,-6.08881089876098e+006
1.19124200802737e-002	1.06905612099625e+005,-6.07481568505085e+006
1.19398810446427e-002	1.06904917986299e+005,-6.06085267890966e+006
1.19674053130724e-002	1.06904220708826e+005,-6.04692180630354e+006
1.19949930314937e-002	1.06903520252942e+005,-6.03302299336893e+006
1.20226443461741e-002	1.06902816604331e+005,-6.01915616641227e+006
1.20503594037179e-002	1.06902109748662e+005,-6.00532125190952e+006
1.20781383510677e-002	1.06901399671467e+005,-5.99151817650583e+006
1.21059813355048e-002	1.06900686358309e+005,-5.97774686701515e+006
1.21338885046497e-002	1.06899969794566e+005,-5.96400725041979e+006
1.21618600064636e-002	1.06899249965651e+005,-5.95029925387009e+006
1.21898959892486e-002	1.06898526856891e+005,-5.93662280468403e+006
1.22179966016487e-002	1.06897800453528e+005,-5.92297783034678e+006
1.22461619926504e-002	1.06897070740746e+005,-5.90936425851041e+006
1.22743923115840e-002	1.06896337703662e+005,-5.89578201699342e+006
1.23026877081238e-002	1.06895601327349e+005,-5.88223103378043e+006
1.23310483322890e-002	1.06894861596799e+005,-5.86871123702173e+006
1.23594743344450e-002	1.06894118496928e+005,-5.85522255503296e+006
1.23879658653036e-002	1.06893372012601e+005,-5.84176491629468e+006
1.24165230759240e-002	1.06892622128613e+005,-5.82833824945203e+006
1.24451461177138e-002	1.06891868829694e+005,-5.81494248331431e+006
1.24738351424294e-002	1.06891112100528e+005,-5.80157754685467e+006
1.25025903021771e-002	1.06890351925661e+005,-5.78824336920963e+006
1.25314117494141e-002	1.06889588289664e+005,-5.77493987967883e+006
1.25602996369487e-002	1.06888821176983e+005,-5.76166700772453e+006
1.25892541179416e-002	1.06888050572008e+005,-5.74842468297133e+006
1.26182753459066e-002	1.06887276459065e+005,-5.73521283520575e+006
1.26473634747114e-002	1.06886498822409e+005,-5.72203139437586e+006
1.26765186585784e-002	1.06885717646241e+005,-5.70888029059094e+006
1.27057410520853e-002	1.06884932914665e+005,-5.69575945412108e+006
1.27350308101665e-002	1.06884144611745e+005,-5.68266881539680e+006
1.27643880881134e-002	1.06883352721442e+005,-5.66960830500870e+006
1.27938130415752e-002	1.06882557227675e+005,-5.65657785370712e+006
1.28233058265601e-002	1.06881758114294e+005,-5.64357739240170e+006
1.28528665994361e-002	1.06880955365062e+005,-5.63060685216109e+006
1.28824955169313e-002	1.06880148963692e+005,-5.61766616421252e+006
1.29121927361353e-002	1.06879338893769e+005,-5.60475525994150e+006
1.29419584144998e-002	1.06878525138911e+005,-5.59187407089139e+006
1.29717927098395e-002	1.06877707682567e+005,-5.57902252876309e+006
1.30016957803328e-002	1.06876886508153e+005,-5.56620056541463e+006
1.30316677845229e-002	1.06876061599036e+005,-5.55340811286086e+006
1.30617088813183e-002	1.06875232938458e+005,-5.54064510327305e+006
1.30918192299940e-002	1.06874400509632e+005,-5.52791146897856e+006
1.31219989901920e-002	1.06873564295685e+005,-5.51520714246044e+006
1.31522483219223e-002	1.06872724279657e+005,-5.50253205635711e+006
1.31825673855640e-002	1.06871880444535e+005,-5.48988614346200e+006
1.32129563418657e-002	1.06871032773234e+005,-5.47726933672316e+006
1.32434153519466e-002	1.06870181248568e+005,-5.46468156924294e+006
1.32739445772973e-002	1.06869325853299e+005,-5.45212277427762e+006
1.33045441797808e-002	1.06868466570107e+005,-5.43959288523706e+006
1.33352143216332e-002	1.06867603381597e+005,-5.42709183568434e+006
1.33659551654643e-002	1.06866736270299e+005,-5.41461955933543e+006
1.33967668742593e-002	1.06865865218671e+005,-5.40217599005879e+006
1.34276496113786e-002	1.06864990209103e+005,-5.38976106187507e+006
1.34586035405594e-002	1.06864111223890e+005,-5.37737470895675e+006
1.34896288259164e-002	1.06863228245254e+005,-5.36501686562775e+006
1.35207256319427e-002	1.06862341255367e+005,-5.35268746636314e+006
1.35518941235103e-002	1.06861450236266e+005,-5.34038644578875e+006
1.35831344658714e-002	1.06860555169993e+005,-5.32811373868085e+006
1.36144468246594e-002	1.06859656038415e+005,-5.31586927996577e+006
1.36458313658892e-002	1.06858752823420e+005,-5.30365300471960e+006
1.36772882559584e-002	1.06857845506739e+005,-5.29146484816780e+006
1.37088176616484e-002	1.06856934070055e+005,-5.27930474568491e+006
1.37404197501251e-002	1.06856018494997e+005,-5.26717263279414e+006
1.37720946889394e-002	1.06855098763056e+005,-5.25506844516709e+006
1.38038426460288e-002	1.06854174855716e+005,-5.24299211862337e+006
1.38356637897177e-002	1.06853246754328e+005,-5.23094358913028e+006
1.38675582887188e-002	1.06852314440154e+005,-5.21892279280243e+006
1.38995263121334e-002	1.06851377894424e+005,-5.20692966590149e+006
1.39315680294529e-002	1.06850437098260e+005,-5.19496414483575e+006
1.39636836105593e-002	1.06849492032691e+005,-5.18302616615983e+006
1.39958732257261e-002	1.06848542678694e+005,-5.17111566657438e+006
1.40281370456195e-002	1.06847589017150e+005,-5.15923258292565e+006
1.40604752412990e-002	1.06846631028847e+005,-5.14737685220525e+006
1.40928879842186e-002	1.06845668694493e+005,-5.13554841154976e+006
1.41253754462274e-002	1.06844701994745e+005,-5.12374719824042e+006
1.41579377995707e-002	1.06843730910123e+005,-5.11197314970278e+006
1.41905752168908e-002	1.06842755421107e+005,-5.10022620350637e+006
1.42232878712281e-002	1.06841775508077e+005,-5.08850629736440e+006
1.42560759360218e-002	1.06840791151331e+005,-5.07681336913340e+006
1.42889395851109e-002	1.06839802331089e+005,-5.06514735681287e+006
1.43218789927353e-002	1.06838809027478e+005,-5.05350819854501e+006
1.43548943335364e-002	1.06837811220518e+005,-5.04189583261433e+006
1.43879857825583e-002	1.06836808890202e+005,-5.03031019744739e+006
1.44211535152486e-002	1.06835802016383e+005,-5.01875123161238e+006
1.44543977074592e-002	1.06834790578839e+005,-5.00721887381890e+006
1.44877185354475e-002	1.06833774557296e+005,-4.99571306291755e+006
1.45211161758773e-002	1.06832753931340e+005,-4.98423373789966e+006
1.45545908058195e-002	1.06831728680512e+005,-4.97278083789693e+006
1.45881426027534e-002	1.06830698784250e+005,-4.96135430218113e+006
1.46217717445671e-002	1.06829664221905e+005,-4.94995407016376e+006
1.46554784095590e-002	1.06828624972739e+005,-4.93858008139575e+006
1.46892627764385e-002	1.06827581015911e+005,-4.92723227556713e+006
1.47231250243271e-002	1.06826532330535e+005,-4.91591059250670e+006
1.47570653327588e-002	1.06825478895581e+005,-4.90461497218171e+006
1.47910838816819e-002	1.06824420689970e+005,-4.89334535469757e+006
1.48251808514594e-002	1.06823357692504e+005,-4.88210168029749e+006
1.48593564228699e-002	1.06822289881936e+005,-4.87088388936221e+006
1.48936107771090e-002	1.06821217236875e+005,-4.85969192240963e+006
1.49279440957898e-002	1.06820139735859e+005,-4.84852572009454e+006
1.49623565609442e-002	1.06819057357387e+005,-4.83738522320829e+006
1.49968483550236e-002	1.06817970079800e+005,-4.82627037267847e+006
1.50314196609001e-002	1.06816877881329e+005,-4.81518110956859e+006
1.50660706618673e-002	1.06815780740217e+005,-4.80411737507779e+006
1.51008015416413e-002	1.06814678634502e+005,-4.79307911054051e+006
1.51356124843619e-002	1.06813571542193e+005,-4.78206625742618e+006
1.51705036745932e-002	1.06812459441190e+005,-4.77107875733893e+006
1.52054752973248e-002	1.06811342309292e+005,-4.76011655201724e+006
1.52405275379728e-002	1.06810220124213e+005,-4.74917958333368e+006
1.52756605823806e-002	1.06809092863581e+005,-4.73826779329455e+006
1.53108746168202e-002	1.06807960504898e+005,-4.72738112403962e+006
1.53461698279928e-002	1.06806823025603e+005,-4.71651951784178e+006
1.53815464030302e-002	1.06805680403016e+005,-4.70568291710676e+006
1.54170045294954e-002	1.06804532614407e+005,-4.69487126437285e+006
1.54525443953840e-002	1.06803379636857e+005,-4.68408450231051e+006
1.54881661891247e-002	1.06802221447455e+005,-4.67332257372216e+006
1.55238700995807e-002	1.06801058023138e+005,-4.66258542154183e+006
1.55596563160506e-002	1.06799889340734e+005,-4.65187298883485e+006
1.55955250282694e-002	1.06798715377005e+005,-4.64118521879756e+006
1.56314764264094e-002	1.06797536108613e+005,-4.63052205475704e+006
1.56675107010813e-002	1.06796351512119e+005,-4.61988344017073e+006
1.57036280433354e-002	1.06795161563931e+005,-4.60926931862622e+006
1.57398286446620e-002	1.06793966240447e+005,-4.59867963384089e+006
1.57761126969933e-002	1.06792765517925e+005,-4.58811432966165e+006
1.58124803927037e-002	1.06791559372496e+005,-4.57757335006457e+006
1.58489319246110e-002	1.06790347780236e+005,-4.56705663915471e+006
1.58854674859776e-002	1.06789130717087e+005,-4.55656414116569e+006
1.59220872705115e-002	1.06787908158913e+005,-4.54609580045948e+006
1.59587914723672e-002	1.06786680081464e+005,-4.53565156152607e+006
1.59955802861465e-002	1.06785446460391e+005,-4.52523136898317e+006
1.60324539069002e-002	1.06784207271236e+005,-4.51483516757596e+006
1.60694125301286e-002	1.06782962489446e+005,-4.50446290217673e+006
1.61064563517825e-002	1.06781712090377e+005,-4.49411451778465e+006
1.61435855682647e-002	1.06780456049242e+005,-4.48378995952543e+006
1.61808003764305e-002	1.06779194341204e+005,-4.47348917265106e+006
1.62181009735891e-002	1.06777926941286e+005,-4.46321210253951e+006
1.62554875575047e-002	1.06776653824407e+005,-4.45295869469443e+006
1.62929603263971e-002	1.06775374965403e+005,-4.44272889474487e+006
1.63305194789432e-002	1.06774090338974e+005,-4.43252264844501e+006
1.63681652142779e-002	1.06772799919746e+005,-4.42233990167383e+006
1.64058977319952e-002	1.06771503682216e+005,-4.41218060043486e+006
1.64437172321491e-002	1.06770201600783e+005,-4.40204469085586e+006
1.64816239152549e-002	1.06768893649742e+005,-4.39193211918857e+006
1.65196179822900e-002	1.06767579803276e+005,-4.38184283180840e+006
1.65576996346951e-002	1.06766260035480e+005,-4.37177677521416e+006
1.65958690743754e-002	1.06764934320283e+005,-4.36173389602777e+006
1.66341265037015e-002	1.06763602631565e+005,-4.35171414099396e+006
1.66724721255104e-002	1.06762264943078e+005,-4.34171745698001e+006
1.67109061431069e-002	1.06760921228479e+005,-4.33174379097547e+006
1.67494287602642e-002	1.06759571461300e+005,-4.32179309009187e+006
1.67880401812254e-002	1.06758215614913e+005,-4.31186530156240e+006
1.68267406107045e-002	1.06756853662695e+005,-4.30196037274173e+006
1.68655302538872e-002	1.06755485577807e+005,-4.29207825110562e+006
1.69044093164324e-002	1.06754111333372e+005,-4.28221888425071e+006
1.69433780044731e-002	1.06752730902347e+005,-4.27238221989422e+006
1.69824365246172e-002	1.06751344257576e+005,-4.26256820587366e+006
1.70215850839493e-002	1.06749951371859e+005,-4.25277679014661e+006
1.70608238900310e-002	1.06748552217807e+005,-4.24300792079033e+006
1.71001531509027e-002	1.06747146767950e+005,-4.23326154600162e+006
1.71395730750841e-002	1.06745734994709e+005,-4.22353761409645e+006
1.71790838715757e-002	1.06744316870390e+005,-4.21383607350972e+006
1.72186857498599e-002	1.06742892367177e+005,-4.20415687279497e+006
1.72583789199018e-002	1.06741461457130e+005,-4.19449996062415e+006
1.72981635921508e-002	1.06740024112217e+005,-4.18486528578728e+006
1.73380399775412e-002	1.06738580304258e+005,-4.17525279719223e+006
1.73780082874935e-002	1.06737130005001e+005,-4.16566244386444e+006
1.74180687339159e-002	1.06735673186028e+005,-4.15609417494663e+006
1.74582215292048e-002	1.06734209818837e+005,-4.14654793969855e+006
1.74984668862464e-002	1.06732739874823e+005,-4.13702368749670e+006
1.75388050184174e-002	1.06731263325220e+005,-4.12752136783405e+006
1.75792361395867e-002	1.06729780141160e+005,-4.11804093031981e+006
1.76197604641161e-002	1.06728290293680e+005,-4.10858232467912e+006
1.76603782068614e-002	1.06726793753661e+005,-4.09914550075281e+006
1.77010895831740e-002	1.06725290491889e+005,-4.08973040849711e+006
1.77418948089014e-002	1.06723780479028e+005,-4.08033699798342e+006
1.77827941003890e-002	1.06722263685606e+005,-4.07096521939801e+006
1.78237876744807e-002	1.06720740082061e+005,-4.06161502304178e+006
1.78648757485203e-002	1.06719209638676e+005,-4.05228635932996e+006
1.79060585403527e-002	1.06717672325613e+005,-4.04297917879189e+006
1.79473362683250e-002	1.06716128112959e+005,-4.03369343207075e+006
1.79887091512877e-002	1.06714576970619e+005,-4.02442906992326e+006
1.80301774085955e-002	1.06713018868417e+005,-4.01518604321947e+006
1.80717412601090e-002	1.06711453776031e+005,-4.00596430294245e+006
1.81134009261958e-002	1.06709881663021e+005,-3.99676380018808e+006
1.81551566277311e-002	1.06708302498826e+005,-3.98758448616474e+006
1.81970085860996e-002	1.06706716252771e+005,-3.97842631219309e+006
1.82389570231961e-002	1.06705122894019e+005,-3.96928922970579e+006
1.82810021614272e-002	1.06703522391658e+005,-3.96017319024725e+006
1.83231442237119e-002	1.06701914714610e+005,-3.95107814547337e+006
1.83653834334832e-002	1.06700299831677e+005,-3.94200404715129e+006
1.84077200146893e-002	1.06698677711554e+005,-3.93295084715912e+006
1.84501541917945e-002	1.06697048322810e+005,-3.92391849748569e+006
1.84926861897805e-002	1.06695411633859e+005,-3.91490695023032e+006
1.85353162341479e-002	1.06693767612994e+005,-3.90591615760250e+006
1.85780445509167e-002	1.06692116228418e+005,-3.89694607192173e+006
1.86208713666284e-002	1.06690457448131e+005,-3.88799664561717e+006
1.86637969083464e-002	1.06688791240084e+005,-3.87906783122745e+006
1.87068214036577e-002	1.06687117572046e+005,-3.87015958140042e+006
1.87499450806739e-002	1.06685436411667e+005,-3.86127184889286e+006
1.87931681680324e-002	1.06683747726479e+005,-3.85240458657024e+006
1.88364908948977e-002	1.06682051483881e+005,-3.84355774740649e+006
1.88799134909627e-002	1.06680347651111e+005,-3.83473128448374e+006
1.89234361864495e-002	1.06678636195313e+005,-3.82592515099207e+006
1.89670592121112e-002	1.06676917083495e+005,-3.81713930022924e+006
1.90107827992327e-002	1.06675190282496e+005,-3.80837368560048e+006
1.90546071796322e-002	1.06673455759067e+005,-3.79962826061823e+006
1.90985325856621e-002	1.06671713479804e+005,-3.79090297890187e+006
1.91425592502106e-002	1.06669963411149e+005,-3.78219779417750e+006
1.91866874067026e-002	1.06668205519444e+005,-3.77351266027767e+006
1.92309172891013e-002	1.06666439770868e+005,-3.76484753114118e+006
1.92752491319091e-002	1.06664666131524e+005,-3.75620236081278e+006
1.93196831701690e-002	1.06662884567278e+005,-3.74757710344295e+006
1.93642196394658e-002	1.06661095043928e+005,-3.73897171328767e+006
1.94088587759275e-002	1.06659297527160e+005,-3.73038614470816e+006
1.94536008162263e-002	1.06657491982443e+005,-3.72182035217063e+006
1.94984459975802e-002	1.06655678375159e+005,-3.71327429024607e+006
1.95433945577537e-002	1.06653856670554e+005,-3.70474791360996e+006
1.95884467350596e-002	1.06652026833730e+005,-3.69624117704209e+006
1.96336027683602e-002	1.06650188829629e+005,-3.68775403542626e+006
1.96788628970682e-002	1.06648342623054e+005,-3.67928644375006e+006
1.97242273611482e-002	1.06646488178727e+005,-3.67083835710468e+006
1.97696964011183e-002	1.06644625461139e+005,-3.66240973068459e+006
1.98152702580507e-002	1.06642754434726e+005,-3.65400051978735e+006
