Freq.	V(vout)/(I(Itest)-I(RL))
1.00000000000000e-002	4.43652481684499e-002,6.67870527893786e-004
1.00230523807790e-002	4.43656235103616e-002,6.69382479047834e-004
1.00461579027840e-002	4.43660005670470e-002,6.70897725184736e-004
1.00693166885180e-002	4.43663793462409e-002,6.72416272602043e-004
1.00925288607668e-002	4.43667598557050e-002,6.73938127583945e-004
1.01157945425990e-002	4.43671421032809e-002,6.75463296444817e-004
1.01391138573668e-002	4.43675260967579e-002,6.76991785485652e-004
1.01624869287070e-002	4.43679118441108e-002,6.78523601010860e-004
1.01859138805412e-002	4.43682993533166e-002,6.80058749351665e-004
1.02093948370768e-002	4.43686886321896e-002,6.81597236815855e-004
1.02329299228075e-002	4.43690796887865e-002,6.83139069751472e-004
1.02565192625141e-002	4.43694725311902e-002,6.84684254476457e-004
1.02801629812647e-002	4.43698671673496e-002,6.86232797342242e-004
1.03038612044162e-002	4.43702636055617e-002,6.87784704666866e-004
1.03276140576140e-002	4.43706618536955e-002,6.89339982828596e-004
1.03514216667934e-002	4.43710619201012e-002,6.90898638182378e-004
1.03752841581801e-002	4.43714638129161e-002,6.92460677063056e-004
1.03992016582906e-002	4.43718675405168e-002,6.94026105845735e-004
1.04231742939330e-002	4.43722731109328e-002,6.95594930908835e-004
1.04472021922080e-002	4.43726805327829e-002,6.97167158610822e-004
1.04712854805090e-002	4.43730898142568e-002,6.98742795336907e-004
1.04954242865232e-002	4.43735009636783e-002,7.00321847479054e-004
1.05196187382322e-002	4.43739139896926e-002,7.01904321412572e-004
1.05438689639126e-002	4.43743289004898e-002,7.03490223536163e-004
1.05681750921366e-002	4.43747457048218e-002,7.05079560248663e-004
1.05925372517729e-002	4.43751644110931e-002,7.06672337948877e-004
1.06169555719872e-002	4.43755850279213e-002,7.08268563049077e-004
1.06414301822431e-002	4.43760075640063e-002,7.09868241944838e-004
1.06659612123026e-002	4.43764320277508e-002,7.11471381071902e-004
1.06905487922266e-002	4.43768584280419e-002,7.13077986839339e-004
1.07151930523760e-002	4.43772867736580e-002,7.14688065659586e-004
1.07398941234124e-002	4.43777170731910e-002,7.16301623981911e-004
1.07646521362983e-002	4.43781493355533e-002,7.17918668225541e-004
1.07894672222983e-002	4.43785835696580e-002,7.19539204819782e-004
1.08143395129794e-002	4.43790197841769e-002,7.21163240234112e-004
1.08392691402120e-002	4.43794579882100e-002,7.22790780881200e-004
1.08642562361706e-002	4.43798981907507e-002,7.24421833210562e-004
1.08893009333343e-002	4.43803404007385e-002,7.26056403685136e-004
1.09144033644875e-002	4.43807846271396e-002,7.27694498767900e-004
1.09395636627209e-002	4.43812308791346e-002,7.29336124888421e-004
1.09647819614318e-002	4.43816791657698e-002,7.30981288546600e-004
1.09900583943252e-002	4.43821294963332e-002,7.32629996172095e-004
1.10153930954141e-002	4.43825818798177e-002,7.34282254268219e-004
1.10407861990207e-002	4.43830363256181e-002,7.35938069278117e-004
1.10662378397766e-002	4.43834928429950e-002,7.37597447695182e-004
1.10917481526240e-002	4.43839514412094e-002,7.39260396002791e-004
1.11173172728159e-002	4.43844121297631e-002,7.40926920654270e-004
1.11429453359173e-002	4.43848749179970e-002,7.42597028166578e-004
1.11686324778056e-002	4.43853398152790e-002,7.44270725013180e-004
1.11943788346715e-002	4.43858068311112e-002,7.45948017701096e-004
1.12201845430196e-002	4.43862759751286e-002,7.47628912703921e-004
1.12460497396692e-002	4.43867472568069e-002,7.49313416528742e-004
1.12719745617551e-002	4.43872206857808e-002,7.51001535672676e-004
1.12979591467279e-002	4.43876962717405e-002,7.52693276646276e-004
1.13240036323555e-002	4.43881740242670e-002,7.54388645953424e-004
1.13501081567231e-002	4.43886539532643e-002,7.56087650081354e-004
1.13762728582343e-002	4.43891360683412e-002,7.57790295567517e-004
1.14024978756117e-002	4.43896203796145e-002,7.59496588912666e-004
1.14287833478977e-002	4.43901068965601e-002,7.61206536630865e-004
1.14551294144553e-002	4.43905956293215e-002,7.62920145232997e-004
1.14815362149688e-002	4.43910865879905e-002,7.64637421253419e-004
1.15080038894443e-002	4.43915797822282e-002,7.66358371209702e-004
1.15345325782109e-002	4.43920752222059e-002,7.68083001612859e-004
1.15611224219210e-002	4.43925729180952e-002,7.69811318990689e-004
1.15877735615512e-002	4.43930728799331e-002,7.71543329881053e-004
1.16144861384034e-002	4.43935751179974e-002,7.73279040808505e-004
1.16412602941049e-002	4.43940796423787e-002,7.75018458294258e-004
1.16680961706096e-002	4.43945864633825e-002,7.76761588876351e-004
1.16949939101987e-002	4.43950955912865e-002,7.78508439092864e-004
1.17219536554813e-002	4.43956070365294e-002,7.80259015458506e-004
1.17489755493953e-002	4.43961208094165e-002,7.82013324538238e-004
1.17760597352080e-002	4.43966369204928e-002,7.83771372853578e-004
1.18032063565173e-002	4.43971553801711e-002,7.85533166932759e-004
1.18304155572516e-002	4.43976761989973e-002,7.87298713327523e-004
1.18576874816716e-002	4.43981993874897e-002,7.89068018576262e-004
1.18850222743701e-002	4.43987249563821e-002,7.90841089204055e-004
1.19124200802737e-002	4.43992529162736e-002,7.92617931779538e-004
1.19398810446427e-002	4.43997832779781e-002,7.94398552824548e-004
1.19674053130724e-002	4.44003160520677e-002,7.96182958887714e-004
1.19949930314937e-002	4.44008512495439e-002,7.97971156511095e-004
1.20226443461741e-002	4.44013888811127e-002,7.99763152250136e-004
1.20503594037179e-002	4.44019289577755e-002,8.01558952630246e-004
1.20781383510677e-002	4.44024714905061e-002,8.03358564193623e-004
1.21059813355048e-002	4.44030164902256e-002,8.05161993495892e-004
1.21338885046497e-002	4.44035639680684e-002,8.06969247076028e-004
1.21618600064636e-002	4.44041139349824e-002,8.08780331483061e-004
1.21898959892486e-002	4.44046664022889e-002,8.10595253249403e-004
1.22179966016487e-002	4.44052213810432e-002,8.12414018927549e-004
1.22461619926504e-002	4.44057788824875e-002,8.14236635056689e-004
1.22743923115840e-002	4.44063389180507e-002,8.16063108176099e-004
1.23026877081238e-002	4.44069014989479e-002,8.17893444828410e-004
1.23310483322890e-002	4.44074666365011e-002,8.19727651552975e-004
1.23594743344450e-002	4.44080343423540e-002,8.21565734885915e-004
1.23879658653036e-002	4.44086046276955e-002,8.23407701383396e-004
1.24165230759240e-002	4.44091775044633e-002,8.25253557558263e-004
1.24451461177138e-002	4.44097529839259e-002,8.27103309970150e-004
1.24738351424294e-002	4.44103310777267e-002,8.28956965135289e-004
1.25025903021771e-002	4.44109117977236e-002,8.30814529593446e-004
1.25314117494141e-002	4.44114951555875e-002,8.32676009874357e-004
1.25602996369487e-002	4.44120811629878e-002,8.34541412517855e-004
1.25892541179416e-002	4.44126698319436e-002,8.36410744040456e-004
1.26182753459066e-002	4.44132611741781e-002,8.38284010975414e-004
1.26473634747114e-002	4.44138552016831e-002,8.40161219849390e-004
1.26765186585784e-002	4.44144519265303e-002,8.42042377179073e-004
1.27057410520853e-002	4.44150513606584e-002,8.43927489491220e-004
1.27350308101665e-002	4.44156535161654e-002,8.45816563295937e-004
1.27643880881134e-002	4.44162584052841e-002,8.47709605116805e-004
1.27938130415752e-002	4.44168660400598e-002,8.49606621453979e-004
1.28233058265601e-002	4.44174764330463e-002,8.51507618831217e-004
1.28528665994361e-002	4.44180895961812e-002,8.53412603752111e-004
1.28824955169313e-002	4.44187055420192e-002,8.55321582717091e-004
1.29121927361353e-002	4.44193242829525e-002,8.57234562233306e-004
1.29419584144998e-002	4.44199458314015e-002,8.59151548791222e-004
1.29717927098395e-002	4.44205701999202e-002,8.61072548894788e-004
1.30016957803328e-002	4.44211974010626e-002,8.62997569017870e-004
1.30316677845229e-002	4.44218274474353e-002,8.64926615674588e-004
1.30617088813183e-002	4.44224603517537e-002,8.66859695332260e-004
1.30918192299940e-002	4.44230961267050e-002,8.68796814468304e-004
1.31219989901920e-002	4.44237347851377e-002,8.70737979570277e-004
1.31522483219223e-002	4.44243763397932e-002,8.72683197102330e-004
1.31825673855640e-002	4.44250208037341e-002,8.74632473532092e-004
1.32129563418657e-002	4.44256681897283e-002,8.76585815323839e-004
1.32434153519466e-002	4.44263185108915e-002,8.78543228941983e-004
1.32739445772973e-002	4.44269717803408e-002,8.80504720827556e-004
1.33045441797808e-002	4.44276280109233e-002,8.82470297448380e-004
1.33352143216332e-002	4.44282872161848e-002,8.84439965222261e-004
1.33659551654643e-002	4.44289494091338e-002,8.86413730617179e-004
1.33967668742593e-002	4.44296146031002e-002,8.88391600047670e-004
1.34276496113786e-002	4.44302828114687e-002,8.90373579948430e-004
1.34586035405594e-002	4.44309540475422e-002,8.92359676754207e-004
1.34896288259164e-002	4.44316283249191e-002,8.94349896863038e-004
1.35207256319427e-002	4.44323056568761e-002,8.96344246693041e-004
1.35518941235103e-002	4.44329860572790e-002,8.98342732655839e-004
1.35831344658714e-002	4.44336695396456e-002,9.00345361142941e-004
1.36144468246594e-002	4.44343561176813e-002,9.02352138552666e-004
1.36458313658892e-002	4.44350458050373e-002,9.04363071259942e-004
1.36772882559584e-002	4.44357386156335e-002,9.06378165673310e-004
1.37088176616484e-002	4.44364345632550e-002,9.08397428144418e-004
1.37404197501251e-002	4.44371336618751e-002,9.10420865038417e-004
1.37720946889394e-002	4.44378359254663e-002,9.12448482723875e-004
1.38038426460288e-002	4.44385413680556e-002,9.14480287545996e-004
1.38356637897177e-002	4.44392500038568e-002,9.16516285860140e-004
1.38675582887188e-002	4.44399618467888e-002,9.18556483994879e-004
1.38995263121334e-002	4.44406769113611e-002,9.20600888272288e-004
1.39315680294529e-002	4.44413952115456e-002,9.22649505044529e-004
1.39636836105593e-002	4.44421167620393e-002,9.24702340583628e-004
1.39958732257261e-002	4.44428415770556e-002,9.26759401228542e-004
1.40281370456195e-002	4.44435696711029e-002,9.28820693261442e-004
1.40604752412990e-002	4.44443010585555e-002,9.30886222977928e-004
1.40928879842186e-002	4.44450357542440e-002,9.32955996653687e-004
1.41253754462274e-002	4.44457737726495e-002,9.35030020567742e-004
1.41579377995707e-002	4.44465151285218e-002,9.37108300972462e-004
1.41905752168908e-002	4.44472598367177e-002,9.39190844127010e-004
1.42232878712281e-002	4.44480079119867e-002,9.41277656277199e-004
1.42560759360218e-002	4.44487593693184e-002,9.43368743638836e-004
1.42889395851109e-002	4.44495142235704e-002,9.45464112464603e-004
1.43218789927353e-002	4.44502724897864e-002,9.47563768953719e-004
1.43548943335364e-002	4.44510341830371e-002,9.49667719312185e-004
1.43879857825583e-002	4.44517993186077e-002,9.51775969739425e-004
1.44211535152486e-002	4.44525679116229e-002,9.53888526408112e-004
1.44543977074592e-002	4.44533399773937e-002,9.56005395501084e-004
1.44877185354475e-002	4.44541155312864e-002,9.58126583181176e-004
1.45211161758773e-002	4.44548945885590e-002,9.60252095591180e-004
1.45545908058195e-002	4.44556771647909e-002,9.62381938880739e-004
1.45881426027534e-002	4.44564632756155e-002,9.64516119169449e-004
1.46217717445671e-002	4.44572529365585e-002,9.66654642583653e-004
1.46554784095590e-002	4.44580461632536e-002,9.68797515223007e-004
1.46892627764385e-002	4.44588429714673e-002,9.70944743183933e-004
1.47231250243271e-002	4.44596433771015e-002,9.73096332546215e-004
1.47570653327588e-002	4.44604473957882e-002,9.75252289379611e-004
1.47910838816819e-002	4.44612550438039e-002,9.77412619734018e-004
1.48251808514594e-002	4.44620663367820e-002,9.79577329672653e-004
1.48593564228699e-002	4.44628812910249e-002,9.81746425202048e-004
1.48936107771090e-002	4.44636999227280e-002,9.83919912348884e-004
1.49279440957898e-002	4.44645222479263e-002,9.86097797123139e-004
1.49623565609442e-002	4.44653482828156e-002,9.88280085518169e-004
1.49968483550236e-002	4.44661780441266e-002,9.90466783487360e-004
1.50314196609001e-002	4.44670115478140e-002,9.92657897020825e-004
1.50660706618673e-002	4.44678488107161e-002,9.94853432048702e-004
1.51008015416413e-002	4.44686898491088e-002,9.97053394517818e-004
1.51356124843619e-002	4.44695346798574e-002,9.99257790328347e-004
1.51705036745932e-002	4.44703833194515e-002,1.00146662540725e-003
1.52054752973248e-002	4.44712357847832e-002,1.00367990563812e-003
1.52405275379728e-002	4.44720920925568e-002,1.00589763688788e-003
1.52756605823806e-002	4.44729522597982e-002,1.00811982501020e-003
1.53108746168202e-002	4.44738163032386e-002,1.01034647587885e-003
1.53461698279928e-002	4.44746842402516e-002,1.01257759527411e-003
1.53815464030302e-002	4.44755560876488e-002,1.01481318904650e-003
1.54170045294954e-002	4.44764318628041e-002,1.01705326297648e-003
1.54525443953840e-002	4.44773115829307e-002,1.01929782282779e-003
1.54881661891247e-002	4.44781952653225e-002,1.02154687438102e-003
1.55238700995807e-002	4.44790829272989e-002,1.02380042337000e-003
1.55596563160506e-002	4.44799745863953e-002,1.02605847553203e-003
1.55955250282694e-002	4.44808702602534e-002,1.02832103655765e-003
1.56314764264094e-002	4.44817699662468e-002,1.03058811215753e-003
1.56675107010813e-002	4.44826737223118e-002,1.03285970798228e-003
1.57036280433354e-002	4.44835815460361e-002,1.03513582971267e-003
1.57398286446620e-002	4.44844934552772e-002,1.03741648296265e-003
1.57761126969933e-002	4.44854094681037e-002,1.03970167334965e-003
1.58124803927037e-002	4.44863296021846e-002,1.04199140650116e-003
1.58489319246110e-002	4.44872538760456e-002,1.04428568795122e-003
1.58854674859776e-002	4.44881823072479e-002,1.04658452329397e-003
1.59220872705115e-002	4.44891149143443e-002,1.04888791806032e-003
1.59587914723672e-002	4.44900517155113e-002,1.05119587777108e-003
1.59955802861465e-002	4.44909927293018e-002,1.05350840790376e-003
1.60324539069002e-002	4.44919379737589e-002,1.05582551395926e-003
1.60694125301286e-002	4.44928874677834e-002,1.05814720139862e-003
1.61064563517825e-002	4.44938412296864e-002,1.06047347564265e-003
1.61435855682647e-002	4.44947992782613e-002,1.06280434212240e-003
1.61808003764305e-002	4.44957616321676e-002,1.06513980622214e-003
1.62181009735891e-002	4.44967283103055e-002,1.06747987330284e-003
1.62554875575047e-002	4.44976993314151e-002,1.06982454874228e-003
1.62929603263971e-002	4.44986747146380e-002,1.07217383784143e-003
1.63305194789432e-002	4.44996544789551e-002,1.07452774590800e-003
1.63681652142779e-002	4.45006386434272e-002,1.07688627823979e-003
1.64058977319952e-002	4.45016272273567e-002,1.07924944009794e-003
1.64437172321491e-002	4.45026202499387e-002,1.08161723667668e-003
1.64816239152549e-002	4.45036177305292e-002,1.08398967324071e-003
1.65196179822900e-002	4.45046196886447e-002,1.08636675493432e-003
1.65576996346951e-002	4.45056261437215e-002,1.08874848695211e-003
1.65958690743754e-002	4.45066371154366e-002,1.09113487440182e-003
1.66341265037015e-002	4.45076526234937e-002,1.09352592241804e-003
1.66724721255104e-002	4.45086726875173e-002,1.09592163607856e-003
1.67109061431069e-002	4.45096973273447e-002,1.09832202045462e-003
1.67494287602642e-002	4.45107265630284e-002,1.10072708057073e-003
1.67880401812254e-002	4.45117604145940e-002,1.10313682144820e-003
1.68267406107045e-002	4.45127989019060e-002,1.10555124805476e-003
1.68655302538872e-002	4.45138420452304e-002,1.10797036536177e-003
1.69044093164324e-002	4.45148898649150e-002,1.11039417830049e-003
1.69433780044731e-002	4.45159423812529e-002,1.11282269176213e-003
1.69824365246172e-002	4.45169996145101e-002,1.11525591063464e-003
1.70215850839493e-002	4.45180615853018e-002,1.11769383974923e-003
1.70608238900310e-002	4.45191283141625e-002,1.12013648393723e-003
1.71001531509027e-002	4.45201998218940e-002,1.12258384797657e-003
1.71395730750841e-002	4.45212761290307e-002,1.12503593664187e-003
1.71790838715757e-002	4.45223572564824e-002,1.12749275466443e-003
1.72186857498599e-002	4.45234432252654e-002,1.12995430672212e-003
1.72583789199018e-002	4.45245340561817e-002,1.13242059752301e-003
1.72981635921508e-002	4.45256297704627e-002,1.13489163168498e-003
1.73380399775412e-002	4.45267303892045e-002,1.13736741383604e-003
1.73780082874935e-002	4.45278359335852e-002,1.13984794853403e-003
1.74180687339159e-002	4.45289464251836e-002,1.14233324035040e-003
1.74582215292048e-002	4.45300618852301e-002,1.14482329379300e-003
1.74984668862464e-002	4.45311823351705e-002,1.14731811335312e-003
1.75388050184174e-002	4.45323077968241e-002,1.14981770347539e-003
1.75792361395867e-002	4.45334382916637e-002,1.15232206861116e-003
1.76197604641161e-002	4.45345738416698e-002,1.15483121310155e-003
1.76603782068614e-002	4.45357144685554e-002,1.15734514132455e-003
1.77010895831740e-002	4.45368601942214e-002,1.15986385762149e-003
1.77418948089014e-002	4.45380110408355e-002,1.16238736625019e-003
1.77827941003890e-002	4.45391670304327e-002,1.16491567148194e-003
1.78237876744807e-002	4.45403281852351e-002,1.16744877753464e-003
1.78648757485203e-002	4.45414945275983e-002,1.16998668858617e-003
1.79060585403527e-002	4.45426660797978e-002,1.17252940877767e-003
1.79473362683250e-002	4.45438428644311e-002,1.17507694224046e-003
1.79887091512877e-002	4.45450249039875e-002,1.17762929303563e-003
1.80301774085955e-002	4.45462122211716e-002,1.18018646522111e-003
1.80717412601090e-002	4.45474048386341e-002,1.18274846277792e-003
1.81134009261958e-002	4.45486027792932e-002,1.18531528968731e-003
1.81551566277311e-002	4.45498060661482e-002,1.18788694987037e-003
1.81970085860996e-002	4.45510147221172e-002,1.19046344722823e-003
1.82389570231961e-002	4.45522287702797e-002,1.19304478559188e-003
1.82810021614272e-002	4.45534482340364e-002,1.19563096880592e-003
1.83231442237119e-002	4.45546731364129e-002,1.19822200062455e-003
1.83653834334832e-002	4.45559035009170e-002,1.20081788477883e-003
1.84077200146893e-002	4.45571393510841e-002,1.20341862499994e-003
1.84501541917945e-002	4.45583807104212e-002,1.20602422487184e-003
1.84926861897805e-002	4.45596276026514e-002,1.20863468807583e-003
1.85353162341479e-002	4.45608800515227e-002,1.21125001815603e-003
1.85780445509167e-002	4.45621380808657e-002,1.21387021864334e-003
1.86208713666284e-002	4.45634017145360e-002,1.21649529303532e-003
1.86637969083464e-002	4.45646709767376e-002,1.21912524478287e-003
1.87068214036577e-002	4.45659458915419e-002,1.22176007728345e-003
1.87499450806739e-002	4.45672264830727e-002,1.22439979390114e-003
1.87931681680324e-002	4.45685127759095e-002,1.22704439793337e-003
1.88364908948977e-002	4.45698047942300e-002,1.22969389268760e-003
1.88799134909627e-002	4.45711025625877e-002,1.23234828138114e-003
1.89234361864495e-002	4.45724061058022e-002,1.23500756718802e-003
1.89670592121112e-002	4.45737154484269e-002,1.23767175325549e-003
1.90107827992327e-002	4.45750306151754e-002,1.24034084269085e-003
1.90546071796322e-002	4.45763516310826e-002,1.24301483853801e-003
1.90985325856621e-002	4.45776785212638e-002,1.24569374377072e-003
1.91425592502106e-002	4.45790113105404e-002,1.24837756137617e-003
1.91866874067026e-002	4.45803500243223e-002,1.25106629423809e-003
1.92309172891013e-002	4.45816946878317e-002,1.25375994523694e-003
1.92752491319091e-002	4.45830453265328e-002,1.25645851715964e-003
1.93196831701690e-002	4.45844019657558e-002,1.25916201279321e-003
1.93642196394658e-002	4.45857646312047e-002,1.26187043484460e-003
1.94088587759275e-002	4.45871333486923e-002,1.26458378596397e-003
1.94536008162263e-002	4.45885081436821e-002,1.26730206876807e-003
1.94984459975802e-002	4.45898890424153e-002,1.27002528583383e-003
1.95433945577537e-002	4.45912760707040e-002,1.27275343965787e-003
1.95884467350596e-002	4.45926692546812e-002,1.27548653271025e-003
1.96336027683602e-002	4.45940686204813e-002,1.27822456740089e-003
1.96788628970682e-002	4.45954741945059e-002,1.28096754607301e-003
1.97242273611482e-002	4.45968860030220e-002,1.28371547104314e-003
1.97696964011183e-002	4.45983040726464e-002,1.28646834454771e-003
1.98152702580507e-002	4.45997284300217e-002,1.28922616878981e-003
1.98609491735734e-002	4.46011591016564e-002,1.29198894592580e-003
1.99067333898716e-002	4.46025961144879e-002,1.29475667800514e-003
1.99526231496885e-002	4.46040394954009e-002,1.29752936709754e-003
1.99986186963271e-002	4.46054892715202e-002,1.30030701514571e-003
