Freq.	V(vout)*exp(i*Pi)
1.00000000000000e-001	2.09446765418023e+001,-2.31034370218954e-001
1.00230523807790e-001	2.09381779465948e+001,-2.25680071587078e-001
1.00461579027840e-001	2.09316763710206e+001,-2.20297913276415e-001
1.00693166885180e-001	2.09251718760979e+001,-2.14887851755947e-001
1.00925288607668e-001	2.09186645229932e+001,-2.09449843783613e-001
1.01157945425990e-001	2.09121543728383e+001,-2.03983846407570e-001
1.01391138573668e-001	2.09056414868901e+001,-1.98489816966142e-001
1.01624869287070e-001	2.08991259264477e+001,-1.92967713090645e-001
1.01859138805412e-001	2.08926077528523e+001,-1.87417492700766e-001
1.02093948370768e-001	2.08860870274963e+001,-1.81839114011103e-001
1.02329299228075e-001	2.08795638117990e+001,-1.76232535526035e-001
1.02565192625141e-001	2.08730381672603e+001,-1.70597716042731e-001
1.02801629812647e-001	2.08665101554032e+001,-1.64934614651956e-001
1.03038612044162e-001	2.08599798377986e+001,-1.59243190737017e-001
1.03276140576140e-001	2.08534472760117e+001,-1.53523403974416e-001
1.03514216667934e-001	2.08469125317317e+001,-1.47775214333667e-001
1.03752841581801e-001	2.08403756665391e+001,-1.41998582078557e-001
1.03992016582906e-001	2.08338367421693e+001,-1.36193467766241e-001
1.04231742939330e-001	2.08272958203296e+001,-1.30359832247458e-001
1.04472021922080e-001	2.08207529627388e+001,-1.24497636668154e-001
1.04712854805090e-001	2.08142082311358e+001,-1.18606842467391e-001
1.04954242865232e-001	2.08076616873090e+001,-1.12687411377972e-001
1.05196187382322e-001	2.08011133929888e+001,-1.06739305428577e-001
1.05438689639126e-001	2.07945634100299e+001,-1.00762486940489e-001
1.05681750921366e-001	2.07880118001737e+001,-9.47569185307581e-002
1.05925372517729e-001	2.07814586252314e+001,-8.87225631088084e-002
1.06169555719872e-001	2.07749039469874e+001,-8.26593838799803e-002
1.06414301822431e-001	2.07683478272769e+001,-7.65673443425326e-002
1.06659612123026e-001	2.07617903278354e+001,-7.04464082895578e-002
1.06905487922266e-001	2.07552315105043e+001,-6.42965398067807e-002
1.07151930523760e-001	2.07486714370064e+001,-5.81177032751640e-002
1.07398941234124e-001	2.07421101691347e+001,-5.19098633680219e-002
1.07646521362983e-001	2.07355477686331e+001,-4.56729850520797e-002
1.07894672222983e-001	2.07289842972295e+001,-3.94070335872907e-002
1.08143395129794e-001	2.07224198165714e+001,-3.31119745274104e-002
1.08392691402120e-001	2.07158543884284e+001,-2.67877737163052e-002
1.08642562361706e-001	2.07092880743856e+001,-2.04343972925076e-002
1.08893009333343e-001	2.07027209361086e+001,-1.40518116843635e-002
1.09144033644875e-001	2.06961530351566e+001,-7.63998361410108e-003
1.09395636627209e-001	2.06895844330931e+001,-1.19888009325696e-003
1.09647819614318e-001	2.06830151914413e+001,5.27153157548446e-003
1.09900583943252e-001	2.06764453716388e+001,1.17712837990021e-002
1.10153930954141e-001	2.06698750351496e+001,1.83004086944797e-002
1.10407861990207e-001	2.06633042433522e+001,2.48589380890587e-002
1.10662378397766e-001	2.06567330575607e+001,3.14469035223728e-002
1.10917481526240e-001	2.06501615390637e+001,3.80643362442367e-002
1.11173172728159e-001	2.06435897490642e+001,4.47112672173779e-002
1.11429453359173e-001	2.06370177487572e+001,5.13877271177362e-002
1.11686324778056e-001	2.06304455992118e+001,5.80937463339745e-002
1.11943788346715e-001	2.06238733614896e+001,6.48293549690466e-002
1.12201845430196e-001	2.06173010965636e+001,7.15945828411410e-002
1.12460497396692e-001	2.06107288652841e+001,7.83894594819276e-002
1.12719745617551e-001	2.06041567285263e+001,8.52140141417213e-002
1.12979591467279e-001	2.05975847470110e+001,9.20682757856887e-002
1.13240036323555e-001	2.05910129814598e+001,9.89522730983298e-002
1.13501081567231e-001	2.05844414924017e+001,1.05866034479915e-001
1.13762728582343e-001	2.05778703403672e+001,1.12809588051981e-001
1.14024978756117e-001	2.05712995857835e+001,1.19782961655551e-001
1.14287833478977e-001	2.05647292889945e+001,1.26786182852930e-001
1.14551294144553e-001	2.05581595102153e+001,1.33819278926389e-001
1.14815362149688e-001	2.05515903095809e+001,1.40882276881874e-001
1.15080038894443e-001	2.05450217471630e+001,1.47975203449163e-001
1.15345325782109e-001	2.05384538829035e+001,1.55098085082521e-001
1.15611224219209e-001	2.05318867766018e+001,1.62250947959457e-001
1.15877735615512e-001	2.05253204880419e+001,1.69433817987343e-001
1.16144861384034e-001	2.05187550768320e+001,1.76646720798656e-001
1.16412602941049e-001	2.05121906024969e+001,1.83889681755172e-001
1.16680961706096e-001	2.05056271243852e+001,1.91162725946412e-001
1.16949939101987e-001	2.04990647018383e+001,1.98465878195293e-001
1.17219536554813e-001	2.04925033939927e+001,2.05799163055097e-001
1.17489755493952e-001	2.04859432598921e+001,2.13162604811542e-001
1.17760597352080e-001	2.04793843584229e+001,2.20556227483827e-001
1.18032063565172e-001	2.04728267484312e+001,2.27980054829163e-001
1.18304155572516e-001	2.04662704885148e+001,2.35434110337450e-001
1.18576874816716e-001	2.04597156372399e+001,2.42918417239319e-001
1.18850222743701e-001	2.04531622529579e+001,2.50432998501592e-001
1.19124200802737e-001	2.04466103939451e+001,2.57977876833493e-001
1.19398810446427e-001	2.04400601182969e+001,2.65553074684147e-001
1.19674053130724e-001	2.04335114839698e+001,2.73158614245376e-001
1.19949930314937e-001	2.04269645487569e+001,2.80794517452671e-001
1.20226443461741e-001	2.04204193703773e+001,2.88460805989913e-001
1.20503594037179e-001	2.04138760063161e+001,2.96157501284304e-001
1.20781383510677e-001	2.04073345139385e+001,3.03884624512354e-001
1.21059813355048e-001	2.04007949504519e+001,3.11642196600809e-001
1.21338885046497e-001	2.03942573728930e+001,3.19430238226431e-001
1.21618600064636e-001	2.03877218381524e+001,3.27248769819580e-001
1.21898959892486e-001	2.03811884029368e+001,3.35097811562715e-001
1.22179966016487e-001	2.03746571238365e+001,3.42977383397730e-001
1.22461619926504e-001	2.03681280571758e+001,3.50887505017910e-001
1.22743923115840e-001	2.03616012592225e+001,3.58828195880727e-001
1.23026877081238e-001	2.03550767859669e+001,3.66799475199061e-001
1.23310483322890e-001	2.03485546932730e+001,3.74801361950203e-001
1.23594743344450e-001	2.03420350368148e+001,3.82833874873805e-001
1.23879658653036e-001	2.03355178721225e+001,3.90897032476474e-001
1.24165230759240e-001	2.03290032545059e+001,3.98990853029504e-001
1.24451461177138e-001	2.03224912390524e+001,4.07115354571318e-001
1.24738351424294e-001	2.03159818807558e+001,4.15270554914670e-001
1.25025903021771e-001	2.03094752343248e+001,4.23456471639430e-001
1.25314117494141e-001	2.03029713542793e+001,4.31673122098664e-001
1.25602996369487e-001	2.02964702950108e+001,4.39920523424741e-001
1.25892541179416e-001	2.02899721107031e+001,4.48198692526221e-001
1.26182753459066e-001	2.02834768552524e+001,4.56507646085569e-001
1.26473634747114e-001	2.02769845824622e+001,4.64847400572714e-001
1.26765186585784e-001	2.02704953458458e+001,4.73217972233885e-001
1.27057410520853e-001	2.02640091987601e+001,4.81619377103172e-001
1.27350308101665e-001	2.02575261942931e+001,4.90051630997602e-001
1.27643880881134e-001	2.02510463854164e+001,4.98514749527094e-001
1.27938130415752e-001	2.02445698248161e+001,5.07008748087551e-001
1.28233058265601e-001	2.02380965649481e+001,5.15533641865905e-001
1.28528665994361e-001	2.02316266581063e+001,5.24089445845899e-001
1.28824955169313e-001	2.02251601563144e+001,5.32676174804292e-001
1.29121927361353e-001	2.02186971113851e+001,5.41293843315804e-001
1.29419584144998e-001	2.02122375749447e+001,5.49942465757497e-001
1.29717927098395e-001	2.02057815983289e+001,5.58622056303915e-001
1.30016957803328e-001	2.01993292326978e+001,5.67332628937319e-001
1.30316677845229e-001	2.01928805289284e+001,5.76074197440403e-001
1.30617088813183e-001	2.01864355377157e+001,5.84846775409479e-001
1.30918192299940e-001	2.01799943094763e+001,5.93650376245811e-001
1.31219989901919e-001	2.01735568944140e+001,6.02485013165333e-001
1.31522483219223e-001	2.01671233424703e+001,6.11350699195691e-001
1.31825673855640e-001	2.01606937033546e+001,6.20247447181782e-001
1.32129563418657e-001	2.01542680265200e+001,6.29175269785607e-001
1.32434153519466e-001	2.01478463612460e+001,6.38134179494762e-001
1.32739445772973e-001	2.01414287564454e+001,6.47124188610558e-001
1.33045441797808e-001	2.01350152608555e+001,6.56145309264830e-001
1.33352143216331e-001	2.01286059229614e+001,6.65197553415701e-001
1.33659551654643e-001	2.01222007909283e+001,6.74280932845644e-001
1.33967668742593e-001	2.01157999127893e+001,6.83395459178248e-001
1.34276496113785e-001	2.01094033361687e+001,6.92541143858532e-001
1.34586035405594e-001	2.01030111085459e+001,7.01717998175890e-001
1.34896288259164e-001	2.00966232771124e+001,7.10926033256242e-001
1.35207256319427e-001	2.00902398887092e+001,7.20165260058474e-001
1.35518941235103e-001	2.00838609900726e+001,7.29435689397216e-001
1.35831344658714e-001	2.00774866275316e+001,7.38737331920153e-001
1.36144468246594e-001	2.00711168471887e+001,7.48070198126148e-001
1.36458313658891e-001	2.00647516948982e+001,7.57434298364675e-001
1.36772882559584e-001	2.00583912162508e+001,7.66829642838630e-001
1.37088176616484e-001	2.00520354564995e+001,7.76256241599239e-001
1.37404197501250e-001	2.00456844606836e+001,7.85714104559198e-001
1.37720946889394e-001	2.00393382735154e+001,7.95203241486455e-001
1.38038426460287e-001	2.00329969394808e+001,8.04723662014640e-001
1.38356637897177e-001	2.00266605027662e+001,8.14275375639274e-001
1.38675582887188e-001	2.00203290072126e+001,8.23858391716530e-001
1.38995263121334e-001	2.00140024964591e+001,8.33472719478219e-001
1.39315680294529e-001	2.00076810138521e+001,8.43118368027063e-001
1.39636836105593e-001	2.00013646023890e+001,8.52795346332385e-001
1.39958732257261e-001	1.99950533048116e+001,8.62503663243479e-001
1.40281370456195e-001	1.99887471636204e+001,8.72243327491850e-001
1.40604752412990e-001	1.99824462209277e+001,8.82014347681266e-001
1.40928879842186e-001	1.99761505186302e+001,8.91816732305381e-001
1.41253754462274e-001	1.99698600982875e+001,9.01650489739934e-001
1.41579377995707e-001	1.99635750011854e+001,9.11515628250820e-001
1.41905752168908e-001	1.99572952682798e+001,9.21412155991846e-001
1.42232878712281e-001	1.99510209402703e+001,9.31340081014198e-001
1.42560759360218e-001	1.99447520575302e+001,9.41299411261700e-001
1.42889395851109e-001	1.99384886601499e+001,9.51290154579300e-001
1.43218789927353e-001	1.99322307878465e+001,9.61312318705017e-001
1.43548943335364e-001	1.99259784801366e+001,9.71365911291093e-001
1.43879857825583e-001	1.99197317761719e+001,9.81450939889661e-001
1.44211535152486e-001	1.99134907147474e+001,9.91567411956039e-001
1.44543977074591e-001	1.99072553344657e+001,1.00171533486896e+000
1.44877185354475e-001	1.99010256735210e+001,1.01189471591062e+000
1.45211161758773e-001	1.98948017698725e+001,1.02210556228712e+000
1.45545908058195e-001	1.98885836610726e+001,1.03234788111321e+000
1.45881426027534e-001	1.98823713844584e+001,1.04262167943623e+000
1.46217717445671e-001	1.98761649769682e+001,1.05292696421819e+000
1.46554784095590e-001	1.98699644752819e+001,1.06326374235399e+000
1.46892627764385e-001	1.98637699157377e+001,1.07363202066463e+000
1.47231250243271e-001	1.98575813343358e+001,1.08403180590142e+000
1.47570653327588e-001	1.98513987668434e+001,1.09446310476016e+000
1.47910838816819e-001	1.98452222485578e+001,1.10492592385580e+000
1.48251808514594e-001	1.98390518145622e+001,1.11542026975628e+000
1.48593564228699e-001	1.98328874996542e+001,1.12594614897588e+000
1.48936107771090e-001	1.98267293381646e+001,1.13650356795753e+000
1.49279440957898e-001	1.98205773642192e+001,1.14709253310537e+000
1.49623565609442e-001	1.98144316115824e+001,1.15771305077086e+000
1.49968483550236e-001	1.98082921136626e+001,1.16836512725383e+000
1.50314196609001e-001	1.98021589035627e+001,1.17904876881317e+000
1.50660706618673e-001	1.97960320140947e+001,1.18976398167033e+000
1.51008015416413e-001	1.97899114776843e+001,1.20051077200177e+000
1.51356124843619e-001	1.97837973264220e+001,1.21128914594580e+000
1.51705036745932e-001	1.97776895921093e+001,1.22209910961336e+000
1.52054752973248e-001	1.97715883061992e+001,1.23294066908253e+000
1.52405275379728e-001	1.97654934998074e+001,1.24381383040212e+000
1.52756605823806e-001	1.97594052036881e+001,1.25471859959212e+000
1.53108746168202e-001	1.97533234483181e+001,1.26565498265732e+000
1.53461698279928e-001	1.97472482638225e+001,1.27662298558030e+000
1.53815464030302e-001	1.97411796799224e+001,1.28762261431686e+000
1.54170045294954e-001	1.97351177260812e+001,1.29865387481936e+000
1.54525443953840e-001	1.97290624313983e+001,1.30971677302358e+000
1.54881661891247e-001	1.97230138246414e+001,1.32081131485781e+000
1.55238700995807e-001	1.97169719342079e+001,1.33193750623963e+000
1.55596563160506e-001	1.97109367881807e+001,1.34309535308522e+000
1.55955250282694e-001	1.97049084143324e+001,1.35428486131449e+000
1.56314764264094e-001	1.96988868399869e+001,1.36550603683398e+000
1.56675107010813e-001	1.96928720922790e+001,1.37675888557575e+000
1.57036280433354e-001	1.96868641978534e+001,1.38804341345722e+000
1.57398286446620e-001	1.96808631831160e+001,1.39935962642146e+000
1.57761126969933e-001	1.96748690740686e+001,1.41070753041448e+000
1.58124803927037e-001	1.96688818964345e+001,1.42208713140696e+000
1.58489319246110e-001	1.96629016754844e+001,1.43349843537167e+000
1.58854674859776e-001	1.96569284362474e+001,1.44494144831735e+000
1.59220872705115e-001	1.96509622033283e+001,1.45641617626351e+000
1.59587914723672e-001	1.96450030010898e+001,1.46792262527191e+000
1.59955802861465e-001	1.96390508534254e+001,1.47946080141375e+000
1.60324539069002e-001	1.96331057839554e+001,1.49103071080417e+000
1.60694125301286e-001	1.96271678159549e+001,1.50263235959049e+000
1.61064563517825e-001	1.96212369722608e+001,1.51426575394469e+000
1.61435855682647e-001	1.96153132755051e+001,1.52593090009968e+000
1.61808003764305e-001	1.96093967478592e+001,1.53762780431322e+000
1.62181009735891e-001	1.96034874112053e+001,1.54935647289615e+000
1.62554875575047e-001	1.95975852870402e+001,1.56111691220357e+000
1.62929603263970e-001	1.95916903965165e+001,1.57290912863903e+000
1.63305194789432e-001	1.95858027604720e+001,1.58473312866659e+000
1.63681652142779e-001	1.95799223993182e+001,1.59658891879252e+000
1.64058977319952e-001	1.95740493332185e+001,1.60847650559838e+000
1.64437172321491e-001	1.95681835818860e+001,1.62039589571054e+000
1.64816239152549e-001	1.95623251647386e+001,1.63234709582757e+000
1.65196179822900e-001	1.95564741008686e+001,1.64433011271942e+000
1.65576996346951e-001	1.95506304089423e+001,1.65634495321246e+000
1.65958690743754e-001	1.95447941073226e+001,1.66839162421273e+000
1.66341265037015e-001	1.95389652140177e+001,1.68047013269971e+000
1.66724721255104e-001	1.95331437466795e+001,1.69258048572974e+000
1.67109061431069e-001	1.95273297225736e+001,1.70472269043307e+000
1.67494287602642e-001	1.95215231586776e+001,1.71689675403288e+000
1.67880401812254e-001	1.95157240715770e+001,1.72910268383023e+000
1.68267406107045e-001	1.95099324775018e+001,1.74134048721396e+000
1.68655302538872e-001	1.95041483923535e+001,1.75361017166702e+000
1.69044093164324e-001	1.94983718316651e+001,1.76591174476234e+000
1.69433780044731e-001	1.94926028106063e+001,1.77824521416714e+000
1.69824365246172e-001	1.94868413440130e+001,1.79061058764988e+000
1.70215850839493e-001	1.94810874463863e+001,1.80300787308187e+000
1.70608238900310e-001	1.94753411318248e+001,1.81543707843084e+000
1.71001531509027e-001	1.94696024141057e+001,1.82789821177567e+000
1.71395730750840e-001	1.94638713066774e+001,1.84039128130666e+000
1.71790838715757e-001	1.94581478225646e+001,1.85291629531503e+000
1.72186857498599e-001	1.94524319745226e+001,1.86547326221913e+000
1.72583789199018e-001	1.94467237749032e+001,1.87806219054433e+000
1.72981635921508e-001	1.94410232357187e+001,1.89068308893886e+000
1.73380399775412e-001	1.94353303686210e+001,1.90333596617029e+000
1.73780082874935e-001	1.94296451849456e+001,1.91602083113705e+000
1.74180687339159e-001	1.94239676956273e+001,1.92873769285522e+000
1.74582215292048e-001	1.94182979112722e+001,1.94148656047464e+000
1.74984668862463e-001	1.94126358421478e+001,1.95426744328008e+000
1.75388050184174e-001	1.94069814981649e+001,1.96708035068903e+000
1.75792361395867e-001	1.94013348888637e+001,1.97992529225200e+000
1.76197604641161e-001	1.93956960234594e+001,1.99280227766650e+000
1.76603782068614e-001	1.93900649108023e+001,2.00571131676613e+000
1.77010895831740e-001	1.93844415593728e+001,2.01865241952799e+000
1.77418948089014e-001	1.93788259773697e+001,2.03162559608851e+000
1.77827941003890e-001	1.93732181725622e+001,2.04463085671870e+000
1.78237876744807e-001	1.93676181523879e+001,2.05766821184441e+000
1.78648757485203e-001	1.93620259240252e+001,2.07073767206656e+000
1.79060585403527e-001	1.93564414941815e+001,2.08383924811671e+000
1.79473362683250e-001	1.93508648692779e+001,2.09697295089942e+000
1.79887091512876e-001	1.93452960553589e+001,2.11013879147575e+000
1.80301774085954e-001	1.93397350581714e+001,2.12333678108190e+000
1.80717412601090e-001	1.93341818830436e+001,2.13656693110627e+000
1.81134009261958e-001	1.93286365350471e+001,2.14982925312643e+000
1.81551566277311e-001	1.93230990188016e+001,2.16312375886972e+000
1.81970085860996e-001	1.93175693386901e+001,2.17645046026151e+000
1.82389570231961e-001	1.93120474986442e+001,2.18980936938105e+000
1.82810021614272e-001	1.93065335023346e+001,2.20320049850677e+000
1.83231442237119e-001	1.93010273530448e+001,2.21662386008688e+000
1.83653834334832e-001	1.92955290537357e+001,2.23007946676244e+000
1.84077200146893e-001	1.92900386069834e+001,2.24356733134992e+000
1.84501541917945e-001	1.92845560150756e+001,2.25708746686723e+000
1.84926861897805e-001	1.92790812799551e+001,2.27063988652521e+000
1.85353162341479e-001	1.92736144031511e+001,2.28422460371174e+000
1.85780445509167e-001	1.92681553859314e+001,2.29784163202723e+000
1.86208713666284e-001	1.92627042291784e+001,2.31149098526518e+000
1.86637969083464e-001	1.92572609334446e+001,2.32517267741928e+000
1.87068214036577e-001	1.92518254989659e+001,2.33888672269253e+000
1.87499450806739e-001	1.92463979255761e+001,2.35263313548150e+000
1.87931681680324e-001	1.92409782128680e+001,2.36641193041038e+000
1.88364908948977e-001	1.92355663599702e+001,2.38022312228916e+000
1.88799134909627e-001	1.92301623658006e+001,2.39406672616553e+000
1.89234361864495e-001	1.92247662288382e+001,2.40794275728283e+000
1.89670592121112e-001	1.92193779472793e+001,2.42185123111149e+000
1.90107827992327e-001	1.92139975189988e+001,2.43579216334666e+000
1.90546071796322e-001	1.92086249415012e+001,2.44976556989756e+000
1.90985325856621e-001	1.92032602119594e+001,2.46377146689773e+000
1.91425592502106e-001	1.91979033272103e+001,2.47780987070755e+000
1.91866874067026e-001	1.91925542837872e+001,2.49188079792472e+000
1.92309172891013e-001	1.91872130778423e+001,2.50598426536406e+000
1.92752491319091e-001	1.91818797052342e+001,2.52012029008415e+000
1.93196831701689e-001	1.91765541614875e+001,2.53428888937938e+000
1.93642196394658e-001	1.91712364417664e+001,2.54849008077493e+000
1.94088587759275e-001	1.91659265409238e+001,2.56272388203942e+000
1.94536008162263e-001	1.91606244535161e+001,2.57699031119355e+000
1.94984459975802e-001	1.91553301737212e+001,2.59128938649037e+000
1.95433945577536e-001	1.91500436953919e+001,2.60562112642857e+000
1.95884467350596e-001	1.91447650120762e+001,2.61998554976310e+000
1.96336027683602e-001	1.91394941169907e+001,2.63438267549980e+000
1.96788628970681e-001	1.91342310030276e+001,2.64881252289423e+000
1.97242273611482e-001	1.91289756627476e+001,2.66327511146234e+000
1.97696964011183e-001	1.91237280884037e+001,2.67777046097544e+000
1.98152702580507e-001	1.91184882718611e+001,2.69229859145172e+000
1.98609491735734e-001	1.91132562047536e+001,2.70685952319494e+000
1.99067333898716e-001	1.91080318783588e+001,2.72145327676260e+000
1.99526231496885e-001	1.91028152835732e+001,2.73607987296460e+000
1.99986186963271e-001	1.90976064110715e+001,2.75073933290434e+000
