Freq.	V(vout)
1.00000000000000e-002	-9.89830749355217e-004,1.46556901739894e-002
1.00230523807790e-002	-9.94395470230875e-004,1.46895815629065e-002
1.00461579027840e-002	-9.98981222842478e-004,1.47235518156560e-002
1.00693166885180e-002	-1.00358810391886e-003,1.47576011191411e-002
1.00925288607668e-002	-1.00821621063218e-003,1.47917296607284e-002
1.01157945425990e-002	-1.01286564059879e-003,1.48259376281424e-002
1.01391138573668e-002	-1.01753649188209e-003,1.48602252097566e-002
1.01624869287070e-002	-1.02222886299586e-003,1.48945925942494e-002
1.01859138805412e-002	-1.02694285290427e-003,1.49290399708952e-002
1.02093948370768e-002	-1.03167856102725e-003,1.49635675293528e-002
1.02329299228075e-002	-1.03643608723508e-003,1.49981754597976e-002
1.02565192625141e-002	-1.04121553186253e-003,1.50328639528290e-002
1.02801629812647e-002	-1.04601699570010e-003,1.50676331995894e-002
1.03038612044162e-002	-1.05084057999820e-003,1.51024833917116e-002
1.03276140576140e-002	-1.05568638647626e-003,1.51374147211862e-002
1.03514216667934e-002	-1.06055451731358e-003,1.51724273806262e-002
1.03752841581801e-002	-1.06544507516387e-003,1.52075215630422e-002
1.03992016582906e-002	-1.07035816314654e-003,1.52426974619351e-002
1.04231742939330e-002	-1.07529388485411e-003,1.52779552713752e-002
1.04472021922080e-002	-1.08025234435518e-003,1.53132951857511e-002
1.04712854805090e-002	-1.08523364619396e-003,1.53487174001136e-002
1.04954242865232e-002	-1.09023789539279e-003,1.53842221098449e-002
1.05196187382322e-002	-1.09526519745582e-003,1.54198095110026e-002
1.05438689639126e-002	-1.10031565837113e-003,1.54554797999360e-002
1.05681750921366e-002	-1.10538938460988e-003,1.54912331736567e-002
1.05925372517729e-002	-1.11048648313459e-003,1.55270698295607e-002
1.06169555719872e-002	-1.11560706139332e-003,1.55629899655472e-002
1.06414301822431e-002	-1.12075122732800e-003,1.55989937801117e-002
1.06659612123026e-002	-1.12591908937565e-003,1.56350814720677e-002
1.06905487922266e-002	-1.13111075646876e-003,1.56712532409440e-002
1.07151930523760e-002	-1.13632633803906e-003,1.57075092866141e-002
1.07398941234124e-002	-1.14156594401835e-003,1.57438498094943e-002
1.07646521362983e-002	-1.14682968484341e-003,1.57802750105842e-002
1.07894672222983e-002	-1.15211767145359e-003,1.58167850912410e-002
1.08143395129794e-002	-1.15743001530070e-003,1.58533802534179e-002
1.08392691402120e-002	-1.16276682834404e-003,1.58900606995851e-002
1.08642562361706e-002	-1.16812822305293e-003,1.59268266327028e-002
1.08893009333343e-002	-1.17351431241576e-003,1.59636782562611e-002
1.09144033644875e-002	-1.17892520993628e-003,1.60006157742272e-002
1.09395636627209e-002	-1.18436102963818e-003,1.60376393911114e-002
1.09647819614318e-002	-1.18982188606590e-003,1.60747493119142e-002
1.09900583943252e-002	-1.19530789429001e-003,1.61119457421926e-002
1.10153930954141e-002	-1.20081916990513e-003,1.61492288879539e-002
1.10407861990207e-002	-1.20635582903741e-003,1.61865989558415e-002
1.10662378397766e-002	-1.21191798834325e-003,1.62240561529094e-002
1.10917481526240e-002	-1.21750576501307e-003,1.62616006867813e-002
1.11173172728159e-002	-1.22311927677333e-003,1.62992327656108e-002
1.11429453359173e-002	-1.22875864188824e-003,1.63369525980153e-002
1.11686324778056e-002	-1.23442397916510e-003,1.63747603932746e-002
1.11943788346715e-002	-1.24011540795431e-003,1.64126563610790e-002
1.12201845430196e-002	-1.24583304814979e-003,1.64506407116624e-002
1.12460497396692e-002	-1.25157702019850e-003,1.64887136558677e-002
1.12719745617551e-002	-1.25734744509258e-003,1.65268754050283e-002
1.12979591467279e-002	-1.26314444438423e-003,1.65651261709411e-002
1.13240036323555e-002	-1.26896814017622e-003,1.66034661660522e-002
1.13501081567231e-002	-1.27481865513221e-003,1.66418956032981e-002
1.13762728582343e-002	-1.28069611247677e-003,1.66804146961582e-002
1.14024978756117e-002	-1.28660063599993e-003,1.67190236586155e-002
1.14287833478977e-002	-1.29253235005221e-003,1.67577227052757e-002
1.14551294144553e-002	-1.29849137955827e-003,1.67965120512345e-002
1.14815362149688e-002	-1.30447785001403e-003,1.68353919121973e-002
1.15080038894443e-002	-1.31049188748376e-003,1.68743625043066e-002
1.15345325782109e-002	-1.31653361861417e-003,1.69134240443141e-002
1.15611224219210e-002	-1.32260317063026e-003,1.69525767495680e-002
1.15877735615512e-002	-1.32870067133529e-003,1.69918208378934e-002
1.16144861384034e-002	-1.33482624911953e-003,1.70311565277378e-002
1.16412602941049e-002	-1.34098003295983e-003,1.70705840380922e-002
1.16680961706096e-002	-1.34716215242122e-003,1.71101035884376e-002
1.16949939101987e-002	-1.35337273766363e-003,1.71497153988513e-002
1.17219536554813e-002	-1.35961191944262e-003,1.71894196900597e-002
1.17489755493953e-002	-1.36587982910532e-003,1.72292166832265e-002
1.17760597352080e-002	-1.37217659860694e-003,1.72691066001378e-002
1.18032063565173e-002	-1.37850236050001e-003,1.73090896631762e-002
1.18304155572516e-002	-1.38485724794724e-003,1.73491660951879e-002
1.18576874816716e-002	-1.39124139471653e-003,1.73893361197211e-002
1.18850222743701e-002	-1.39765493519093e-003,1.74295999608144e-002
1.19124200802737e-002	-1.40409800436031e-003,1.74699578431025e-002
1.19398810446427e-002	-1.41057073784044e-003,1.75104099917765e-002
1.19674053130724e-002	-1.41707327186309e-003,1.75509566325972e-002
1.19949930314937e-002	-1.42360574327924e-003,1.75915979920144e-002
1.20226443461741e-002	-1.43016828957036e-003,1.76323342968884e-002
1.20503594037179e-002	-1.43676104884256e-003,1.76731657747554e-002
1.20781383510677e-002	-1.44338415983530e-003,1.77140926537477e-002
1.21059813355048e-002	-1.45003776191930e-003,1.77551151625141e-002
1.21338885046497e-002	-1.45672199510527e-003,1.77962335303661e-002
1.21618600064636e-002	-1.46343700003890e-003,1.78374479871848e-002
1.21898959892486e-002	-1.47018291801331e-003,1.78787587634207e-002
1.22179966016487e-002	-1.47695989096285e-003,1.79201660900812e-002
1.22461619926504e-002	-1.48376806147545e-003,1.79616701989021e-002
1.22743923115840e-002	-1.49060757278238e-003,1.80032713220165e-002
1.23026877081238e-002	-1.49747856877635e-003,1.80449696923395e-002
1.23310483322890e-002	-1.50438119400291e-003,1.80867655433159e-002
1.23594743344450e-002	-1.51131559367033e-003,1.81286591089470e-002
1.23879658653036e-002	-1.51828191364878e-003,1.81706506238832e-002
1.24165230759240e-002	-1.52528030047325e-003,1.82127403233845e-002
1.24451461177138e-002	-1.53231090135016e-003,1.82549284433201e-002
1.24738351424294e-002	-1.53937386415652e-003,1.82972152201556e-002
1.25025903021771e-002	-1.54646933744492e-003,1.83396008909791e-002
1.25314117494141e-002	-1.55359747044599e-003,1.83820856934086e-002
1.25602996369487e-002	-1.56075841307173e-003,1.84246698658306e-002
1.25892541179416e-002	-1.56795231591716e-003,1.84673536471352e-002
1.26182753459066e-002	-1.57517933026612e-003,1.85101372768215e-002
1.26473634747114e-002	-1.58243960809623e-003,1.85530209950648e-002
1.26765186585784e-002	-1.58973330207226e-003,1.85960050427288e-002
1.27057410520853e-002	-1.59706056555774e-003,1.86390896610749e-002
1.27350308101665e-002	-1.60442155262158e-003,1.86822750922389e-002
1.27643880881134e-002	-1.61181641802562e-003,1.87255615788733e-002
1.27938130415752e-002	-1.61924531724703e-003,1.87689493642133e-002
1.28233058265601e-002	-1.62670840647001e-003,1.88124386921437e-002
1.28528665994361e-002	-1.63420584258577e-003,1.88560298073039e-002
1.28824955169313e-002	-1.64173778320996e-003,1.88997229548770e-002
1.29121927361353e-002	-1.64930438667269e-003,1.89435183806287e-002
1.29419584144998e-002	-1.65690581202600e-003,1.89874163310666e-002
1.29717927098395e-002	-1.66454221904886e-003,1.90314170532551e-002
1.30016957803328e-002	-1.67221376824875e-003,1.90755207949734e-002
1.30316677845229e-002	-1.67992062086257e-003,1.91197278045841e-002
1.30617088813183e-002	-1.68766293886983e-003,1.91640383311121e-002
1.30918192299940e-002	-1.69544088498026e-003,1.92084526243242e-002
1.31219989901920e-002	-1.70325462265283e-003,1.92529709344905e-002
1.31522483219223e-002	-1.71110431608832e-003,1.92975935126762e-002
1.31825673855640e-002	-1.71899013023263e-003,1.93423206104498e-002
1.32129563418657e-002	-1.72691223079249e-003,1.93871524800951e-002
1.32434153519466e-002	-1.73487078422223e-003,1.94320893746912e-002
1.32739445772973e-002	-1.74286595774033e-003,1.94771315477406e-002
1.33045441797808e-002	-1.75089791932448e-003,1.95222792536207e-002
1.33352143216332e-002	-1.75896683771982e-003,1.95675327472385e-002
1.33659551654643e-002	-1.76707288243894e-003,1.96128922842694e-002
1.33967668742593e-002	-1.77521622377187e-003,1.96583581209190e-002
1.34276496113786e-002	-1.78339703277690e-003,1.97039305142404e-002
1.34586035405594e-002	-1.79161548129884e-003,1.97496097217640e-002
1.34896288259164e-002	-1.79987174196074e-003,1.97953960019209e-002
1.35207256319427e-002	-1.80816598817959e-003,1.98412896136190e-002
1.35518941235103e-002	-1.81649839415229e-003,1.98872908165880e-002
1.35831344658714e-002	-1.82486913488209e-003,1.99333998710871e-002
1.36144468246594e-002	-1.83327838615546e-003,1.99796170382235e-002
1.36458313658892e-002	-1.84172632457103e-003,2.00259425797406e-002
1.36772882559584e-002	-1.85021312752801e-003,2.00723767579643e-002
1.37088176616484e-002	-1.85873897323119e-003,2.01189198360952e-002
1.37404197501251e-002	-1.86730404070162e-003,2.01655720778900e-002
1.37720946889394e-002	-1.87590850977258e-003,2.02123337478477e-002
1.38038426460288e-002	-1.88455256109943e-003,2.02592051110765e-002
1.38356637897177e-002	-1.89323637615798e-003,2.03061864335324e-002
1.38675582887188e-002	-1.90196013725194e-003,2.03532779818075e-002
1.38995263121334e-002	-1.91072402751213e-003,2.04004800232092e-002
1.39315680294529e-002	-1.91952823090964e-003,2.04477928256807e-002
1.39636836105593e-002	-1.92837293224517e-003,2.04952166580133e-002
1.39958732257261e-002	-1.93725831716965e-003,2.05427517895017e-002
1.40281370456195e-002	-1.94618457216854e-003,2.05903984903943e-002
1.40604752412990e-002	-1.95515188458999e-003,2.06381570314430e-002
1.40928879842186e-002	-1.96416044262079e-003,2.06860276843008e-002
1.41253754462274e-002	-1.97321043531540e-003,2.07340107212032e-002
1.41579377995707e-002	-1.98230205258349e-003,2.07821064151545e-002
1.41905752168908e-002	-1.99143548519824e-003,2.08303150399007e-002
1.42232878712281e-002	-2.00061092480710e-003,2.08786368698765e-002
1.42560759360218e-002	-2.00982856392101e-003,2.09270721802590e-002
1.42889395851109e-002	-2.01908859593348e-003,2.09756212469933e-002
1.43218789927353e-002	-2.02839121511806e-003,2.10242843466869e-002
1.43548943335364e-002	-2.03773661662672e-003,2.10730617567955e-002
1.43879857825583e-002	-2.04712499650639e-003,2.11219537553838e-002
1.44211535152486e-002	-2.05655655169067e-003,2.11709606213118e-002
1.44543977074592e-002	-2.06603148001313e-003,2.12200826341810e-002
1.44877185354475e-002	-2.07554998020061e-003,2.12693200744676e-002
1.45211161758773e-002	-2.08511225189067e-003,2.13186732231510e-002
1.45545908058195e-002	-2.09471849562907e-003,2.13681423620586e-002
1.45881426027534e-002	-2.10436891286731e-003,2.14177277738922e-002
1.46217717445671e-002	-2.11406370597915e-003,2.14674297419363e-002
1.46554784095590e-002	-2.12380307825487e-003,2.15172485503237e-002
1.46892627764385e-002	-2.13358723391198e-003,2.15671844839551e-002
1.47231250243271e-002	-2.14341637809609e-003,2.16172378283939e-002
1.47570653327588e-002	-2.15329071688254e-003,2.16674088701838e-002
1.47910838816819e-002	-2.16321045728716e-003,2.17176978963455e-002
1.48251808514594e-002	-2.17317580726216e-003,2.17681051949329e-002
1.48593564228699e-002	-2.18318697571347e-003,2.18186310546093e-002
1.48936107771090e-002	-2.19324417248672e-003,2.18692757648596e-002
1.49279440957898e-002	-2.20334760838872e-003,2.19200396159633e-002
1.49623565609442e-002	-2.21349749518087e-003,2.19709228989156e-002
1.49968483550236e-002	-2.22369404558657e-003,2.20219259055858e-002
1.50314196609001e-002	-2.23393747329872e-003,2.20730489286383e-002
1.50660706618673e-002	-2.24422799297721e-003,2.21242922613997e-002
1.51008015416413e-002	-2.25456582026132e-003,2.21756561980446e-002
1.51356124843619e-002	-2.26495117176813e-003,2.22271410335955e-002
1.51705036745932e-002	-2.27538426509408e-003,2.22787470638696e-002
1.52054752973248e-002	-2.28586531883327e-003,2.23304745852938e-002
1.52405275379728e-002	-2.29639455256832e-003,2.23823238954871e-002
1.52756605823806e-002	-2.30697218687449e-003,2.24342952924130e-002
1.53108746168202e-002	-2.31759844333874e-003,2.24863890751478e-002
1.53461698279928e-002	-2.32827354454485e-003,2.25386055434568e-002
1.53815464030302e-002	-2.33899771409325e-003,2.25909449979531e-002
1.54170045294954e-002	-2.34977117659525e-003,2.26434077401242e-002
1.54525443953840e-002	-2.36059415768709e-003,2.26959940720934e-002
1.54881661891247e-002	-2.37146688402834e-003,2.27487042969116e-002
1.55238700995807e-002	-2.38238958330017e-003,2.28015387185568e-002
1.55596563160506e-002	-2.39336248422525e-003,2.28544976417225e-002
1.55955250282694e-002	-2.40438581656200e-003,2.29075813718441e-002
1.56314764264094e-002	-2.41545981111446e-003,2.29607902153639e-002
1.56675107010813e-002	-2.42658469972402e-003,2.30141244794394e-002
1.57036280433354e-002	-2.43776071529762e-003,2.30675844720762e-002
1.57398286446620e-002	-2.44898809179195e-003,2.31211705021805e-002
1.57761126969933e-002	-2.46026706422759e-003,2.31748828793743e-002
1.58124803927037e-002	-2.47159786868233e-003,2.32287219143655e-002
1.58489319246110e-002	-2.48298074232185e-003,2.32826879183921e-002
1.58854674859776e-002	-2.49441592337153e-003,2.33367812038050e-002
1.59220872705115e-002	-2.50590365114711e-003,2.33910020836174e-002
1.59587914723672e-002	-2.51744416604394e-003,2.34453508718228e-002
1.59955802861465e-002	-2.52903770955348e-003,2.34998278833157e-002
1.60324539069002e-002	-2.54068452425674e-003,2.35544334336265e-002
1.60694125301286e-002	-2.55238485383914e-003,2.36091678393983e-002
1.61064563517825e-002	-2.56413894308559e-003,2.36640314179896e-002
1.61435855682647e-002	-2.57594703789450e-003,2.37190244877128e-002
1.61808003764305e-002	-2.58780938528031e-003,2.37741473676753e-002
1.62181009735891e-002	-2.59972623337928e-003,2.38294003779116e-002
1.62554875575047e-002	-2.61169783143954e-003,2.38847838393043e-002
1.62929603263971e-002	-2.62372442985504e-003,2.39402980736101e-002
1.63305194789432e-002	-2.63580628014156e-003,2.39959434035929e-002
1.63681652142779e-002	-2.64794363496316e-003,2.40517201527316e-002
1.64058977319952e-002	-2.66013674813057e-003,2.41076286454593e-002
1.64437172321491e-002	-2.67238587458959e-003,2.41636692072687e-002
1.64816239152549e-002	-2.68469127045995e-003,2.42198421641825e-002
1.65196179822900e-002	-2.69705319300973e-003,2.42761478434951e-002
1.65576996346951e-002	-2.70947190067600e-003,2.43325865730840e-002
1.65958690743754e-002	-2.72194765306316e-003,2.43891586820453e-002
1.66341265037015e-002	-2.73448071095707e-003,2.44458645001642e-002
1.66724721255104e-002	-2.74707133631918e-003,2.45027043582325e-002
1.67109061431069e-002	-2.75971979230480e-003,2.45596785878370e-002
1.67494287602642e-002	-2.77242634325232e-003,2.46167875217039e-002
1.67880401812254e-002	-2.78519125469563e-003,2.46740314933011e-002
1.68267406107045e-002	-2.79801479338066e-003,2.47314108369710e-002
1.68655302538872e-002	-2.81089722725134e-003,2.47889258883278e-002
1.69044093164324e-002	-2.82383882547358e-003,2.48465769834359e-002
1.69433780044731e-002	-2.83683985842619e-003,2.49043644596053e-002
1.69824365246172e-002	-2.84990059769751e-003,2.49622886551262e-002
1.70215850839493e-002	-2.86302131614098e-003,2.50203499088186e-002
1.70608238900310e-002	-2.87620228780301e-003,2.50785485610925e-002
1.71001531509027e-002	-2.88944378800419e-003,2.51368849527022e-002
1.71395730750841e-002	-2.90274609328458e-003,2.51953594257531e-002
1.71790838715757e-002	-2.91610948144850e-003,2.52539723230929e-002
1.72186857498599e-002	-2.92953423156031e-003,2.53127239884962e-002
1.72583789199018e-002	-2.94302062393783e-003,2.53716147669038e-002
1.72981635921508e-002	-2.95656894017057e-003,2.54306450040775e-002
1.73380399775412e-002	-2.97017946311553e-003,2.54898150467598e-002
1.73780082874935e-002	-2.98385247691796e-003,2.55491252426996e-002
1.74180687339159e-002	-2.99758826700139e-003,2.56085759405471e-002
1.74582215292048e-002	-3.01138712008088e-003,2.56681674900121e-002
1.74984668862464e-002	-3.02524932417214e-003,2.57279002417581e-002
1.75388050184174e-002	-3.03917516858409e-003,2.57877745474558e-002
1.75792361395867e-002	-3.05316494394032e-003,2.58477907595969e-002
1.76197604641161e-002	-3.06721894217257e-003,2.59079492319451e-002
1.76603782068614e-002	-3.08133745653388e-003,2.59682503190589e-002
1.77010895831740e-002	-3.09552078160694e-003,2.60286943764771e-002
1.77418948089014e-002	-3.10976921329740e-003,2.60892817609044e-002
1.77827941003890e-002	-3.12408304885051e-003,2.61500128299993e-002
1.78237876744807e-002	-3.13846258685767e-003,2.62108879421356e-002
1.78648757485203e-002	-3.15290812725646e-003,2.62719074571709e-002
1.79060585403527e-002	-3.16741997133230e-003,2.63330717357576e-002
1.79473362683250e-002	-3.18199842174163e-003,2.63943811395022e-002
1.79887091512877e-002	-3.19664378250362e-003,2.64558360310707e-002
1.80301774085955e-002	-3.21135635900681e-003,2.65174367742421e-002
1.80717412601090e-002	-3.22613645802399e-003,2.65791837336695e-002
1.81134009261958e-002	-3.24098438770725e-003,2.66410772752252e-002
1.81551566277311e-002	-3.25590045760124e-003,2.67031177656291e-002
1.81970085860996e-002	-3.27088497865305e-003,2.67653055728198e-002
1.82389570231961e-002	-3.28593826319738e-003,2.68276410657164e-002
1.82810021614272e-002	-3.30106062500120e-003,2.68901246141652e-002
1.83231442237119e-002	-3.31625237922898e-003,2.69527565892051e-002
1.83653834334832e-002	-3.33151384247417e-003,2.70155373629609e-002
1.84077200146893e-002	-3.34684533275256e-003,2.70784673084850e-002
1.84501541917945e-002	-3.36224716952384e-003,2.71415467999425e-002
1.84926861897805e-002	-3.37771967367995e-003,2.72047762125584e-002
1.85353162341479e-002	-3.39326316756500e-003,2.72681559227235e-002
1.85780445509167e-002	-3.40887797497688e-003,2.73316863076761e-002
1.86208713666284e-002	-3.42456442116568e-003,2.73953677460594e-002
1.86637969083464e-002	-3.44032283285514e-003,2.74592006173374e-002
1.87068214036577e-002	-3.45615353823937e-003,2.75231853022462e-002
1.87499450806739e-002	-3.47205686699111e-003,2.75873221823165e-002
1.87931681680324e-002	-3.48803315027172e-003,2.76516116405364e-002
1.88364908948977e-002	-3.50408272073111e-003,2.77160540607419e-002
1.88799134909627e-002	-3.52020591252102e-003,2.77806498278817e-002
1.89234361864495e-002	-3.53640306129503e-003,2.78453993282293e-002
1.89670592121112e-002	-3.55267450422675e-003,2.79103029488796e-002
1.90107827992327e-002	-3.56902057999494e-003,2.79753610782520e-002
1.90546071796322e-002	-3.58544162881165e-003,2.80405741059056e-002
1.90985325856621e-002	-3.60193799242882e-003,2.81059424221941e-002
1.91425592502106e-002	-3.61851001412178e-003,2.81714664189550e-002
1.91866874067026e-002	-3.63515803872395e-003,2.82371464890590e-002
1.92309172891013e-002	-3.65188241260869e-003,2.83029830265164e-002
1.92752491319091e-002	-3.66868348371905e-003,2.83689764262115e-002
1.93196831701690e-002	-3.68556160156783e-003,2.84351270846185e-002
1.93642196394658e-002	-3.70251711722429e-003,2.85014353991123e-002
1.94088587759275e-002	-3.71955038335056e-003,2.85679017681278e-002
1.94536008162263e-002	-3.73666175419508e-003,2.86345265914776e-002
1.94984459975802e-002	-3.75385158559256e-003,2.87013102700603e-002
1.95433945577537e-002	-3.77112023498218e-003,2.87682532057818e-002
1.95884467350596e-002	-3.78846806141593e-003,2.88353558017929e-002
1.96336027683602e-002	-3.80589542555520e-003,2.89026184626488e-002
1.96788628970682e-002	-3.82340268968084e-003,2.89700415937790e-002
1.97242273611482e-002	-3.84099021770793e-003,2.90376256018848e-002
1.97696964011183e-002	-3.85865837518755e-003,2.91053708949658e-002
1.98152702580507e-002	-3.87640752930670e-003,2.91732778820017e-002
