Freq.	V(vout)/(I(Itest)-I(RL))
1.00000000000000e-002	3.86885099714433e-002,2.07088523801528e-002
1.00230523807790e-002	3.86628132703160e-002,2.07597361235597e-002
1.00461579027840e-002	3.86369991712200e-002,2.08107590562618e-002
1.00693166885180e-002	3.86110671437270e-002,2.08619216518849e-002
1.00925288607668e-002	3.85850166550995e-002,2.09132243862392e-002
1.01157945425990e-002	3.85588471701640e-002,2.09646677371906e-002
1.01391138573668e-002	3.85325581515488e-002,2.10162521850208e-002
1.01624869287070e-002	3.85061490593825e-002,2.10679782120427e-002
1.01859138805412e-002	3.84796193514537e-002,2.11198463027785e-002
1.02093948370768e-002	3.84529684831995e-002,2.11718569441207e-002
1.02329299228075e-002	3.84261959076115e-002,2.12240106250369e-002
1.02565192625141e-002	3.83993010753084e-002,2.12763078368619e-002
1.02801629812647e-002	3.83722834344384e-002,2.13287490730897e-002
1.03038612044162e-002	3.83451424307888e-002,2.13813348295929e-002
1.03276140576140e-002	3.83178775076932e-002,2.14340656045346e-002
1.03514216667934e-002	3.82904881059446e-002,2.14869418982013e-002
1.03752841581801e-002	3.82629736640805e-002,2.15399642135362e-002
1.03992016582906e-002	3.82353336179569e-002,2.15931330554867e-002
1.04231742939330e-002	3.82075674010767e-002,2.16464489315315e-002
1.04472021922080e-002	3.81796744444204e-002,2.16999123514432e-002
1.04712854805090e-002	3.81516541764325e-002,2.17535238273243e-002
1.04954242865232e-002	3.81235060231395e-002,2.18072838738089e-002
1.05196187382322e-002	3.80952294079680e-002,2.18611930078118e-002
1.05438689639126e-002	3.80668237518293e-002,2.19152517486462e-002
1.05681750921366e-002	3.80382884731347e-002,2.19694606181738e-002
1.05925372517729e-002	3.80096229877360e-002,2.20238201406461e-002
1.06169555719872e-002	3.79808267088242e-002,2.20783308426373e-002
1.06414301822431e-002	3.79518990472009e-002,2.21329932534456e-002
1.06659612123026e-002	3.79228394109214e-002,2.21878079046612e-002
1.06905487922266e-002	3.78936472055253e-002,2.22427753304230e-002
1.07151930523760e-002	3.78643218339338e-002,2.22978960674182e-002
1.07398941234124e-002	3.78348626965114e-002,2.23531706549306e-002
1.07646521362983e-002	3.78052691908538e-002,2.24085996345764e-002
1.07894672222983e-002	3.77755407121125e-002,2.24641835508195e-002
1.08143395129794e-002	3.77456766526307e-002,2.25199229504441e-002
1.08392691402120e-002	3.77156764021349e-002,2.25758183829123e-002
1.08642562361706e-002	3.76855393477767e-002,2.26318704004153e-002
1.08893009333343e-002	3.76552648739147e-002,2.26880795575914e-002
1.09144033644875e-002	3.76248523622954e-002,2.27444464118559e-002
1.09395636627209e-002	3.75943011918883e-002,2.28009715231265e-002
1.09647819614318e-002	3.75636107390336e-002,2.28576554541639e-002
1.09900583943252e-002	3.75327803773112e-002,2.29144987703087e-002
1.10153930954141e-002	3.75018094775435e-002,2.29715020395972e-002
1.10407861990207e-002	3.74706974078706e-002,2.30286658328588e-002
1.10662378397766e-002	3.74394435336080e-002,2.30859907235657e-002
1.10917481526240e-002	3.74080472173467e-002,2.31434772880002e-002
1.11173172728159e-002	3.73765078189135e-002,2.32011261052258e-002
1.11429453359173e-002	3.73448246953539e-002,2.32589377571370e-002
1.11686324778056e-002	3.73129972008008e-002,2.33169128281834e-002
1.11943788346715e-002	3.72810246867111e-002,2.33750519059032e-002
1.12201845430196e-002	3.72489065016651e-002,2.34333555805843e-002
1.12460497396692e-002	3.72166419914074e-002,2.34918244453070e-002
1.12719745617551e-002	3.71842304988359e-002,2.35504590960931e-002
1.12979591467279e-002	3.71516713640333e-002,2.36092601318459e-002
1.13240036323555e-002	3.71189639241093e-002,2.36682281542593e-002
1.13501081567231e-002	3.70861075134431e-002,2.37273637681637e-002
1.13762728582343e-002	3.70531014633890e-002,2.37866675811025e-002
1.14024978756117e-002	3.70199451024462e-002,2.38461402036711e-002
1.14287833478977e-002	3.69866377562554e-002,2.39057822495101e-002
1.14551294144553e-002	3.69531787474281e-002,2.39655943351052e-002
1.14815362149688e-002	3.69195673957741e-002,2.40255770801611e-002
1.15080038894443e-002	3.68858030179585e-002,2.40857311070871e-002
1.15345325782109e-002	3.68518849278802e-002,2.41460570416752e-002
1.15611224219210e-002	3.68178124363477e-002,2.42065555125662e-002
1.15877735615512e-002	3.67835848512419e-002,2.42672271515853e-002
1.16144861384034e-002	3.67492014774029e-002,2.43280725936108e-002
1.16412602941049e-002	3.67146616167036e-002,2.43890924766692e-002
1.16680961706096e-002	3.66799645679745e-002,2.44502874419242e-002
1.16949939101987e-002	3.66451096270258e-002,2.45116581337100e-002
1.17219536554813e-002	3.66100960865720e-002,2.45732051994198e-002
1.17489755493953e-002	3.65749232363777e-002,2.46349292898729e-002
1.17760597352080e-002	3.65395903629867e-002,2.46968310588288e-002
1.18032063565173e-002	3.65040967500551e-002,2.47589111635972e-002
1.18304155572516e-002	3.64684416780013e-002,2.48211702645035e-002
1.18576874816716e-002	3.64326244241394e-002,2.48836090251561e-002
1.18850222743701e-002	3.63966442627602e-002,2.49462281126182e-002
1.19124200802737e-002	3.63605004649639e-002,2.50090281971736e-002
1.19398810446427e-002	3.63241922986905e-002,2.50720099523706e-002
1.19674053130724e-002	3.62877190287697e-002,2.51351740552469e-002
1.19949930314937e-002	3.62510799168598e-002,2.51985211861561e-002
1.20226443461741e-002	3.62142742213865e-002,2.52620520287849e-002
1.20503594037179e-002	3.61773011976869e-002,2.53257672704111e-002
1.20781383510677e-002	3.61401600977818e-002,2.53896676015560e-002
1.21059813355048e-002	3.61028501705804e-002,2.54537537163688e-002
1.21338885046497e-002	3.60653706616660e-002,2.55180263123289e-002
1.21618600064636e-002	3.60277208134569e-002,2.55824860905394e-002
1.21898959892486e-002	3.59898998650644e-002,2.56471337555647e-002
1.22179966016487e-002	3.59519070523895e-002,2.57119700155589e-002
1.22461619926504e-002	3.59137416079941e-002,2.57769955821792e-002
1.22743923115840e-002	3.58754027611979e-002,2.58422111707417e-002
1.23026877081238e-002	3.58368897379778e-002,2.59076175001237e-002
1.23310483322890e-002	3.57982017610084e-002,2.59732152928527e-002
1.23594743344450e-002	3.57593380496603e-002,2.60390052751685e-002
1.23879658653036e-002	3.57202978199417e-002,2.61049881769158e-002
1.24165230759240e-002	3.56810802844928e-002,2.61711647316745e-002
1.24451461177138e-002	3.56416846525891e-002,2.62375356767223e-002
1.24738351424294e-002	3.56021101301242e-002,2.63041017530915e-002
1.25025903021771e-002	3.55623559196314e-002,2.63708637056468e-002
1.25314117494141e-002	3.55224212201889e-002,2.64378222829539e-002
1.25602996369487e-002	3.54823052274985e-002,2.65049782374984e-002
1.25892541179416e-002	3.54420071338018e-002,2.65723323255285e-002
1.26182753459066e-002	3.54015261278554e-002,2.66398853071038e-002
1.26473634747114e-002	3.53608613950935e-002,2.67076379464397e-002
1.26765186585784e-002	3.53200121172742e-002,2.67755910112648e-002
1.27057410520853e-002	3.52789774728735e-002,2.68437452736199e-002
1.27350308101665e-002	3.52377566367165e-002,2.69121015092502e-002
1.27643880881134e-002	3.51963487802063e-002,2.69806604980514e-002
1.27938130415752e-002	3.51547530711620e-002,2.70494230237927e-002
1.28233058265601e-002	3.51129686739357e-002,2.71183898744408e-002
1.28528665994361e-002	3.50709947492563e-002,2.71875618419110e-002
1.28824955169313e-002	3.50288304543354e-002,2.72569397222446e-002
1.29121927361353e-002	3.49864749427491e-002,2.73265243155289e-002
1.29419584144998e-002	3.49439273645169e-002,2.73963164260524e-002
1.29717927098395e-002	3.49011868661042e-002,2.74663168623422e-002
1.30016957803328e-002	3.48582525902871e-002,2.75365264370091e-002
1.30316677845229e-002	3.48151236761816e-002,2.76069459668254e-002
1.30617088813183e-002	3.47717992593943e-002,2.76775762730491e-002
1.30918192299940e-002	3.47282784716839e-002,2.77484181808719e-002
1.31219989901920e-002	3.46845604412966e-002,2.78194725200762e-002
1.31522483219223e-002	3.46406442927086e-002,2.78907401246062e-002
1.31825673855640e-002	3.45965291467217e-002,2.79622218328173e-002
1.32129563418657e-002	3.45522141204271e-002,2.80339184874496e-002
1.32434153519466e-002	3.45076983271597e-002,2.81058309355986e-002
1.32739445772973e-002	3.44629808765661e-002,2.81779600288721e-002
1.33045441797808e-002	3.44180608744536e-002,2.82503066232118e-002
1.33352143216332e-002	3.43729374229529e-002,2.83228715791907e-002
1.33659551654643e-002	3.43276096203551e-002,2.83956557618255e-002
1.33967668742593e-002	3.42820765611408e-002,2.84686600406453e-002
1.34276496113786e-002	3.42363373360395e-002,2.85418852898282e-002
1.34586035405594e-002	3.41903910319288e-002,2.86153323881820e-002
1.34896288259164e-002	3.41442367318220e-002,2.86890022190235e-002
1.35207256319427e-002	3.40978735149135e-002,2.87628956704339e-002
1.35518941235103e-002	3.40513004565014e-002,2.88370136351297e-002
1.35831344658714e-002	3.40045166280209e-002,2.89113570105657e-002
1.36144468246594e-002	3.39575210969963e-002,2.89859266989066e-002
1.36458313658892e-002	3.39103129270840e-002,2.90607236072377e-002
1.36772882559584e-002	3.38628911780174e-002,2.91357486473887e-002
1.37088176616484e-002	3.38152549054820e-002,2.92110027358447e-002
1.37404197501251e-002	3.37674031614201e-002,2.92864867943726e-002
1.37720946889394e-002	3.37193349935400e-002,2.93622017490865e-002
1.38038426460288e-002	3.36710494458056e-002,2.94381485315399e-002
1.38356637897177e-002	3.36225455581142e-002,2.95143280780919e-002
1.38675582887188e-002	3.35738223662534e-002,2.95907413298834e-002
1.38995263121334e-002	3.35248789021632e-002,2.96673892334327e-002
1.39315680294529e-002	3.34757141935863e-002,2.97442727400235e-002
1.39636836105593e-002	3.34263272643290e-002,2.98213928062311e-002
1.39958732257261e-002	3.33767171340944e-002,2.98987503936952e-002
1.40281370456195e-002	3.33268828184666e-002,2.99763464691501e-002
1.40604752412990e-002	3.32768233289871e-002,3.00541820045993e-002
1.40928879842186e-002	3.32265376730686e-002,3.01322579772246e-002
1.41253754462274e-002	3.31760248540292e-002,3.02105753695611e-002
1.41579377995707e-002	3.31252838709743e-002,3.02891351692344e-002
1.41905752168908e-002	3.30743137189566e-002,3.03679383694194e-002
1.42232878712281e-002	3.30231133888420e-002,3.04469859686078e-002
1.42560759360218e-002	3.29716818672132e-002,3.05262789704861e-002
1.42889395851109e-002	3.29200181366109e-002,3.06058183844491e-002
1.43218789927353e-002	3.28681211752051e-002,3.06856052250392e-002
1.43548943335364e-002	3.28159899571091e-002,3.07656405126565e-002
1.43879857825583e-002	3.27636234520883e-002,3.08459252730001e-002
1.44211535152486e-002	3.27110206256862e-002,3.09264605373684e-002
1.44543977074592e-002	3.26581804391583e-002,3.10072473426839e-002
1.44877185354475e-002	3.26051018495322e-002,3.10882867315567e-002
1.45211161758773e-002	3.25517838094544e-002,3.11695797521367e-002
1.45545908058195e-002	3.24982252673508e-002,3.12511274584677e-002
1.45881426027534e-002	3.24444251672668e-002,3.13329309102337e-002
1.46217717445671e-002	3.23903824489085e-002,3.14149911729044e-002
1.46554784095590e-002	3.23360960476729e-002,3.14973093178535e-002
1.46892627764385e-002	3.22815648945090e-002,3.15798864221786e-002
1.47231250243271e-002	3.22267879160626e-002,3.16627235690206e-002
1.47570653327588e-002	3.21717640345013e-002,3.17458218473196e-002
1.47910838816819e-002	3.21164921676521e-002,3.18291823521299e-002
1.48251808514594e-002	3.20609712288626e-002,3.19128061844023e-002
1.48593564228699e-002	3.20052001271178e-002,3.19966944513290e-002
1.48936107771090e-002	3.19491777667947e-002,3.20808482658758e-002
1.49279440957898e-002	3.18929030479329e-002,3.21652687474076e-002
1.49623565609442e-002	3.18363748660425e-002,3.22499570213928e-002
1.49968483550236e-002	3.17795921121022e-002,3.23349142194462e-002
1.50314196609001e-002	3.17225536726269e-002,3.24201414795227e-002
1.50660706618673e-002	3.16652584295670e-002,3.25056399458385e-002
1.51008015416413e-002	3.16077052603037e-002,3.25914107688491e-002
1.51356124843619e-002	3.15498930377083e-002,3.26774551055103e-002
1.51705036745932e-002	3.14918206300501e-002,3.27637741191662e-002
1.52054752973248e-002	3.14334869010159e-002,3.28503689795893e-002
1.52405275379728e-002	3.13748907096541e-002,3.29372408630238e-002
1.52756605823806e-002	3.13160309104698e-002,3.30243909523649e-002
1.53108746168202e-002	3.12569063532403e-002,3.31118204369270e-002
1.53461698279928e-002	3.11975158831437e-002,3.31995305127791e-002
1.53815464030302e-002	3.11378583407325e-002,3.32875223826945e-002
1.54170045294954e-002	3.10779325617457e-002,3.33757972558831e-002
1.54525443953840e-002	3.10177373773900e-002,3.34643563486903e-002
1.54881661891247e-002	3.09572716140989e-002,3.35532008840896e-002
1.55238700995807e-002	3.08965340935097e-002,3.36423320917576e-002
1.55596563160506e-002	3.08355236326040e-002,3.37317512084102e-002
1.55955250282694e-002	3.07742390436429e-002,3.38214594778084e-002
1.56314764264094e-002	3.07126791340136e-002,3.39114581504397e-002
1.56675107010813e-002	3.06508427063883e-002,3.40017484839568e-002
1.57036280433354e-002	3.05887285586748e-002,3.40923317431939e-002
1.57398286446620e-002	3.05263354838547e-002,3.41832091997599e-002
1.57761126969933e-002	3.04636622702117e-002,3.42743821328251e-002
1.58124803927037e-002	3.04007077010674e-002,3.43658518284171e-002
1.58489319246110e-002	3.03374705550421e-002,3.44576195802087e-002
1.58854674859776e-002	3.02739496056846e-002,3.45496866887097e-002
1.59220872705115e-002	3.02101436218821e-002,3.46420544622717e-002
1.59587914723672e-002	3.01460513674130e-002,3.47347242162103e-002
1.59955802861465e-002	3.00816716012622e-002,3.48276972735297e-002
1.60324539069002e-002	3.00170030775123e-002,3.49209749648323e-002
1.60694125301286e-002	2.99520445451677e-002,3.50145586279070e-002
1.61064563517825e-002	2.98867947484111e-002,3.51084496085029e-002
1.61435855682647e-002	2.98212524263691e-002,3.52026492597831e-002
1.61808003764305e-002	2.97554163132472e-002,3.52971589427862e-002
1.62181009735891e-002	2.96892851381685e-002,3.53919800261065e-002
1.62554875575047e-002	2.96228576253314e-002,3.54871138863422e-002
1.62929603263971e-002	2.95561324938184e-002,3.55825619077389e-002
1.63305194789432e-002	2.94891084576901e-002,3.56783254825060e-002
1.63681652142779e-002	2.94217842260636e-002,3.57744060110840e-002
1.64058977319952e-002	2.93541585027579e-002,3.58708049013732e-002
1.64437172321491e-002	2.92862299866997e-002,3.59675235698104e-002
1.64816239152549e-002	2.92179973715752e-002,3.60645634406053e-002
1.65196179822900e-002	2.91494593461270e-002,3.61619259465470e-002
1.65576996346951e-002	2.90806145937923e-002,3.62596125282256e-002
1.65958690743754e-002	2.90114617929245e-002,3.63576246346529e-002
1.66341265037015e-002	2.89419996167566e-002,3.64559637232806e-002
1.66724721255104e-002	2.88722267332959e-002,3.65546312597738e-002
1.67109061431069e-002	2.88021418053720e-002,3.66536287182860e-002
1.67494287602642e-002	2.87317434906854e-002,3.67529575816592e-002
1.67880401812254e-002	2.86610304416409e-002,3.68526193410432e-002
1.68267406107045e-002	2.85900013053571e-002,3.69526154960944e-002
1.68655302538872e-002	2.85186547238831e-002,3.70529475555546e-002
1.69044093164324e-002	2.84469893338540e-002,3.71536170364838e-002
1.69433780044731e-002	2.83750037667185e-002,3.72546254649291e-002
1.69824365246172e-002	2.83026966486233e-002,3.73559743757578e-002
1.70215850839493e-002	2.82300666003713e-002,3.74576653126003e-002
1.70608238900310e-002	2.81571122375494e-002,3.75596998282732e-002
1.71001531509027e-002	2.80838321703070e-002,3.76620794843601e-002
1.71395730750841e-002	2.80102250035513e-002,3.77648058517425e-002
1.71790838715757e-002	2.79362893367954e-002,3.78678805103200e-002
1.72186857498599e-002	2.78620237641367e-002,3.79713050490849e-002
1.72583789199018e-002	2.77874268743532e-002,3.80750810664350e-002
1.72981635921508e-002	2.77124972508367e-002,3.81792101700934e-002
1.73380399775412e-002	2.76372334715357e-002,3.82836939770808e-002
1.73780082874935e-002	2.75616341089889e-002,3.83885341138715e-002
1.74180687339159e-002	2.74856977303781e-002,3.84937322166500e-002
1.74582215292048e-002	2.74094228972937e-002,3.85992899308039e-002
1.74984668862464e-002	2.73328081659406e-002,3.87052089115155e-002
1.75388050184174e-002	2.72558520871079e-002,3.88114908238486e-002
1.75792361395867e-002	2.71785532060299e-002,3.89181373423865e-002
1.76197604641161e-002	2.71009100624202e-002,3.90251501515506e-002
1.76603782068614e-002	2.70229211906003e-002,3.91325309459107e-002
1.77010895831740e-002	2.69445851192248e-002,3.92402814296278e-002
1.77418948089014e-002	2.68659003715293e-002,3.93484033172206e-002
1.77827941003890e-002	2.67868654650653e-002,3.94568983329020e-002
1.78237876744807e-002	2.67074789120287e-002,3.95657682115994e-002
1.78648757485203e-002	2.66277392188171e-002,3.96750146978838e-002
1.79060585403527e-002	2.65476448864367e-002,3.97846395471280e-002
1.79473362683250e-002	2.64671944101416e-002,3.98946445246441e-002
1.79887091512877e-002	2.63863862796770e-002,4.00050314064577e-002
1.80301774085955e-002	2.63052189791669e-002,4.01158019790936e-002
1.80717412601090e-002	2.62236909870241e-002,4.02269580394411e-002
1.81134009261958e-002	2.61418007760322e-002,4.03385013950854e-002
1.81551566277311e-002	2.60595468134178e-002,4.04504338645705e-002
1.81970085860996e-002	2.59769275606686e-002,4.05627572770620e-002
1.82389570231961e-002	2.58939414735393e-002,4.06754734724367e-002
1.82810021614272e-002	2.58105870022362e-002,4.07885843018786e-002
1.83231442237119e-002	2.57268625910698e-002,4.09020916270620e-002
1.83653834334832e-002	2.56427666788410e-002,4.10159973213063e-002
1.84077200146893e-002	2.55582976984401e-002,4.11303032685396e-002
1.84501541917945e-002	2.54734540771923e-002,4.12450113644437e-002
1.84926861897805e-002	2.53882342365650e-002,4.13601235156329e-002
1.85353162341479e-002	2.53026365922973e-002,4.14756416402489e-002
1.85780445509167e-002	2.52166595543563e-002,4.15915676678103e-002
1.86208713666284e-002	2.51303015269993e-002,4.17079035396123e-002
1.86637969083464e-002	2.50435609085167e-002,4.18246512080537e-002
1.87068214036577e-002	2.49564360916570e-002,4.19418126379115e-002
1.87499450806739e-002	2.48689254631339e-002,4.20593898051219e-002
1.87931681680324e-002	2.47810274039370e-002,4.21773846977449e-002
1.88364908948977e-002	2.46927402892739e-002,4.22957993158690e-002
1.88799134909627e-002	2.46040624884064e-002,4.24146356712935e-002
1.89234361864495e-002	2.45149923648850e-002,4.25338957883184e-002
1.89670592121112e-002	2.44255282762418e-002,4.26535817029242e-002
1.90107827992327e-002	2.43356685742877e-002,4.27736954637744e-002
1.90546071796322e-002	2.42454116048610e-002,4.28942391315759e-002
1.90985325856621e-002	2.41547557079811e-002,4.30152147796606e-002
1.91425592502106e-002	2.40636992177428e-002,4.31366244937402e-002
1.91866874067026e-002	2.39722404623540e-002,4.32584703721716e-002
1.92309172891013e-002	2.38803777641194e-002,4.33807545260285e-002
1.92752491319091e-002	2.37881094394134e-002,4.35034790790511e-002
1.93196831701690e-002	2.36954337986303e-002,4.36266461677044e-002
1.93642196394658e-002	2.36023491463532e-002,4.37502579417481e-002
1.94088587759275e-002	2.35088537811223e-002,4.38743165636276e-002
1.94536008162263e-002	2.34149459956086e-002,4.39988242091581e-002
1.94984459975802e-002	2.33206240764323e-002,4.41237830670630e-002
1.95433945577537e-002	2.32258863043575e-002,4.42491953396550e-002
1.95884467350596e-002	2.31307309540471e-002,4.43750632422805e-002
1.96336027683602e-002	2.30351562943246e-002,4.45013890041008e-002
1.96788628970682e-002	2.29391605879952e-002,4.46281748677494e-002
1.97242273611482e-002	2.28427420917928e-002,4.47554230893075e-002
1.97696964011183e-002	2.27458990565737e-002,4.48831359388904e-002
1.98152702580507e-002	2.26486297270343e-002,4.50113157000191e-002
1.98609491735734e-002	2.25509323420786e-002,4.51399646707713e-002
1.99067333898716e-002	2.24528051344077e-002,4.52690851626947e-002
1.99526231496885e-002	2.23542463307938e-002,4.53986795017055e-002
1.99986186963271e-002	2.22552541520062e-002,4.55287500280033e-002
