time	V(vout)	-I(Rl)
0.000000000000000e+000	9.996057e+000	-0.000000e+000
3.999999984016789e-011	9.996057e+000	-0.000000e+000
1.599999993606716e-010	9.996057e+000	-0.000000e+000
3.199999987213431e-010	9.996057e+000	-0.000000e+000
1.279999994885372e-009	9.996057e+000	-0.000000e+000
5.119999979541490e-009	9.996056e+000	-0.000000e+000
1.023999995908298e-008	9.996056e+000	-0.000000e+000
4.095999983633192e-008	9.996057e+000	-0.000000e+000
8.191999967266384e-008	9.996057e+000	-0.000000e+000
1.638399993453277e-007	9.996057e+000	-0.000000e+000
6.553599973813107e-007	9.996057e+000	-0.000000e+000
1.432041142557865e-005	9.996057e+000	-0.000000e+000
2.798546285377598e-005	9.996057e+000	-0.000000e+000
4.165051428197331e-005	9.996057e+000	-0.000000e+000
5.531556571017065e-005	9.996057e+000	-0.000000e+000
6.898061713836799e-005	9.996057e+000	-0.000000e+000
8.264566856656532e-005	9.996057e+000	-0.000000e+000
9.631071999476263e-005	9.996057e+000	-0.000000e+000
1.006310719994763e-003	9.996057e+000	-0.000000e+000
1.997310719994763e-003	9.996057e+000	-0.000000e+000
1.999000000000000e-003	9.996057e+000	-0.000000e+000
2.000000000000000e-003	9.996057e+000	-0.000000e+000
2.000000024414062e-003	3.332019e+000	1.957446e+001
2.000000073242188e-003	2.306207e-009	1.153104e+001
2.000000074768066e-003	2.270973e-009	1.135486e+001
2.000000077819824e-003	2.376249e-009	1.188124e+001
2.000000083923340e-003	2.461653e-009	1.230826e+001
2.000000090127185e-003	2.498654e-009	1.249327e+001
2.000000102534875e-003	2.532123e-009	1.266061e+001
2.000000121062676e-003	2.557599e-009	1.278799e+001
2.000000147699545e-003	2.577821e-009	1.288911e+001
2.000000176493754e-003	2.598282e-009	1.299141e+001
2.000000225869364e-003	2.636882e-009	1.318441e+001
2.000000276050616e-003	2.670757e-009	1.335379e+001
2.000000330288355e-003	2.693589e-009	1.346795e+001
2.000000380616622e-003	2.702971e-009	1.351486e+001
2.000000437214879e-003	2.705573e-009	1.352786e+001
2.000000494664161e-003	2.703876e-009	1.351938e+001
2.000000555535358e-003	2.699144e-009	1.349572e+001
2.000000617557676e-003	2.692208e-009	1.346104e+001
2.000000692108319e-003	2.681993e-009	1.340997e+001
2.000000771456276e-003	2.669611e-009	1.334805e+001
2.000000865319207e-003	2.653659e-009	1.326829e+001
2.000000967013261e-003	2.635463e-009	1.317731e+001
2.000001090039361e-003	2.612922e-009	1.306461e+001
2.000001229889536e-003	2.587381e-009	1.293690e+001
2.000001408366431e-003	2.555837e-009	1.277919e+001
2.000001630828020e-003	2.519348e-009	1.259674e+001
2.000001968990728e-003	2.470854e-009	1.235427e+001
2.000002423720088e-003	2.418022e-009	1.209011e+001
2.000002952454794e-003	2.372893e-009	1.186446e+001
2.000003549638440e-003	2.339540e-009	1.169770e+001
2.000004184414177e-003	2.319413e-009	1.159706e+001
2.000004759995667e-003	2.311853e-009	1.155926e+001
2.000005417429558e-003	2.312181e-009	1.156090e+001
2.000006113051905e-003	2.319366e-009	1.159683e+001
2.000006958853913e-003	2.334142e-009	1.167071e+001
2.000007626012895e-003	2.349389e-009	1.174695e+001
2.000008119103730e-003	2.362667e-009	1.181333e+001
2.000008569880156e-003	2.375063e-009	1.187531e+001
2.000009036637092e-003	2.386948e-009	1.193474e+001
2.000009408204024e-003	2.395717e-009	1.197859e+001
2.000009809057602e-003	2.404458e-009	1.202229e+001
2.000010610764760e-003	2.419941e-009	1.209971e+001
2.000011607627485e-003	2.435522e-009	1.217761e+001
2.000012904703000e-003	2.449772e-009	1.224886e+001
2.000014520661037e-003	2.460823e-009	1.230412e+001
2.000016076810970e-003	2.467067e-009	1.233533e+001
2.000017450722315e-003	2.470340e-009	1.235170e+001
2.000018846219584e-003	2.472339e-009	1.236170e+001
2.000019757617207e-003	2.472562e-009	1.236281e+001
2.000020412237331e-003	2.471612e-009	1.235806e+001
2.000021220689427e-003	2.469570e-009	1.234785e+001
2.000021980740707e-003	2.467607e-009	1.233803e+001
2.000022716349066e-003	2.465971e-009	1.232985e+001
2.000023455781960e-003	2.464637e-009	1.232319e+001
2.000024162824644e-003	2.463586e-009	1.231793e+001
2.000025039892342e-003	2.462532e-009	1.231266e+001
2.000025921823566e-003	2.461823e-009	1.230911e+001
2.000027115807987e-003	2.461410e-009	1.230705e+001
2.000028322049359e-003	2.461517e-009	1.230759e+001
2.000030234732807e-003	2.462379e-009	1.231189e+001
2.000032473256668e-003	2.463954e-009	1.231977e+001
2.000036462754409e-003	2.467336e-009	1.233668e+001
2.000040800967480e-003	2.471168e-009	1.235584e+001
2.000046169277936e-003	2.475943e-009	1.237971e+001
2.000050893429399e-003	2.480400e-009	1.240200e+001
2.000055403046628e-003	2.485458e-009	1.242729e+001
2.000060308102800e-003	2.492654e-009	1.246327e+001
2.000064951129693e-003	2.502125e-009	1.251062e+001
2.000070050792773e-003	2.516974e-009	1.258487e+001
2.000076387397835e-003	2.542917e-009	1.271458e+001
2.000083554995038e-003	2.581436e-009	1.290718e+001
2.000087999885534e-003	2.610640e-009	1.305320e+001
2.000090850663950e-003	2.632162e-009	1.316081e+001
2.000092994399156e-003	2.649934e-009	1.324967e+001
2.000095364790556e-003	2.671188e-009	1.335594e+001
2.000097785090890e-003	2.694664e-009	1.347332e+001
2.000100310759197e-003	2.721480e-009	1.360740e+001
2.000103473660297e-003	2.758758e-009	1.379379e+001
2.000107877363959e-003	2.816926e-009	1.408463e+001
2.000113304924373e-003	2.897439e-009	1.448720e+001
2.000119457148150e-003	2.997173e-009	1.498586e+001
2.000121518586924e-003	3.032511e-009	1.516255e+001
2.000123327481266e-003	3.064134e-009	1.532067e+001
2.000124198137197e-003	3.078849e-009	1.539425e+001
2.000124731652040e-003	3.087295e-009	1.543648e+001
2.000125007192816e-003	3.091478e-009	1.545739e+001
2.000125369132494e-003	3.096970e-009	1.548485e+001
2.000125688216370e-003	3.101859e-009	1.550930e+001
2.000126043086298e-003	3.107316e-009	1.553658e+001
2.000126633967684e-003	3.116392e-009	1.558196e+001
2.000127196321247e-003	3.124980e-009	1.562490e+001
2.000128321028373e-003	3.141929e-009	1.570964e+001
2.000129422614207e-003	3.157917e-009	1.578959e+001
2.000131590073659e-003	3.186565e-009	1.593282e+001
2.000133647123759e-003	3.207191e-009	1.603596e+001
2.000135271738869e-003	3.209376e-009	1.604688e+001
2.000136467513975e-003	3.188172e-009	1.594086e+001
2.000137285688741e-003	3.155661e-009	1.577831e+001
2.000137790866199e-003	3.134643e-009	1.567322e+001
2.000138161324200e-003	3.127539e-009	1.563770e+001
2.000138498125746e-003	3.129979e-009	1.564990e+001
2.000138822859870e-003	3.137534e-009	1.568767e+001
2.000139105184278e-003	3.145323e-009	1.572661e+001
2.000139342705121e-003	3.151788e-009	1.575894e+001
2.000139589633684e-003	3.158401e-009	1.579201e+001
2.000139865565357e-003	3.165571e-009	1.582786e+001
2.000140348062285e-003	3.177643e-009	1.588822e+001
2.000140898360445e-003	3.190589e-009	1.595295e+001
2.000141778045157e-003	3.209840e-009	1.604920e+001
2.000142632655752e-003	3.227586e-009	1.613793e+001
2.000143127869657e-003	3.237401e-009	1.618700e+001
2.000143622462751e-003	3.246984e-009	1.623492e+001
2.000144490438812e-003	3.263793e-009	1.631897e+001
2.000145281940046e-003	3.279187e-009	1.639594e+001
2.000146048287211e-003	3.294264e-009	1.647132e+001
2.000147430705559e-003	3.321807e-009	1.660904e+001
2.000148852952810e-003	3.350690e-009	1.675345e+001
2.000150814994624e-003	3.391478e-009	1.695739e+001
2.000153188178284e-003	3.442239e-009	1.721119e+001
2.000155818553452e-003	3.500456e-009	1.750228e+001
2.000159391833551e-003	3.582737e-009	1.791368e+001
2.000163278861234e-003	3.676914e-009	1.838457e+001
2.000169717478757e-003	3.842486e-009	1.921243e+001
2.000176312372597e-003	4.025705e-009	2.012852e+001
2.000187159026999e-003	4.357598e-009	2.178799e+001
2.000200654067643e-003	4.813703e-009	2.406851e+001
2.000212829818969e-003	5.267186e-009	2.633593e+001
2.000224905042304e-003	5.756106e-009	2.878053e+001
2.000237758985369e-003	6.308206e-009	3.154103e+001
2.000245362116986e-003	6.647866e-009	3.323933e+001
2.000252486922599e-003	6.973734e-009	3.486867e+001
2.000260896427217e-003	7.361693e-009	3.680846e+001
2.000268918554388e-003	7.730189e-009	3.865094e+001
2.000281139125116e-003	8.276785e-009	4.138393e+001
2.000297133372115e-003	8.956145e-009	4.478073e+001
2.000308036365220e-003	9.384302e-009	4.692151e+001
2.000317413823562e-003	9.717748e-009	4.858874e+001
2.000326929483349e-003	1.002113e-008	5.010567e+001
2.000336850057536e-003	1.029462e-008	5.147309e+001
2.000353090076572e-003	1.066011e-008	5.330058e+001
2.000372359534728e-003	1.098223e-008	5.491114e+001
2.000399357841503e-003	1.127623e-008	5.638116e+001
2.000427789043167e-003	1.146189e-008	5.730944e+001
2.000440068708915e-003	1.150593e-008	5.752964e+001
2.000445098931106e-003	1.151547e-008	5.757736e+001
2.000448671731036e-003	1.152013e-008	5.760065e+001
2.000450402969414e-003	1.152195e-008	5.760975e+001
2.000453117253036e-003	1.152423e-008	5.762115e+001
2.000456982532899e-003	1.152676e-008	5.763380e+001
2.000461019989565e-003	1.152836e-008	5.764178e+001
2.000466634559928e-003	1.152897e-008	5.764486e+001
2.000472868347978e-003	1.152765e-008	5.763824e+001
2.000482222950594e-003	1.152233e-008	5.761165e+001
2.000492270689798e-003	1.151269e-008	5.756344e+001
2.000509350994848e-003	1.148966e-008	5.744829e+001
2.000525008531326e-003	1.146335e-008	5.731673e+001
2.000536559228459e-003	1.144061e-008	5.720304e+001
2.000549430607305e-003	1.141241e-008	5.706203e+001
2.000563183167212e-003	1.137964e-008	5.689819e+001
2.000579061618640e-003	1.133873e-008	5.669366e+001
2.000595803857016e-003	1.129231e-008	5.646157e+001
2.000612243164430e-003	1.124330e-008	5.621650e+001
2.000630009103162e-003	1.118641e-008	5.593207e+001
2.000646830466397e-003	1.112846e-008	5.564231e+001
2.000665053769133e-003	1.106061e-008	5.530303e+001
2.000683829112585e-003	1.098439e-008	5.492196e+001
2.000705516450667e-003	1.088696e-008	5.443479e+001
2.000730148071074e-003	1.076088e-008	5.380439e+001
2.000763606997255e-003	1.055233e-008	5.276164e+001
2.000821174742718e-003	1.009922e-008	5.049609e+001
2.000882258099255e-003	9.513732e-009	4.756866e+001
2.000931221652711e-003	8.989587e-009	4.494793e+001
2.000989262669035e-003	8.357187e-009	4.178593e+001
2.001042155139713e-003	7.800670e-009	3.900335e+001
2.001095121591314e-003	7.270168e-009	3.635084e+001
2.001154110734335e-003	6.706493e-009	3.353247e+001
2.001216576123505e-003	6.133419e-009	3.066709e+001
2.001279542083285e-003	5.579773e-009	2.789886e+001
2.001356026177636e-003	4.953629e-009	2.476814e+001
2.001416768048596e-003	4.530586e-009	2.265293e+001
2.001491117770951e-003	4.117173e-009	2.058586e+001
2.001534218867365e-003	3.924461e-009	1.962230e+001
2.001580233063369e-003	3.754583e-009	1.877292e+001
2.001629188830682e-003	3.598030e-009	1.799015e+001
2.001679756029355e-003	3.456883e-009	1.728441e+001
2.001728865775233e-003	3.336247e-009	1.668123e+001
2.001778275319899e-003	3.227415e-009	1.613707e+001
2.001798025584421e-003	3.187895e-009	1.593947e+001
2.001826241938936e-003	3.134941e-009	1.567471e+001
2.001846302735364e-003	3.098478e-009	1.549239e+001
2.001868545703884e-003	3.059794e-009	1.529897e+001
2.001904967137961e-003	2.999661e-009	1.499831e+001
2.001942568073373e-003	2.942001e-009	1.471001e+001
2.002017769944197e-003	2.837163e-009	1.418581e+001
2.002099623888978e-003	2.736142e-009	1.368071e+001
2.002233288522534e-003	2.593243e-009	1.296621e+001
2.002354635719786e-003	2.482201e-009	1.241101e+001
2.002529488738990e-003	2.342965e-009	1.171482e+001
2.002574176962903e-003	2.310776e-009	1.155388e+001
2.002613740626275e-003	2.284339e-009	1.142170e+001
2.002652487890002e-003	2.259342e-009	1.129671e+001
2.002684980595015e-003	2.238955e-009	1.119477e+001
2.002707409286204e-003	2.225240e-009	1.112620e+001
2.002724690009829e-003	2.214810e-009	1.107405e+001
2.002737101722548e-003	2.207460e-009	1.103730e+001
2.002746799781571e-003	2.201748e-009	1.100874e+001
2.002755218327204e-003	2.196816e-009	1.098408e+001
2.002763937469545e-003	2.191781e-009	1.095890e+001
2.002772668394144e-003	2.186743e-009	1.093372e+001
2.002783207848055e-003	2.180726e-009	1.090363e+001
2.002794305319346e-003	2.174434e-009	1.087217e+001
2.002806508428226e-003	2.167577e-009	1.083788e+001
2.002819967538140e-003	2.160086e-009	1.080043e+001
2.002834495674665e-003	2.152084e-009	1.076042e+001
2.002850558447492e-003	2.143335e-009	1.071668e+001
2.002868048635362e-003	2.133925e-009	1.066963e+001
2.002887242962812e-003	2.123734e-009	1.061867e+001
2.002908286128650e-003	2.112721e-009	1.056361e+001
2.002931327845028e-003	2.100852e-009	1.050426e+001
2.002956631240834e-003	2.088038e-009	1.044019e+001
2.002984385308829e-003	2.074242e-009	1.037121e+001
2.003014886657648e-003	2.059380e-009	1.029690e+001
2.003048427397431e-003	2.043385e-009	1.021693e+001
2.003085349726120e-003	2.026180e-009	1.013090e+001
2.003126046837594e-003	2.007678e-009	1.003839e+001
2.003170945421257e-003	1.987803e-009	9.939017e+000
2.003222214455663e-003	1.965761e-009	9.828805e+000
2.003281972371900e-003	1.940892e-009	9.704459e+000
2.003353922263918e-003	1.912051e-009	9.560252e+000
2.003444302636228e-003	1.877397e-009	9.386987e+000
2.003563460091562e-003	1.834153e-009	9.170767e+000
2.003730674825798e-003	1.777627e-009	8.888135e+000
2.003983901462412e-003	1.699883e-009	8.499415e+000
2.004404870716443e-003	1.587223e-009	7.936116e+000
2.005189931427111e-003	1.410969e-009	7.054843e+000
2.006189931427112e-003	1.226186e-009	6.130929e+000
2.007189931427112e-003	1.075448e-009	5.377238e+000
2.008189931427112e-003	9.620467e-010	4.810233e+000
2.008770673745209e-003	9.439841e-010	4.719921e+000
2.009197919289153e-003	9.832526e-010	4.916263e+000
2.009587581352004e-003	1.047120e-009	5.235601e+000
2.009764274979307e-003	1.074476e-009	5.372381e+000
2.009995109432364e-003	1.106525e-009	5.532623e+000
2.010171647122779e-003	1.132223e-009	5.661115e+000
2.010342868933179e-003	1.158070e-009	5.790352e+000
2.010594809933205e-003	1.195007e-009	5.975035e+000
2.010966451692565e-003	1.242924e-009	6.214619e+000
2.011187399544023e-003	1.261776e-009	6.308881e+000
2.011352033590775e-003	1.265041e-009	6.325205e+000
2.011484490118802e-003	1.260651e-009	6.303254e+000
2.011599981059523e-003	1.254364e-009	6.271821e+000
2.011721543228048e-003	1.247698e-009	6.238490e+000
2.011806931882748e-003	1.243266e-009	6.216331e+000
2.011840074708645e-003	1.241549e-009	6.207746e+000
2.011859833702731e-003	1.240490e-009	6.202450e+000
2.011884605003088e-003	1.239122e-009	6.195611e+000
2.011902199426722e-003	1.238126e-009	6.190631e+000
2.011918317951254e-003	1.237193e-009	6.185966e+000
2.011936713795321e-003	1.236109e-009	6.180543e+000
2.011955638659479e-003	1.234974e-009	6.174870e+000
2.011978323496818e-003	1.233595e-009	6.167974e+000
2.012002321732479e-003	1.232120e-009	6.160598e+000
2.012030304584072e-003	1.230389e-009	6.151947e+000
2.012061286226894e-003	1.228473e-009	6.142364e+000
2.012091044738670e-003	1.226641e-009	6.133204e+000
2.012116495087053e-003	1.225089e-009	6.125443e+000
2.012144552113707e-003	1.223396e-009	6.116981e+000
2.012166069410907e-003	1.222112e-009	6.110558e+000
2.012178717134737e-003	1.221363e-009	6.106813e+000
2.012191609698795e-003	1.220605e-009	6.103025e+000
2.012208352967745e-003	1.219628e-009	6.098138e+000
2.012225101542783e-003	1.218656e-009	6.093278e+000
2.012243721097428e-003	1.217582e-009	6.087909e+000
2.012263985799177e-003	1.216419e-009	6.082095e+000
2.012287564075542e-003	1.215072e-009	6.075359e+000
2.012314208841602e-003	1.213553e-009	6.067768e+000
2.012344520432178e-003	1.211828e-009	6.059140e+000
2.012379291575817e-003	1.209847e-009	6.049232e+000
2.012418813892377e-003	1.207589e-009	6.037943e+000
2.012464141713186e-003	1.204991e-009	6.024957e+000
2.012515937612439e-003	1.202019e-009	6.010095e+000
2.012575250789438e-003	1.198621e-009	5.993104e+000
2.012643239348139e-003	1.194750e-009	5.973751e+000
2.012721136524502e-003	1.190361e-009	5.951806e+000
2.012810514297365e-003	1.185386e-009	5.926931e+000
2.012913046164001e-003	1.179743e-009	5.898713e+000
2.013030741493735e-003	1.173328e-009	5.866639e+000
2.013165884641448e-003	1.166042e-009	5.830209e+000
2.013321092067642e-003	1.157794e-009	5.788969e+000
2.013500278082234e-003	1.148442e-009	5.742209e+000
2.013723092364805e-003	1.137056e-009	5.685281e+000
2.014009162953025e-003	1.122821e-009	5.614106e+000
2.014400166730088e-003	1.104064e-009	5.520320e+000
2.014977387737322e-003	1.077783e-009	5.388914e+000
2.015840048291153e-003	1.041076e-009	5.205380e+000
2.016750179345369e-003	1.005435e-009	5.027173e+000
2.017750179345368e-003	9.697880e-010	4.848940e+000
2.018750179345369e-003	9.374536e-010	4.687268e+000
2.019750179345369e-003	9.081982e-010	4.540991e+000
2.020750179345368e-003	8.817293e-010	4.408647e+000
2.021750179345369e-003	8.577811e-010	4.288905e+000
2.022750179345369e-003	8.361136e-010	4.180568e+000
2.023750179345368e-003	8.165096e-010	4.082548e+000
2.024750179345369e-003	7.987725e-010	3.993863e+000
2.025750179345369e-003	7.827247e-010	3.913623e+000
2.026750179345368e-003	7.682051e-010	3.841026e+000
2.027750179345369e-003	7.550682e-010	3.775342e+000
2.028750179345369e-003	7.431825e-010	3.715912e+000
2.029750179345369e-003	7.324286e-010	3.662143e+000
2.030750179345368e-003	7.226988e-010	3.613494e+000
2.031750179345369e-003	7.138957e-010	3.569479e+000
2.032750179345369e-003	7.059309e-010	3.529655e+000
2.033750179345368e-003	6.987246e-010	3.493623e+000
2.034750179345369e-003	6.922046e-010	3.461023e+000
2.035750179345369e-003	6.863055e-010	3.431527e+000
2.036750179345368e-003	6.809681e-010	3.404840e+000
2.037750179345369e-003	6.761390e-010	3.380695e+000
2.038750179345369e-003	6.717699e-010	3.358849e+000
2.039750179345368e-003	6.678167e-010	3.339084e+000
2.040750179345368e-003	6.642401e-010	3.321200e+000
2.041750179345369e-003	6.610040e-010	3.305020e+000
2.042750179345369e-003	6.580761e-010	3.290380e+000
2.043750179345368e-003	6.554270e-010	3.277135e+000
2.044750179345369e-003	6.530302e-010	3.265151e+000
2.045750179345369e-003	6.508616e-010	3.254308e+000
2.046750179345368e-003	6.488995e-010	3.244498e+000
2.047750179345369e-003	6.471244e-010	3.235622e+000
2.048750179345369e-003	6.455181e-010	3.227591e+000
2.049750179345368e-003	6.440649e-010	3.220325e+000
2.050750179345369e-003	6.427500e-010	3.213750e+000
2.051750179345369e-003	6.415604e-010	3.207802e+000
2.052750179345368e-003	6.404840e-010	3.202420e+000
2.053750179345368e-003	6.395101e-010	3.197551e+000
2.054750179345369e-003	6.386289e-010	3.193145e+000
2.055750179345369e-003	6.378317e-010	3.189158e+000
2.056750179345368e-003	6.371104e-010	3.185552e+000
2.057750179345369e-003	6.364577e-010	3.182288e+000
2.058750179345369e-003	6.358671e-010	3.179336e+000
2.059750179345368e-003	6.353328e-010	3.176664e+000
2.060750179345369e-003	6.348494e-010	3.174247e+000
2.061750179345369e-003	6.344120e-010	3.172060e+000
2.062750179345368e-003	6.340163e-010	3.170081e+000
2.063750179345369e-003	6.336582e-010	3.168291e+000
2.064750179345369e-003	6.333342e-010	3.166671e+000
2.065750179345368e-003	6.330411e-010	3.165205e+000
2.066750179345368e-003	6.327758e-010	3.163879e+000
2.067750179345369e-003	6.325358e-010	3.162679e+000
2.068750179345369e-003	6.323186e-010	3.161593e+000
2.069750179345368e-003	6.321221e-010	3.160611e+000
2.070750179345369e-003	6.319444e-010	3.159722e+000
2.071750179345369e-003	6.317835e-010	3.158918e+000
2.072750179345368e-003	6.316380e-010	3.158190e+000
2.073750179345369e-003	6.315062e-010	3.157531e+000
2.074750179345369e-003	6.313871e-010	3.156935e+000
2.075750179345368e-003	6.312793e-010	3.156396e+000
2.076750179345369e-003	6.311817e-010	3.155908e+000
2.077750179345369e-003	6.310934e-010	3.155467e+000
2.078750179345369e-003	6.310135e-010	3.155067e+000
2.079750179345368e-003	6.309412e-010	3.154706e+000
2.080750179345369e-003	6.308758e-010	3.154379e+000
2.081750179345369e-003	6.308166e-010	3.154083e+000
2.082750179345368e-003	6.307631e-010	3.153815e+000
2.083750179345369e-003	6.307146e-010	3.153573e+000
2.084750179345369e-003	6.306707e-010	3.153353e+000
2.085750179345368e-003	6.306310e-010	3.153155e+000
2.086750179345369e-003	6.305951e-010	3.152975e+000
2.087750179345369e-003	6.305625e-010	3.152813e+000
2.088750179345368e-003	6.305331e-010	3.152666e+000
2.089750179345368e-003	6.305065e-010	3.152533e+000
