time	-I(Rl)	V(vout)
0.000000000000000e+00	1.009601e-09	9.996057e+00
2.000000000000000e-03	1.009601e-09	9.996057e+00
2.000000079872123e-03	2.313616e+01	2.557541e-02
2.000000079911123e-03	2.312566e+01	2.312566e-02
2.000000079989123e-03	2.309299e+01	2.309299e-02
2.000001079989123e-03	1.556256e+01	1.556256e-02
2.000002079989123e-03	1.259836e+01	1.259836e-02
2.000003079989123e-03	1.210767e+01	1.210767e-02
2.000004079989124e-03	1.185790e+01	1.185790e-02
2.000005079989123e-03	1.173009e+01	1.173009e-02
2.000005185797430e-03	1.172138e+01	1.172138e-02
2.000005397414043e-03	1.170898e+01	1.170898e-02
2.000005820647269e-03	1.170040e+01	1.170040e-02
2.000006667113721e-03	1.172364e+01	1.172364e-02
2.000007528916369e-03	1.178814e+01	1.178814e-02
2.000008283354639e-03	1.187026e+01	1.187026e-02
2.000008831250441e-03	1.193312e+01	1.193313e-02
2.000009409666212e-03	1.199507e+01	1.199507e-02
2.000010168560100e-03	1.206966e+01	1.206966e-02
2.000010970072143e-03	1.213767e+01	1.213767e-02
2.000012023566384e-03	1.220802e+01	1.220802e-02
2.000013202940577e-03	1.226270e+01	1.226270e-02
2.000014932321139e-03	1.231162e+01	1.231162e-02
2.000016956019870e-03	1.234462e+01	1.234462e-02
2.000018805010823e-03	1.235987e+01	1.235987e-02
2.000020085357948e-03	1.235834e+01	1.235834e-02
2.000021202700925e-03	1.234661e+01	1.234661e-02
2.000022364349213e-03	1.233191e+01	1.233192e-02
2.000023671992934e-03	1.231866e+01	1.231867e-02
2.000024849735187e-03	1.231021e+01	1.231021e-02
2.000026058755673e-03	1.230564e+01	1.230564e-02
2.000027502322217e-03	1.230484e+01	1.230484e-02
2.000029644435999e-03	1.230877e+01	1.230877e-02
2.000031603289718e-03	1.231558e+01	1.231558e-02
2.000034965991488e-03	1.233046e+01	1.233046e-02
2.000038388081890e-03	1.234661e+01	1.234661e-02
2.000043656093567e-03	1.237176e+01	1.237176e-02
2.000049178476365e-03	1.239930e+01	1.239930e-02
2.000054972574851e-03	1.243345e+01	1.243346e-02
2.000060829027370e-03	1.248078e+01	1.248078e-02
2.000066991657189e-03	1.255474e+01	1.255474e-02
2.000073532594899e-03	1.267334e+01	1.267334e-02
2.000081871437011e-03	1.288807e+01	1.288807e-02
2.000089226880260e-03	1.313574e+01	1.313574e-02
2.000094402085272e-03	1.334857e+01	1.334857e-02
2.000097579128682e-03	1.350043e+01	1.350043e-02
2.000100454636439e-03	1.365600e+01	1.365600e-02
2.000103922838935e-03	1.386928e+01	1.386928e-02
2.000110465549000e-03	1.433001e+01	1.433001e-02
2.000117920971733e-03	1.492871e+01	1.492871e-02
2.000126263501004e-03	1.565421e+01	1.565421e-02
2.000130446718314e-03	1.600945e+01	1.600945e-02
2.000132910235724e-03	1.620116e+01	1.620116e-02
2.000135177556161e-03	1.635018e+01	1.635018e-02
2.000137743195402e-03	1.641257e+01	1.641257e-02
2.000139794104097e-03	1.626363e+01	1.626363e-02
2.000141107158389e-03	1.610031e+01	1.610031e-02
2.000141864318396e-03	1.610255e+01	1.610255e-02
2.000142195787100e-03	1.614887e+01	1.614887e-02
2.000142410992529e-03	1.618042e+01	1.618042e-02
2.000142574613457e-03	1.620255e+01	1.620255e-02
2.000142707510930e-03	1.622110e+01	1.622110e-02
2.000142840375521e-03	1.623906e+01	1.623907e-02
2.000142986001173e-03	1.625823e+01	1.625823e-02
2.000143163836363e-03	1.628132e+01	1.628132e-02
2.000143416289102e-03	1.631260e+01	1.631260e-02
2.000143801977024e-03	1.635831e+01	1.635832e-02
2.000144313023171e-03	1.641679e+01	1.641679e-02
2.000144882573013e-03	1.648017e+01	1.648017e-02
2.000145409609461e-03	1.653672e+01	1.653672e-02
2.000146056217498e-03	1.660423e+01	1.660423e-02
2.000146768520560e-03	1.667794e+01	1.667794e-02
2.000147714063461e-03	1.677599e+01	1.677599e-02
2.000148657495303e-03	1.687494e+01	1.687494e-02
2.000150544358986e-03	1.707733e+01	1.707733e-02
2.000154318086353e-03	1.749479e+01	1.749479e-02
2.000157863728687e-03	1.790481e+01	1.790481e-02
2.000163390758493e-03	1.857850e+01	1.857851e-02
2.000168569371760e-03	1.925508e+01	1.925508e-02
2.000178926598293e-03	2.075149e+01	2.075149e-02
2.000196127207301e-03	2.352911e+01	2.352911e-02
2.000210506671790e-03	2.614801e+01	2.614801e-02
2.000227944102035e-03	2.968408e+01	2.968408e-02
2.000245731669425e-03	3.355383e+01	3.355383e-02
2.000257296974436e-03	3.617009e+01	3.617010e-02
2.000268954589875e-03	3.882313e+01	3.882314e-02
2.000283122306091e-03	4.194963e+01	4.194963e-02
2.000300023187872e-03	4.543710e+01	4.543711e-02
2.000314415555736e-03	4.809450e+01	4.809450e-02
2.000329304985995e-03	5.044983e+01	5.044983e-02
2.000343862629397e-03	5.227967e+01	5.227968e-02
2.000370085689306e-03	5.463735e+01	5.463736e-02
2.000400051222736e-03	5.629316e+01	5.629317e-02
2.000439923292714e-03	5.739072e+01	5.739072e-02
2.000463826042766e-03	5.762468e+01	5.762468e-02
2.000487274064578e-03	5.762377e+01	5.762377e-02
2.000489523964726e-03	5.761596e+01	5.761596e-02
2.000494023765020e-03	5.759237e+01	5.759237e-02
2.000499139627208e-03	5.756178e+01	5.756179e-02
2.000504702239046e-03	5.752377e+01	5.752378e-02
2.000515827462722e-03	5.743623e+01	5.743623e-02
2.000530237967812e-03	5.730671e+01	5.730671e-02
2.000545105424646e-03	5.715682e+01	5.715682e-02
2.000556586951806e-03	5.703077e+01	5.703077e-02
2.000565725570241e-03	5.692390e+01	5.692391e-02
2.000574925171458e-03	5.681083e+01	5.681083e-02
2.000584885327256e-03	5.668272e+01	5.668272e-02
2.000596911970875e-03	5.652080e+01	5.652080e-02
2.000609742592149e-03	5.633929e+01	5.633929e-02
2.000624497436412e-03	5.611929e+01	5.611929e-02
2.000638839628768e-03	5.589290e+01	5.589291e-02
2.000655523865799e-03	5.561251e+01	5.561252e-02
2.000671503958323e-03	5.532503e+01	5.532504e-02
2.000690049685655e-03	5.496580e+01	5.496581e-02
2.000708615087149e-03	5.457410e+01	5.457411e-02
2.000730693802884e-03	5.405714e+01	5.405715e-02
2.000756578726288e-03	5.334354e+01	5.334355e-02
2.000808348573098e-03	5.156178e+01	5.156179e-02
2.000867787862977e-03	4.896964e+01	4.896964e-02
2.000938484802252e-03	4.533093e+01	4.533093e-02
2.001002763493482e-03	4.186257e+01	4.186257e-02
2.001070276199548e-03	3.833319e+01	3.833320e-02
2.001137563734480e-03	3.501525e+01	3.501526e-02
2.001208988329064e-03	3.168053e+01	3.168053e-02
2.001285721684775e-03	2.827228e+01	2.827228e-02
2.001367467825037e-03	2.493755e+01	2.493755e-02
2.001446581888131e-03	2.226711e+01	2.226712e-02
2.001538425540648e-03	1.988430e+01	1.988431e-02
2.001589427071608e-03	1.886375e+01	1.886375e-02
2.001647614345351e-03	1.793103e+01	1.793103e-02
2.001710200908202e-03	1.707709e+01	1.707710e-02
2.001771710952543e-03	1.635633e+01	1.635633e-02
2.001823928867280e-03	1.582171e+01	1.582171e-02
2.001864659970160e-03	1.544581e+01	1.544581e-02
2.001906952712441e-03	1.508424e+01	1.508424e-02
2.001946804931489e-03	1.476962e+01	1.476962e-02
2.002008050224313e-03	1.433046e+01	1.433046e-02
2.002092386958381e-03	1.378692e+01	1.378692e-02
2.002178334489951e-03	1.330073e+01	1.330073e-02
2.002313415801351e-03	1.264347e+01	1.264348e-02
2.002477379529092e-03	1.194399e+01	1.194399e-02
2.002528980782440e-03	1.174630e+01	1.174630e-02
2.002557892094402e-03	1.164381e+01	1.164381e-02
2.002606973625608e-03	1.147654e+01	1.147655e-02
2.002644615118974e-03	1.135280e+01	1.135280e-02
2.002688941134131e-03	1.121338e+01	1.121338e-02
2.002763215439840e-03	1.099019e+01	1.099019e-02
2.002830222220860e-03	1.079941e+01	1.079941e-02
2.002923759286202e-03	1.054858e+01	1.054859e-02
2.003009378986583e-03	1.033347e+01	1.033347e-02
2.003132014633778e-03	1.004694e+01	1.004694e-02
2.003261887204196e-03	9.766593e+00	9.766594e-03
2.003446306931401e-03	9.405210e+00	9.405212e-03
2.003724097738655e-03	8.918236e+00	8.918237e-03
2.004062569983785e-03	8.397792e+00	8.397793e-03
2.004523373722149e-03	7.788400e+00	7.788401e-03
2.005148865568573e-03	7.086454e+00	7.086455e-03
2.005956423661870e-03	6.329119e+00	6.329119e-03
2.007002557332591e-03	5.524723e+00	5.524723e-03
2.008428731484669e-03	4.652353e+00	4.652353e-03
2.010472895193787e-03	3.691439e+00	3.691440e-03
2.012788715660077e-03	2.913723e+00	2.913724e-03
2.014024382501464e-03	2.841132e+00	2.841132e-03
2.015390441983322e-03	3.205974e+00	3.205974e-03
2.015928409623602e-03	3.400326e+00	3.400326e-03
2.016261124734901e-03	3.511798e+00	3.511798e-03
2.016489139188074e-03	3.592157e+00	3.592157e-03
2.016636503788754e-03	3.646287e+00	3.646287e-03
2.016761202948284e-03	3.691041e+00	3.691041e-03
2.016870521099144e-03	3.729916e+00	3.729916e-03
2.016983656299510e-03	3.770317e+00	3.770318e-03
2.017102143900045e-03	3.813017e+00	3.813018e-03
2.017269620189882e-03	3.873905e+00	3.873905e-03
2.017495578269349e-03	3.956626e+00	3.956626e-03
2.017730369370657e-03	4.043090e+00	4.043090e-03
2.018100669892190e-03	4.177587e+00	4.177587e-03
2.018673514316301e-03	4.351943e+00	4.351943e-03
2.019420901609951e-03	4.476689e+00	4.476689e-03
2.019986012151266e-03	4.478739e+00	4.478740e-03
2.020508583352677e-03	4.429379e+00	4.429379e-03
2.021041063406457e-03	4.367332e+00	4.367332e-03
2.021539228010631e-03	4.309454e+00	4.309455e-03
2.022398308223252e-03	4.215550e+00	4.215551e-03
2.023404310457062e-03	4.114556e+00	4.114557e-03
2.024599957345741e-03	4.006995e+00	4.006995e-03
2.026012185244945e-03	3.895378e+00	3.895379e-03
2.027645772491402e-03	3.784452e+00	3.784452e-03
2.029595932009988e-03	3.673820e+00	3.673821e-03
2.031937216889977e-03	3.566507e+00	3.566507e-03
2.034784516860183e-03	3.465603e+00	3.465603e-03
2.038277627134476e-03	3.375267e+00	3.375267e-03
2.042790032882439e-03	3.295809e+00	3.295809e-03
2.048053370845078e-03	3.233814e+00	3.233815e-03
2.050449868550604e-03	3.214470e+00	3.214470e-03
2.051048992976986e-03	3.210606e+00	3.210606e-03
2.052247241829749e-03	3.203424e+00	3.203424e-03
2.052431478042491e-03	3.202416e+00	3.202416e-03
2.052799950467973e-03	3.200471e+00	3.200471e-03
2.053362837563252e-03	3.197568e+00	3.197569e-03
2.053868134867032e-03	3.195006e+00	3.195006e-03
2.053881148321499e-03	3.194940e+00	3.194940e-03
2.053907175230434e-03	3.194806e+00	3.194807e-03
2.053959229048302e-03	3.194536e+00	3.194536e-03
2.054063336684039e-03	3.193933e+00	3.193934e-03
2.054146773519529e-03	3.193300e+00	3.193301e-03
2.054211423402534e-03	3.192636e+00	3.192636e-03
2.054283061398387e-03	3.191776e+00	3.191777e-03
2.054368010489322e-03	3.190787e+00	3.190788e-03
2.054458318495692e-03	3.189904e+00	3.189905e-03
2.054627229633478e-03	3.188471e+00	3.188471e-03
2.054875304166937e-03	3.186186e+00	3.186186e-03
2.055348182213750e-03	3.180846e+00	3.180847e-03
2.055987096224471e-03	3.170167e+00	3.170168e-03
2.057246983618690e-03	3.134520e+00	3.134520e-03
2.058569521698989e-03	3.071742e+00	3.071742e-03
2.059729841796142e-03	2.984306e+00	2.984307e-03
2.061298108808865e-03	2.822519e+00	2.822519e-03
2.062837511496492e-03	2.640561e+00	2.640562e-03
2.064706703434030e-03	2.433686e+00	2.433686e-03
2.066893614819905e-03	2.254336e+00	2.254336e-03
2.069191013489946e-03	2.147513e+00	2.147513e-03
2.072484387587956e-03	2.085324e+00	2.085324e-03
2.077326257691082e-03	2.059674e+00	2.059674e-03
2.082483626262634e-03	2.055132e+00	2.055132e-03
2.088438115714417e-03	2.054303e+00	2.054303e-03
2.094024069010497e-03	2.053695e+00	2.053695e-03
2.100607773373897e-03	2.053344e+00	2.053344e-03
2.106708410746817e-03	2.053208e+00	2.053208e-03
2.113476287617529e-03	2.053161e+00	2.053162e-03
2.120312225117529e-03	2.053172e+00	2.053173e-03
2.127148162617529e-03	2.053212e+00	2.053213e-03
2.133984100117529e-03	2.053263e+00	2.053263e-03
2.140820037617529e-03	2.053314e+00	2.053314e-03
2.147655975117529e-03	2.053365e+00	2.053366e-03
2.154491912617529e-03	2.053417e+00	2.053417e-03
2.161327850117529e-03	2.053466e+00	2.053467e-03
2.168163787617529e-03	2.053511e+00	2.053511e-03
2.174999725117529e-03	2.053552e+00	2.053553e-03
2.181835662617529e-03	2.053592e+00	2.053593e-03
2.188671600117529e-03	2.053631e+00	2.053631e-03
2.195507537617529e-03	2.053665e+00	2.053666e-03
2.202343475117529e-03	2.053697e+00	2.053697e-03
2.209179412617529e-03	2.053727e+00	2.053727e-03
2.216015350117529e-03	2.053756e+00	2.053756e-03
2.222851287617529e-03	2.053783e+00	2.053783e-03
2.229687225117529e-03	2.053807e+00	2.053807e-03
2.236523162617529e-03	2.053829e+00	2.053830e-03
2.243359100117529e-03	2.053851e+00	2.053851e-03
2.250195037617529e-03	2.053872e+00	2.053872e-03
2.257030975117529e-03	2.053890e+00	2.053891e-03
2.263866912617529e-03	2.053907e+00	2.053908e-03
2.270702850117529e-03	2.053924e+00	2.053924e-03
2.277538787617529e-03	2.053940e+00	2.053940e-03
2.284374725117529e-03	2.053954e+00	2.053954e-03
2.291210662617529e-03	2.053967e+00	2.053967e-03
2.298046600117529e-03	2.053979e+00	2.053979e-03
2.304882537617529e-03	2.053991e+00	2.053991e-03
2.311718475117529e-03	2.054002e+00	2.054002e-03
2.318554412617529e-03	2.054012e+00	2.054012e-03
2.325390350117529e-03	2.054021e+00	2.054021e-03
2.332226287617529e-03	2.054030e+00	2.054030e-03
2.339062225117529e-03	2.054039e+00	2.054039e-03
2.345898162617529e-03	2.054046e+00	2.054046e-03
2.352734100117529e-03	2.054053e+00	2.054053e-03
2.359570037617529e-03	2.054060e+00	2.054060e-03
2.366405975117529e-03	2.054066e+00	2.054066e-03
2.373241912617529e-03	2.054072e+00	2.054072e-03
2.380077850117529e-03	2.054077e+00	2.054078e-03
2.386913787617529e-03	2.054082e+00	2.054083e-03
2.393749725117529e-03	2.054087e+00	2.054088e-03
2.400585662617529e-03	2.054092e+00	2.054092e-03
2.407421600117529e-03	2.054096e+00	2.054096e-03
2.414257537617529e-03	2.054100e+00	2.054100e-03
2.421093475117529e-03	2.054103e+00	2.054104e-03
2.427929412617529e-03	2.054107e+00	2.054107e-03
2.434765350117529e-03	2.054110e+00	2.054110e-03
2.441601287617529e-03	2.054113e+00	2.054113e-03
2.448437225117529e-03	2.054116e+00	2.054116e-03
2.455273162617529e-03	2.054118e+00	2.054118e-03
2.462109100117529e-03	2.054121e+00	2.054121e-03
2.468945037617529e-03	2.054123e+00	2.054123e-03
2.475780975117529e-03	2.054125e+00	2.054125e-03
2.482616912617529e-03	2.054127e+00	2.054127e-03
2.489452850117529e-03	2.054129e+00	2.054129e-03
2.496288787617529e-03	2.054130e+00	2.054130e-03
2.503124725117529e-03	2.054132e+00	2.054132e-03
2.509960662617529e-03	2.054133e+00	2.054133e-03
2.516796600117529e-03	2.054135e+00	2.054135e-03
2.523632537617529e-03	2.054136e+00	2.054136e-03
2.530468475117529e-03	2.054137e+00	2.054137e-03
2.537304412617529e-03	2.054138e+00	2.054139e-03
2.544140350117529e-03	2.054139e+00	2.054140e-03
2.550976287617529e-03	2.054140e+00	2.054140e-03
2.557812225117529e-03	2.054141e+00	2.054141e-03
2.564648162617529e-03	2.054142e+00	2.054142e-03
2.571484100117529e-03	2.054143e+00	2.054143e-03
2.578320037617529e-03	2.054144e+00	2.054144e-03
2.585155975117529e-03	2.054144e+00	2.054145e-03
2.591991912617529e-03	2.054145e+00	2.054145e-03
2.598827850117529e-03	2.054146e+00	2.054146e-03
2.605663787617529e-03	2.054146e+00	2.054146e-03
2.612499725117529e-03	2.054147e+00	2.054147e-03
2.619335662617529e-03	2.054147e+00	2.054147e-03
2.626171600117529e-03	2.054148e+00	2.054148e-03
2.633007537617529e-03	2.054148e+00	2.054148e-03
2.639843475117529e-03	2.054148e+00	2.054149e-03
2.646679412617529e-03	2.054149e+00	2.054149e-03
2.653515350117529e-03	2.054149e+00	2.054150e-03
2.660351287617529e-03	2.054149e+00	2.054150e-03
2.667187225117529e-03	2.054150e+00	2.054150e-03
2.674023162617529e-03	2.054150e+00	2.054150e-03
2.680859100117529e-03	2.054150e+00	2.054151e-03
2.687695037617529e-03	2.054151e+00	2.054151e-03
2.694530975117529e-03	2.054151e+00	2.054151e-03
2.701366912617529e-03	2.054151e+00	2.054151e-03
2.708202850117529e-03	2.054151e+00	2.054152e-03
2.715038787617529e-03	2.054152e+00	2.054152e-03
2.721874725117529e-03	2.054152e+00	2.054152e-03
2.728710662617529e-03	2.054152e+00	2.054152e-03
2.735546600117529e-03	2.054152e+00	2.054152e-03
2.742382537617529e-03	2.054152e+00	2.054152e-03
2.749218475117529e-03	2.054152e+00	2.054153e-03
2.756054412617529e-03	2.054152e+00	2.054153e-03
2.762890350117529e-03	2.054152e+00	2.054153e-03
2.769726287617529e-03	2.054153e+00	2.054153e-03
2.776562225117529e-03	2.054153e+00	2.054153e-03
2.783398162617529e-03	2.054153e+00	2.054153e-03
2.790234100117529e-03	2.054153e+00	2.054153e-03
2.797070037617529e-03	2.054153e+00	2.054153e-03
2.803905975117529e-03	2.054153e+00	2.054153e-03
2.810741912617529e-03	2.054153e+00	2.054153e-03
2.817577850117529e-03	2.054153e+00	2.054153e-03
2.824413787617529e-03	2.054153e+00	2.054153e-03
2.831249725117529e-03	2.054153e+00	2.054153e-03
2.838085662617529e-03	2.054153e+00	2.054153e-03
2.844921600117529e-03	2.054153e+00	2.054153e-03
2.851757537617529e-03	2.054153e+00	2.054153e-03
2.858593475117529e-03	2.054153e+00	2.054154e-03
2.865429412617529e-03	2.054153e+00	2.054154e-03
2.872265350117529e-03	2.054154e+00	2.054154e-03
2.879101287617529e-03	2.054154e+00	2.054154e-03
2.885937225117529e-03	2.054154e+00	2.054154e-03
2.892773162617529e-03	2.054154e+00	2.054154e-03
2.899609100117529e-03	2.054154e+00	2.054154e-03
2.906445037617529e-03	2.054154e+00	2.054154e-03
2.913280975117529e-03	2.054154e+00	2.054154e-03
2.920116912617529e-03	2.054154e+00	2.054154e-03
2.926952850117529e-03	2.054154e+00	2.054154e-03
2.933788787617529e-03	2.054154e+00	2.054154e-03
2.940624725117529e-03	2.054154e+00	2.054154e-03
2.947460662617529e-03	2.054154e+00	2.054154e-03
2.954296600117529e-03	2.054154e+00	2.054154e-03
2.961132537617529e-03	2.054154e+00	2.054154e-03
2.967968475117529e-03	2.054154e+00	2.054154e-03
2.974804412617529e-03	2.054154e+00	2.054154e-03
2.981640350117529e-03	2.054154e+00	2.054154e-03
2.988476287617529e-03	2.054154e+00	2.054154e-03
2.995312225117529e-03	2.054154e+00	2.054154e-03
3.002148162617529e-03	2.054154e+00	2.054154e-03
3.015820037617529e-03	2.054154e+00	2.054154e-03
3.022655975117529e-03	2.054154e+00	2.054154e-03
3.029491912617529e-03	2.054154e+00	2.054154e-03
3.036327850117529e-03	2.054154e+00	2.054154e-03
3.043163787617529e-03	2.054154e+00	2.054154e-03
3.049999725117529e-03	2.054154e+00	2.054154e-03
3.056835662617529e-03	2.054154e+00	2.054154e-03
3.063671600117529e-03	2.054154e+00	2.054154e-03
3.070507537617529e-03	2.054154e+00	2.054154e-03
3.077343475117529e-03	2.054154e+00	2.054154e-03
3.084179412617529e-03	2.054154e+00	2.054154e-03
3.091015350117529e-03	2.054154e+00	2.054154e-03
3.104687225117529e-03	2.054154e+00	2.054154e-03
3.111523162617529e-03	2.054154e+00	2.054154e-03
3.118359100117529e-03	2.054154e+00	2.054154e-03
3.125195037617529e-03	2.054154e+00	2.054154e-03
3.132030975117529e-03	2.054154e+00	2.054154e-03
3.138866912617529e-03	2.054154e+00	2.054154e-03
3.145702850117529e-03	2.054154e+00	2.054154e-03
3.152538787617529e-03	2.054154e+00	2.054154e-03
3.159374725117529e-03	2.054154e+00	2.054154e-03
3.166210662617529e-03	2.054154e+00	2.054154e-03
3.173046600117529e-03	2.054154e+00	2.054154e-03
3.179882537617529e-03	2.054154e+00	2.054154e-03
3.193554412617529e-03	2.054154e+00	2.054154e-03
3.207226287617529e-03	2.054154e+00	2.054154e-03
3.214062225117529e-03	2.054154e+00	2.054154e-03
3.220898162617529e-03	2.054154e+00	2.054154e-03
3.227734100117529e-03	2.054154e+00	2.054154e-03
3.234570037617529e-03	2.054154e+00	2.054154e-03
3.241405975117529e-03	2.054154e+00	2.054154e-03
3.248241912617529e-03	2.054154e+00	2.054154e-03
3.255077850117529e-03	2.054154e+00	2.054154e-03
3.261913787617529e-03	2.054154e+00	2.054154e-03
3.268749725117529e-03	2.054154e+00	2.054154e-03
3.282421600117529e-03	2.054154e+00	2.054154e-03
3.296093475117529e-03	2.054154e+00	2.054154e-03
3.309765350117529e-03	2.054154e+00	2.054154e-03
3.323437225117529e-03	2.054154e+00	2.054154e-03
3.330273162617529e-03	2.054154e+00	2.054154e-03
3.343945037617529e-03	2.054154e+00	2.054154e-03
3.357616912617529e-03	2.054154e+00	2.054154e-03
3.371288787617529e-03	2.054154e+00	2.054154e-03
3.384960662617529e-03	2.054154e+00	2.054154e-03
3.405468475117529e-03	2.054154e+00	2.054154e-03
3.419140350117529e-03	2.054154e+00	2.054154e-03
3.432812225117529e-03	2.054154e+00	2.054154e-03
3.453320037617529e-03	2.054154e+00	2.054154e-03
3.993359100117529e-03	2.054154e+00	2.054154e-03
4.000000000000000e-03	1.029138e+00	9.531407e-01
4.000013351440430e-03	5.886612e-03	1.905058e+00
4.000013428404278e-03	1.931532e-10	1.912408e+00
4.000013582331976e-03	1.937517e-10	1.918334e+00
4.000013724622296e-03	1.940462e-10	1.921249e+00
4.000013870847708e-03	1.942107e-10	1.922878e+00
4.000014080342036e-03	1.943991e-10	1.924743e+00
4.000014295944453e-03	1.945628e-10	1.926365e+00
