time	V(vout)	-I(Rl)
0.000000000000000e+000	9.996057e+000	-0.000000e+000
6.835937371718615e-011	9.996061e+000	-0.000000e+000
1.367187474343723e-010	9.996064e+000	-0.000000e+000
2.734374948687446e-010	9.996063e+000	-0.000000e+000
5.468749897374892e-010	9.996057e+000	-0.000000e+000
9.072420144855636e-010	9.996052e+000	-0.000000e+000
9.553442297175455e-010	9.996054e+000	-0.000000e+000
1.051548660181509e-009	9.996058e+000	-0.000000e+000
1.051924458738009e-009	9.996058e+000	-0.000000e+000
1.052676055851009e-009	9.996058e+000	-0.000000e+000
1.054179250077008e-009	9.996058e+000	-0.000000e+000
1.057185638529007e-009	9.996058e+000	-0.000000e+000
1.057937235642007e-009	9.996058e+000	-0.000000e+000
1.058125134920257e-009	9.996058e+000	-0.000000e+000
1.058500933476756e-009	9.996058e+000	-0.000000e+000
1.059252530589756e-009	9.996058e+000	-0.000000e+000
1.060755724815756e-009	9.996058e+000	-0.000000e+000
1.063762113267754e-009	9.996058e+000	-0.000000e+000
1.069774890171752e-009	9.996058e+000	-0.000000e+000
1.081800443979748e-009	9.996058e+000	-0.000000e+000
1.105851551595739e-009	9.996058e+000	-0.000000e+000
1.153953766827720e-009	9.996056e+000	-0.000000e+000
1.165979320635716e-009	9.996056e+000	-0.000000e+000
1.190030428251707e-009	9.996056e+000	-0.000000e+000
1.238132643483689e-009	9.996056e+000	-0.000000e+000
1.334337073947652e-009	9.996056e+000	-0.000000e+000
1.495075231490541e-009	9.996057e+000	-0.000000e+000
1.498910153778759e-009	9.996058e+000	-0.000000e+000
1.506579998355195e-009	9.996058e+000	-0.000000e+000
1.521919687508067e-009	9.996058e+000	-0.000000e+000
1.552599065813810e-009	9.996057e+000	-0.000000e+000
1.613957822425297e-009	9.996059e+000	-0.000000e+000
1.726738137121772e-009	9.996061e+000	-0.000000e+000
1.875596102192997e-009	9.996060e+000	-0.000000e+000
1.912810593460804e-009	9.996058e+000	-0.000000e+000
1.922114216277755e-009	9.996057e+000	-0.000000e+000
1.940721461911658e-009	9.996056e+000	-0.000000e+000
1.977935953179465e-009	9.996057e+000	-0.000000e+000
2.052364935715078e-009	9.996056e+000	-0.000000e+000
2.146898975828798e-009	9.996052e+000	-0.000000e+000
2.307287870545406e-009	9.996053e+000	-0.000000e+000
2.479864575337627e-009	9.996059e+000	-0.000000e+000
2.485257597362384e-009	9.996059e+000	-0.000000e+000
2.496043641411898e-009	9.996058e+000	-0.000000e+000
2.517615729510925e-009	9.996058e+000	-0.000000e+000
2.560759905708981e-009	9.996058e+000	-0.000000e+000
2.647048258105091e-009	9.996055e+000	-0.000000e+000
2.803246667216738e-009	9.996054e+000	-0.000000e+000
3.053290876530223e-009	9.996056e+000	-0.000000e+000
3.115801928858594e-009	9.996054e+000	-0.000000e+000
3.131429691940687e-009	9.996054e+000	-0.000000e+000
3.162685218104872e-009	9.996056e+000	-0.000000e+000
3.225196270433243e-009	9.996058e+000	-0.000000e+000
3.350218375089986e-009	9.996057e+000	-0.000000e+000
3.499752823407318e-009	9.996057e+000	-0.000000e+000
3.761847111840166e-009	9.996059e+000	-0.000000e+000
4.099350364237245e-009	9.996059e+000	-0.000000e+000
4.414391536001230e-009	9.996060e+000	-0.000000e+000
4.936489927796399e-009	9.996064e+000	-0.000000e+000
5.067014525745191e-009	9.996062e+000	-0.000000e+000
5.328063721642775e-009	9.996058e+000	-0.000000e+000
5.800771828574452e-009	9.996053e+000	-0.000000e+000
6.332804426267062e-009	9.996050e+000	-0.000000e+000
7.396869621652280e-009	9.996054e+000	-0.000000e+000
9.525000012422717e-009	9.996059e+000	-0.000000e+000
9.816777214015442e-009	9.996056e+000	-0.000000e+000
1.040033161720089e-008	9.996050e+000	-0.000000e+000
1.120777719968422e-008	9.996055e+000	-0.000000e+000
1.211412394677312e-008	9.996057e+000	-0.000000e+000
1.349449939393209e-008	9.996055e+000	-0.000000e+000
1.494994634425949e-008	9.996053e+000	-0.000000e+000
1.755427360096526e-008	9.996054e+000	-0.000000e+000
2.276292811437680e-008	9.996061e+000	-0.000000e+000
3.162830196695027e-008	9.996059e+000	-0.000000e+000
4.050100958049359e-008	9.996051e+000	-0.000000e+000
5.445032048723809e-008	9.996051e+000	-0.000000e+000
7.601992822985463e-008	9.996058e+000	-0.000000e+000
1.086080254856814e-007	9.996063e+000	-0.000000e+000
1.510338443876349e-007	9.996063e+000	-0.000000e+000
2.174998689218961e-007	9.996061e+000	-0.000000e+000
3.301851090151487e-007	9.996055e+000	-0.000000e+000
5.273024366185669e-007	9.996054e+000	-0.000000e+000
9.215370918254035e-007	9.996056e+000	-0.000000e+000
1.395021842993324e-006	9.996055e+000	-0.000000e+000
2.341991345329164e-006	9.996055e+000	-0.000000e+000
3.604623306765527e-006	9.996057e+000	-0.000000e+000
5.778680560915031e-006	9.996057e+000	-0.000000e+000
8.663951548939400e-006	9.996058e+000	-0.000000e+000
1.346990105987852e-005	9.996061e+000	-0.000000e+000
2.030583855987852e-005	9.996054e+000	-0.000000e+000
2.714177605987852e-005	9.996050e+000	-0.000000e+000
3.397771355987852e-005	9.996052e+000	-0.000000e+000
4.081365105987852e-005	9.996054e+000	-0.000000e+000
4.764958855987852e-005	9.996054e+000	-0.000000e+000
5.448552605987852e-005	9.996054e+000	-0.000000e+000
6.132146355987852e-005	9.996054e+000	-0.000000e+000
6.815740105987852e-005	9.996054e+000	-0.000000e+000
7.499333855987853e-005	9.996054e+000	-0.000000e+000
8.182927605987854e-005	9.996054e+000	-0.000000e+000
8.866521355987854e-005	9.996054e+000	-0.000000e+000
9.550115105987855e-005	9.996055e+000	-0.000000e+000
1.023370885598786e-004	9.996055e+000	-0.000000e+000
1.160089635598786e-004	9.996055e+000	-0.000000e+000
1.365167760598786e-004	9.996055e+000	-0.000000e+000
1.677667760598786e-004	9.996055e+000	-0.000000e+000
1.990167760598787e-004	9.996055e+000	-0.000000e+000
2.302667760598787e-004	9.996055e+000	-0.000000e+000
2.615167760598787e-004	9.996055e+000	-0.000000e+000
2.927667760598788e-004	9.996055e+000	-0.000000e+000
3.240167760598788e-004	9.996055e+000	-0.000000e+000
3.552667760598788e-004	9.996056e+000	-0.000000e+000
4.314386510598789e-004	9.996056e+000	-0.000000e+000
5.076105260598790e-004	9.996056e+000	-0.000000e+000
5.837824010598790e-004	9.996056e+000	-0.000000e+000
6.599542760598791e-004	9.996056e+000	-0.000000e+000
7.361261510598792e-004	9.996056e+000	-0.000000e+000
8.122980260598793e-004	9.996056e+000	-0.000000e+000
8.884699010598792e-004	9.996056e+000	-0.000000e+000
1.982219901059865e-003	9.996056e+000	-0.000000e+000
1.989055838559865e-003	9.996062e+000	-0.000000e+000
1.993164062500000e-003	9.996065e+000	-0.000000e+000
2.000000000000000e-003	9.996051e+000	-0.000000e+000
2.000000002607703e-003	3.332017e+000	3.707624e+001
2.000000007823109e-003	8.658967e-009	4.329483e+001
2.000000008092099e-003	8.619015e-009	4.309507e+001
2.000000008630078e-003	8.672467e-009	4.336234e+001
2.000000009287589e-003	8.544955e-009	4.272477e+001
2.000000010035058e-003	8.349133e-009	4.174566e+001
2.000000010812349e-003	8.159095e-009	4.079547e+001
2.000000012366932e-003	7.800863e-009	3.900431e+001
2.000000015476097e-003	7.133812e-009	3.566906e+001
2.000000016167733e-003	6.996464e-009	3.498232e+001
2.000000017551005e-003	6.744368e-009	3.372184e+001
2.000000020317550e-003	6.283856e-009	3.141928e+001
2.000000024720992e-003	5.641895e-009	2.820947e+001
2.000000029159938e-003	5.094227e-009	2.547114e+001
2.000000033549242e-003	4.651270e-009	2.325635e+001
2.000000039313912e-003	4.183290e-009	2.091645e+001
2.000000045018840e-003	3.830737e-009	1.915368e+001
2.000000055632234e-003	3.384811e-009	1.692406e+001
2.000000072043218e-003	2.971331e-009	1.485665e+001
2.000000091227252e-003	2.728892e-009	1.364446e+001
2.000000111243226e-003	2.611076e-009	1.305538e+001
2.000000114080230e-003	2.602687e-009	1.301344e+001
2.000000119754238e-003	2.593852e-009	1.296926e+001
2.000000131102254e-003	2.584072e-009	1.292036e+001
2.000000153798285e-003	2.578683e-009	1.289341e+001
2.000000159472294e-003	2.580111e-009	1.290056e+001
2.000000170820309e-003	2.587148e-009	1.293574e+001
2.000000193516341e-003	2.604921e-009	1.302460e+001
2.000000238908405e-003	2.644529e-009	1.322264e+001
2.000000245468504e-003	2.650092e-009	1.325046e+001
2.000000261868751e-003	2.662929e-009	1.331464e+001
2.000000268428850e-003	2.667282e-009	1.333641e+001
2.000000281549047e-003	2.674818e-009	1.337409e+001
2.000000307789442e-003	2.685905e-009	1.342952e+001
2.000000360270233e-003	2.698836e-009	1.349418e+001
2.000000421743271e-003	2.704778e-009	1.352389e+001
2.000000481545875e-003	2.704464e-009	1.352232e+001
2.000000538688856e-003	2.700820e-009	1.350410e+001
2.000000598912705e-003	2.694698e-009	1.347349e+001
2.000000670170414e-003	2.685494e-009	1.342747e+001
2.000000748321944e-003	2.673746e-009	1.336873e+001
2.000000837964849e-003	2.658849e-009	1.329424e+001
2.000000937208602e-003	2.641318e-009	1.320659e+001
2.000001053691374e-003	2.620082e-009	1.310041e+001
2.000001188438863e-003	2.595395e-009	1.297698e+001
2.000001354537633e-003	2.565660e-009	1.282830e+001
2.000001562792836e-003	2.530553e-009	1.265277e+001
2.000001856925389e-003	2.486645e-009	1.243323e+001
2.000002338522931e-003	2.427653e-009	1.213827e+001
2.000002868866180e-003	2.379165e-009	1.189583e+001
2.000003447066832e-003	2.344221e-009	1.172110e+001
2.000004087905470e-003	2.321882e-009	1.160941e+001
2.000004717376345e-003	2.312409e-009	1.156205e+001
2.000005401419132e-003	2.312156e-009	1.156078e+001
2.000006119688151e-003	2.319407e-009	1.159703e+001
2.000006949908765e-003	2.333864e-009	1.166932e+001
2.000007620978675e-003	2.349178e-009	1.174589e+001
2.000008112996339e-003	2.362412e-009	1.181206e+001
2.000008564337720e-003	2.374832e-009	1.187416e+001
2.000009042410252e-003	2.387012e-009	1.193506e+001
2.000009421363008e-003	2.395951e-009	1.197976e+001
2.000009822796977e-003	2.404691e-009	1.202345e+001
2.000010625664914e-003	2.420222e-009	1.210111e+001
2.000011555476947e-003	2.434851e-009	1.217426e+001
2.000012839133161e-003	2.449134e-009	1.224567e+001
2.000014469719960e-003	2.460528e-009	1.230264e+001
2.000016017081077e-003	2.466896e-009	1.233448e+001
2.000017337400014e-003	2.470123e-009	1.235062e+001
2.000018782766023e-003	2.472256e-009	1.236128e+001
2.000019754856050e-003	2.472542e-009	1.236271e+001
2.000020425183090e-003	2.471585e-009	1.235792e+001
2.000021250085255e-003	2.469495e-009	1.234748e+001
2.000022012489736e-003	2.467439e-009	1.233720e+001
2.000022108826736e-003	2.467203e-009	1.233601e+001
2.000022301500735e-003	2.466777e-009	1.233388e+001
2.000022686848733e-003	2.465992e-009	1.232996e+001
2.000023457544730e-003	2.464645e-009	1.232323e+001
2.000024246307300e-003	2.463469e-009	1.231734e+001
2.000025003473122e-003	2.462574e-009	1.231287e+001
2.000026056522457e-003	2.461759e-009	1.230879e+001
2.000027216267042e-003	2.461391e-009	1.230695e+001
2.000028443236406e-003	2.461556e-009	1.230778e+001
2.000030677722588e-003	2.462678e-009	1.231339e+001
2.000033530610682e-003	2.464802e-009	1.232401e+001
2.000037492281196e-003	2.468223e-009	1.234111e+001
2.000043762066280e-003	2.473775e-009	1.236888e+001
2.000048674443102e-003	2.478228e-009	1.239114e+001
2.000053039498555e-003	2.482671e-009	1.241336e+001
2.000058062697711e-003	2.489063e-009	1.244532e+001
2.000062627987697e-003	2.496968e-009	1.248484e+001
2.000067550737590e-003	2.509045e-009	1.254522e+001
2.000073185036484e-003	2.528751e-009	1.264375e+001
2.000080262479823e-003	2.562559e-009	1.281280e+001
2.000086436411929e-003	2.599760e-009	1.299880e+001
2.000089513850565e-003	2.621628e-009	1.310814e+001
2.000091753101107e-003	2.639311e-009	1.319655e+001
2.000093438309783e-003	2.653548e-009	1.326774e+001
2.000095034496786e-003	2.667834e-009	1.333917e+001
2.000096661179019e-003	2.683268e-009	1.341634e+001
2.000098695480888e-003	2.703865e-009	1.351932e+001
2.000101065773210e-003	2.729869e-009	1.364934e+001
2.000104370431523e-003	2.770104e-009	1.385052e+001
2.000109544314911e-003	2.840672e-009	1.420336e+001
2.000114874994394e-003	2.922092e-009	1.461046e+001
2.000121036848771e-003	3.024537e-009	1.512268e+001
2.000123641409572e-003	3.069036e-009	1.534518e+001
2.000125052548587e-003	3.092123e-009	1.546061e+001
2.000125569668329e-003	3.100056e-009	1.550028e+001
2.000126098311205e-003	3.108117e-009	1.554058e+001
2.000126365123461e-003	3.112226e-009	1.556113e+001
2.000126646780062e-003	3.116547e-009	1.558274e+001
2.000127084207758e-003	3.123245e-009	1.561623e+001
2.000127527195905e-003	3.129981e-009	1.564991e+001
2.000128413172199e-003	3.143281e-009	1.571640e+001
2.000129436367996e-003	3.158112e-009	1.579056e+001
2.000131482759590e-003	3.185290e-009	1.592645e+001
2.000133527397973e-003	3.206314e-009	1.603157e+001
2.000135181556546e-003	3.210039e-009	1.605019e+001
2.000136382342541e-003	3.190767e-009	1.595383e+001
2.000137215744915e-003	3.158596e-009	1.579298e+001
2.000137223982634e-003	3.158136e-009	1.579068e+001
2.000137240458072e-003	3.157097e-009	1.578549e+001
2.000137273408947e-003	3.155078e-009	1.577539e+001
2.000137339310697e-003	3.151325e-009	1.575662e+001
2.000137459652590e-003	3.145352e-009	1.572676e+001
2.000137700336377e-003	3.135019e-009	1.567509e+001
2.000137737403201e-003	3.133682e-009	1.566841e+001
2.000137811536850e-003	3.131537e-009	1.565768e+001
2.000137959804147e-003	3.128484e-009	1.564242e+001
2.000138256338742e-003	3.126706e-009	1.563353e+001
2.000138540418364e-003	3.129615e-009	1.564808e+001
2.000138582394779e-003	3.130613e-009	1.565306e+001
2.000138666347608e-003	3.133052e-009	1.566526e+001
2.000138815571853e-003	3.137225e-009	1.568612e+001
2.000138972439911e-003	3.141560e-009	1.570780e+001
2.000139000810732e-003	3.142341e-009	1.571171e+001
2.000139007903438e-003	3.142538e-009	1.571269e+001
2.000139022088848e-003	3.142939e-009	1.571470e+001
2.000139022532143e-003	3.142952e-009	1.571476e+001
2.000139023418731e-003	3.142977e-009	1.571488e+001
2.000139025191907e-003	3.143025e-009	1.571513e+001
2.000139025635201e-003	3.143037e-009	1.571519e+001
2.000139026521789e-003	3.143061e-009	1.571531e+001
2.000139028294966e-003	3.143109e-009	1.571555e+001
2.000139031841318e-003	3.143206e-009	1.571603e+001
2.000139038934024e-003	3.143399e-009	1.571700e+001
2.000139053119434e-003	3.143787e-009	1.571894e+001
2.000139081490256e-003	3.144566e-009	1.572283e+001
2.000139138231900e-003	3.146124e-009	1.573062e+001
2.000139251715187e-003	3.149225e-009	1.574613e+001
2.000139478681761e-003	3.155324e-009	1.577662e+001
2.000139871017582e-003	3.165592e-009	1.582796e+001
2.000140263902989e-003	3.175455e-009	1.587728e+001
2.000140961323569e-003	3.191915e-009	1.595958e+001
2.000141669236573e-003	3.207568e-009	1.603784e+001
2.000142207702604e-003	3.218917e-009	1.609459e+001
2.000142745054482e-003	3.229865e-009	1.614933e+001
2.000142809405058e-003	3.231139e-009	1.615570e+001
2.000142938106210e-003	3.233654e-009	1.616827e+001
2.000143195508515e-003	3.238660e-009	1.619330e+001
2.000143710313123e-003	3.248616e-009	1.624308e+001
2.000144196888938e-003	3.258020e-009	1.629010e+001
2.000144931067984e-003	3.272270e-009	1.636135e+001
2.000145929335334e-003	3.291882e-009	1.645941e+001
2.000147925870034e-003	3.331997e-009	1.665999e+001
2.000151144832085e-003	3.398773e-009	1.699387e+001
2.000154547748147e-003	3.472262e-009	1.736131e+001
2.000158167552119e-003	3.554188e-009	1.777094e+001
2.000162557924929e-003	3.659468e-009	1.829734e+001
2.000169775529130e-003	3.847083e-009	1.923542e+001
2.000181796457919e-003	4.200197e-009	2.100099e+001
2.000203071491758e-003	4.909229e-009	2.454615e+001
2.000215714472575e-003	5.383326e-009	2.691663e+001
2.000229823641329e-003	5.965070e-009	2.982535e+001
2.000240597771761e-003	6.434650e-009	3.217325e+001
2.000248013462424e-003	6.769405e-009	3.384702e+001
2.000255659723884e-003	7.120645e-009	3.560323e+001
2.000263299051405e-003	7.472972e-009	3.736486e+001
2.000274836425912e-003	7.996628e-009	3.998314e+001
2.000291465135130e-003	8.717381e-009	4.358691e+001
2.000306957477438e-003	9.331011e-009	4.665505e+001
2.000323165722674e-003	9.896537e-009	4.948268e+001
2.000334068600009e-003	1.022515e-008	5.112576e+001
2.000342980304225e-003	1.045456e-008	5.227280e+001
2.000352923976787e-003	1.067382e-008	5.336912e+001
2.000362841327858e-003	1.085568e-008	5.427839e+001
2.000377728063132e-003	1.106957e-008	5.534784e+001
2.000396610690261e-003	1.126342e-008	5.631712e+001
2.000422380338848e-003	1.143749e-008	5.718743e+001
2.000435412661834e-003	1.149202e-008	5.746012e+001
2.000442265635715e-003	1.150815e-008	5.754074e+001
2.000448828781164e-003	1.151808e-008	5.759042e+001
2.000450658205972e-003	1.152022e-008	5.760112e+001
2.000452874837096e-003	1.152232e-008	5.761158e+001
2.000455404273117e-003	1.152418e-008	5.762091e+001
2.000459693914275e-003	1.152635e-008	5.763177e+001
2.000464581737278e-003	1.152749e-008	5.763747e+001
2.000471037326952e-003	1.152700e-008	5.763498e+001
2.000478050786669e-003	1.152397e-008	5.761983e+001
2.000489956186985e-003	1.151443e-008	5.757216e+001
2.000501297989510e-003	1.150063e-008	5.750316e+001
2.000523981594561e-003	1.146422e-008	5.732111e+001
2.000537292738616e-003	1.143891e-008	5.719454e+001
2.000546356032419e-003	1.141950e-008	5.709750e+001
2.000554045161248e-003	1.140213e-008	5.701065e+001
2.000554436252262e-003	1.140122e-008	5.700608e+001
2.000555218434289e-003	1.139936e-008	5.699681e+001
2.000556782798344e-003	1.139564e-008	5.697820e+001
2.000559911526452e-003	1.138808e-008	5.694038e+001
2.000566168982670e-003	1.137257e-008	5.686284e+001
2.000573459941188e-003	1.135389e-008	5.676946e+001
2.000582889002682e-003	1.132878e-008	5.664391e+001
2.000592509327678e-003	1.130205e-008	5.651024e+001
2.000603865057038e-003	1.126901e-008	5.634507e+001
2.000615624838852e-003	1.123306e-008	5.616532e+001
2.000629689302188e-003	1.118760e-008	5.593802e+001
2.000645543636272e-003	1.113295e-008	5.566477e+001
2.000664309207829e-003	1.106378e-008	5.531891e+001
2.000677682636543e-003	1.101113e-008	5.505564e+001
2.000688824111770e-003	1.096441e-008	5.482206e+001
2.000700106402249e-003	1.091433e-008	5.457164e+001
2.000711530999517e-003	1.086031e-008	5.430156e+001
2.000727354800393e-003	1.077975e-008	5.389875e+001
2.000744691153175e-003	1.068294e-008	5.341472e+001
2.000766907792362e-003	1.054387e-008	5.271937e+001
2.000792246644318e-003	1.036112e-008	5.180561e+001
2.000826556438852e-003	1.006979e-008	5.034896e+001
2.000872321893078e-003	9.622371e-009	4.811185e+001
2.000914834569594e-003	9.168708e-009	4.584354e+001
2.000965339867574e-003	8.615562e-009	4.307781e+001
2.001014129110287e-003	8.093719e-009	4.046860e+001
2.001071872044207e-003	7.502919e-009	3.751460e+001
2.001128301736721e-003	6.952632e-009	3.476316e+001
2.001187818860978e-003	6.397948e-009	3.198974e+001
2.001255522314785e-003	5.792195e-009	2.896097e+001
2.001328054590279e-003	5.174227e-009	2.587113e+001
2.001383295076636e-003	4.750689e-009	2.375344e+001
2.001444014620714e-003	4.361332e-009	2.180666e+001
2.001494219059380e-003	4.098436e-009	2.049218e+001
2.001530930238314e-003	3.938754e-009	1.969377e+001
2.001573747412797e-003	3.777976e-009	1.888988e+001
2.001613451089618e-003	3.646552e-009	1.823276e+001
2.001657450933155e-003	3.517971e-009	1.758986e+001
2.001705212886347e-003	3.393282e-009	1.696641e+001
2.001743409798434e-003	3.303602e-009	1.651801e+001
2.001782291894044e-003	3.219318e-009	1.609659e+001
2.001784204406633e-003	3.215450e-009	1.607725e+001
2.001788029431809e-003	3.208079e-009	1.604040e+001
2.001795679482163e-003	3.193426e-009	1.596713e+001
2.001806730627840e-003	3.172436e-009	1.586218e+001
2.001818515909841e-003	3.150395e-009	1.575198e+001
2.001841829011205e-003	3.107886e-009	1.553943e+001
2.001867455642298e-003	3.063091e-009	1.531546e+001
2.001908616003676e-003	2.995409e-009	1.497705e+001
2.001957880507049e-003	2.920467e-009	1.460233e+001
2.002021600745145e-003	2.833424e-009	1.416712e+001
2.002136017007296e-003	2.695977e-009	1.347989e+001
2.002254392281193e-003	2.571922e-009	1.285961e+001
2.002355144484319e-003	2.480269e-009	1.240134e+001
2.002470028036759e-003	2.386393e-009	1.193196e+001
2.002498916263534e-003	2.364454e-009	1.182227e+001
2.002524184655989e-003	2.346255e-009	1.173127e+001
2.002559592365637e-003	2.321436e-009	1.160718e+001
2.002583330213700e-003	2.305258e-009	1.152629e+001
2.002620059424347e-003	2.280988e-009	1.140494e+001
2.002660732019989e-003	2.254962e-009	1.127481e+001
2.002706849446720e-003	2.226568e-009	1.113284e+001
