time	V(vout)	-I(Rl)
0.000000000000000e+000	9.996057e+000	-0.000000e+000
6.835937371718615e-011	9.996061e+000	-0.000000e+000
1.367187474343723e-010	9.996064e+000	-0.000000e+000
2.734374948687446e-010	9.996063e+000	-0.000000e+000
5.468749897374892e-010	9.996057e+000	-0.000000e+000
9.072439370927236e-010	9.996051e+000	-0.000000e+000
1.293680425076388e-009	9.996048e+000	-0.000000e+000
2.036730600995510e-009	9.996048e+000	-0.000000e+000
2.148706619710672e-009	9.996050e+000	-0.000000e+000
2.372658657140994e-009	9.996055e+000	-0.000000e+000
2.820562732001640e-009	9.996062e+000	-0.000000e+000
3.273398710222649e-009	9.996065e+000	-0.000000e+000
4.179070666664669e-009	9.996060e+000	-0.000000e+000
5.798991817422355e-009	9.996056e+000	-0.000000e+000
7.382420173946732e-009	9.996056e+000	-0.000000e+000
9.713716126900966e-009	9.996055e+000	-0.000000e+000
1.376311769871881e-008	9.996056e+000	-0.000000e+000
2.164506339776172e-008	9.996061e+000	-0.000000e+000
3.696770010381409e-008	9.996057e+000	-0.000000e+000
5.247647737149295e-008	9.996051e+000	-0.000000e+000
7.786543663213850e-008	9.996057e+000	-0.000000e+000
1.207499186464082e-007	9.996065e+000	-0.000000e+000
2.065188826749476e-007	9.996063e+000	-0.000000e+000
3.294540198775627e-007	9.996058e+000	-0.000000e+000
5.056613904692443e-007	9.996054e+000	-0.000000e+000
8.580761316526076e-007	9.996051e+000	-0.000000e+000
1.388447475581837e-006	9.996052e+000	-0.000000e+000
2.340561994137434e-006	9.996055e+000	-0.000000e+000
3.526206777641276e-006	9.996058e+000	-0.000000e+000
5.897496344648960e-006	9.996063e+000	-0.000000e+000
1.064007547866433e-005	9.996060e+000	-0.000000e+000
1.747601297866433e-005	9.996052e+000	-0.000000e+000
2.431195047866433e-005	9.996048e+000	-0.000000e+000
3.114788797866433e-005	9.996048e+000	-0.000000e+000
3.798382547866432e-005	9.996049e+000	-0.000000e+000
4.481976297866432e-005	9.996050e+000	-0.000000e+000
5.165570047866432e-005	9.996051e+000	-0.000000e+000
5.849163797866432e-005	9.996052e+000	-0.000000e+000
6.532757547866432e-005	9.996052e+000	-0.000000e+000
7.216351297866433e-005	9.996052e+000	-0.000000e+000
7.899945047866433e-005	9.996052e+000	-0.000000e+000
8.583538797866434e-005	9.996052e+000	-0.000000e+000
9.267132547866435e-005	9.996053e+000	-0.000000e+000
9.950726297866435e-005	9.996053e+000	-0.000000e+000
1.063432004786644e-004	9.996053e+000	-0.000000e+000
1.131791379786644e-004	9.996053e+000	-0.000000e+000
1.268510129786644e-004	9.996053e+000	-0.000000e+000
1.405228879786644e-004	9.996053e+000	-0.000000e+000
1.532182004786644e-004	9.996053e+000	-0.000000e+000
1.659135129786644e-004	9.996053e+000	-0.000000e+000
1.786088254786645e-004	9.996054e+000	-0.000000e+000
1.913041379786645e-004	9.996054e+000	-0.000000e+000
2.039994504786645e-004	9.996054e+000	-0.000000e+000
2.166947629786645e-004	9.996054e+000	-0.000000e+000
2.293900754786645e-004	9.996054e+000	-0.000000e+000
2.704057004786645e-004	9.996054e+000	-0.000000e+000
3.114213254786646e-004	9.996054e+000	-0.000000e+000
3.524369504786647e-004	9.996055e+000	-0.000000e+000
3.934525754786647e-004	9.996055e+000	-0.000000e+000
4.344682004786647e-004	9.996055e+000	-0.000000e+000
4.754838254786648e-004	9.996055e+000	-0.000000e+000
5.164994504786647e-004	9.996056e+000	-0.000000e+000
5.868119504786648e-004	9.996056e+000	-0.000000e+000
6.571244504786647e-004	9.996056e+000	-0.000000e+000
7.274369504786648e-004	9.996056e+000	-0.000000e+000
7.977494504786647e-004	9.996056e+000	-0.000000e+000
8.680619504786648e-004	9.996056e+000	-0.000000e+000
9.383744504786649e-004	9.996056e+000	-0.000000e+000
1.008686950478665e-003	9.996056e+000	-0.000000e+000
1.986226012978651e-003	9.996056e+000	-0.000000e+000
1.993061950478651e-003	9.996056e+000	-0.000000e+000
1.993164062500000e-003	9.996056e+000	-0.000000e+000
1.993368286542698e-003	9.996058e+000	-0.000000e+000
1.993776734628093e-003	9.996065e+000	-0.000000e+000
1.994515475516781e-003	9.996065e+000	-0.000000e+000
1.995771581217828e-003	9.996058e+000	-0.000000e+000
1.997617730481151e-003	9.996062e+000	-0.000000e+000
1.998136936776326e-003	9.996065e+000	-0.000000e+000
1.998961587409649e-003	9.996067e+000	-0.000000e+000
2.000000000000000e-003	9.996061e+000	-0.000000e+000
2.000000003168984e-003	3.332021e+000	3.581201e+001
2.000000009506951e-003	8.180680e-009	4.090340e+001
2.000000009764624e-003	8.108546e-009	4.054273e+001
2.000000134764624e-003	3.540674e-009	1.770337e+001
2.000000136717749e-003	3.470203e-009	1.735101e+001
2.000000140623999e-003	3.345365e-009	1.672683e+001
2.000000148436499e-003	3.157231e-009	1.578616e+001
2.000000164061499e-003	2.927561e-009	1.463780e+001
2.000000186681753e-003	2.745018e-009	1.372509e+001
2.000000189554672e-003	2.733144e-009	1.366572e+001
2.000000195300508e-003	2.721677e-009	1.360839e+001
2.000000206792182e-003	2.707267e-009	1.353634e+001
2.000000229775529e-003	2.696505e-009	1.348253e+001
2.000000272817619e-003	2.697134e-009	1.348567e+001
2.000000322249400e-003	2.703792e-009	1.351896e+001
2.000000367256629e-003	2.707356e-009	1.353678e+001
2.000000415990210e-003	2.707426e-009	1.353713e+001
2.000000471719566e-003	2.704525e-009	1.352263e+001
2.000000531654663e-003	2.699077e-009	1.349538e+001
2.000000590024866e-003	2.692105e-009	1.346052e+001
2.000000655538842e-003	2.682879e-009	1.341440e+001
2.000000728903577e-003	2.671555e-009	1.335778e+001
2.000000739392960e-003	2.669845e-009	1.334923e+001
2.000000760371727e-003	2.666306e-009	1.333153e+001
2.000000802329260e-003	2.659053e-009	1.329527e+001
2.000000886244328e-003	2.644090e-009	1.322045e+001
2.000001006666857e-003	2.622107e-009	1.311054e+001
2.000001128292266e-003	2.599760e-009	1.299880e+001
2.000001277448440e-003	2.572786e-009	1.286393e+001
2.000001447941104e-003	2.543316e-009	1.271658e+001
2.000001687397841e-003	2.505326e-009	1.252663e+001
2.000002024771317e-003	2.458896e-009	1.229448e+001
2.000002464284507e-003	2.410341e-009	1.205170e+001
2.000002997365886e-003	2.367430e-009	1.183715e+001
2.000003602384190e-003	2.335955e-009	1.167978e+001
2.000004243723732e-003	2.317866e-009	1.158933e+001
2.000004888810640e-003	2.311479e-009	1.155739e+001
2.000005584034581e-003	2.313837e-009	1.156918e+001
2.000006320931275e-003	2.323417e-009	1.161709e+001
2.000007253887825e-003	2.341837e-009	1.170918e+001
2.000007844514997e-003	2.356668e-009	1.178334e+001
2.000008292452271e-003	2.369349e-009	1.184675e+001
2.000008602064031e-003	2.377828e-009	1.188914e+001
2.000008936118233e-003	2.386303e-009	1.193152e+001
2.000009333670009e-003	2.395861e-009	1.197931e+001
2.000009693927632e-003	2.404000e-009	1.202000e+001
2.000010229848564e-003	2.415201e-009	1.207600e+001
2.000010817261053e-003	2.426080e-009	1.213040e+001
2.000011661410163e-003	2.439086e-009	1.219543e+001
2.000012551891424e-003	2.449430e-009	1.224715e+001
2.000013919380308e-003	2.460104e-009	1.230052e+001
2.000015482064617e-003	2.467780e-009	1.233890e+001
2.000017001882394e-003	2.472317e-009	1.236158e+001
2.000018371720740e-003	2.474831e-009	1.237415e+001
2.000019583121754e-003	2.475668e-009	1.237834e+001
2.000020290760809e-003	2.474860e-009	1.237430e+001
2.000021016591243e-003	2.472963e-009	1.236482e+001
2.000021767972511e-003	2.470860e-009	1.235430e+001
2.000022506136980e-003	2.469017e-009	1.234509e+001
2.000023011786963e-003	2.467887e-009	1.233944e+001
2.000023754246301e-003	2.466411e-009	1.233205e+001
2.000024514944672e-003	2.465203e-009	1.232602e+001
2.000025387454299e-003	2.464279e-009	1.232139e+001
2.000026346041456e-003	2.463819e-009	1.231909e+001
2.000028263215770e-003	2.463968e-009	1.231984e+001
2.000030743917072e-003	2.465241e-009	1.232621e+001
2.000033301236651e-003	2.467304e-009	1.233652e+001
2.000037187863408e-003	2.470920e-009	1.235460e+001
2.000042871554119e-003	2.476328e-009	1.238164e+001
2.000048054001901e-003	2.481355e-009	1.240677e+001
2.000052665332920e-003	2.486313e-009	1.243156e+001
2.000057797522936e-003	2.493128e-009	1.246564e+001
2.000062505711194e-003	2.501575e-009	1.250788e+001
2.000067599301759e-003	2.514452e-009	1.257226e+001
2.000073266987110e-003	2.534838e-009	1.267419e+001
2.000080517776917e-003	2.571069e-009	1.285535e+001
2.000088399286252e-003	2.621312e-009	1.310656e+001
2.000091661280050e-003	2.646139e-009	1.323069e+001
2.000093979605343e-003	2.666026e-009	1.333013e+001
2.000095732773524e-003	2.682242e-009	1.341121e+001
2.000097574800253e-003	2.700448e-009	1.350224e+001
2.000099420073276e-003	2.719896e-009	1.359948e+001
2.000101495461816e-003	2.743583e-009	1.371792e+001
2.000105078295377e-003	2.788880e-009	1.394440e+001
2.000110661239647e-003	2.868006e-009	1.434003e+001
2.000116825191171e-003	2.965614e-009	1.482807e+001
2.000122612732392e-003	3.065337e-009	1.532668e+001
2.000125410000823e-003	3.116139e-009	1.558070e+001
2.000127264891333e-003	3.150521e-009	1.575261e+001
2.000128151597210e-003	3.166458e-009	1.583229e+001
2.000128867165015e-003	3.178579e-009	1.589289e+001
2.000128901477616e-003	3.179122e-009	1.589561e+001
2.000128970102817e-003	3.180178e-009	1.590089e+001
2.000129107353219e-003	3.182328e-009	1.591164e+001
2.000129381854023e-003	3.186685e-009	1.593342e+001
2.000129646663880e-003	3.190929e-009	1.595464e+001
2.000130066834017e-003	3.197696e-009	1.598848e+001
2.000130447562351e-003	3.203825e-009	1.601912e+001
2.000130997434588e-003	3.212640e-009	1.606320e+001
2.000131597927555e-003	3.222169e-009	1.611084e+001
2.000132652511902e-003	3.238532e-009	1.619266e+001
2.000134045034838e-003	3.258934e-009	1.629467e+001
2.000136062308400e-003	3.284114e-009	1.642057e+001
2.000138032882926e-003	3.298001e-009	1.649001e+001
2.000139325315080e-003	3.287862e-009	1.643931e+001
2.000140243110652e-003	3.257859e-009	1.628930e+001
2.000140916755131e-003	3.225995e-009	1.612997e+001
2.000141314153415e-003	3.213137e-009	1.606569e+001
2.000141629373830e-003	3.211097e-009	1.605549e+001
2.000141662446377e-003	3.211512e-009	1.605756e+001
2.000141728591471e-003	3.213111e-009	1.606556e+001
2.000141860881661e-003	3.216803e-009	1.608401e+001
2.000141885740774e-003	3.217523e-009	1.608762e+001
2.000141935459001e-003	3.218975e-009	1.609488e+001
2.000141947888558e-003	3.219340e-009	1.609670e+001
2.000141950995947e-003	3.219432e-009	1.609716e+001
2.000141957210726e-003	3.219615e-009	1.609808e+001
2.000141969640283e-003	3.219982e-009	1.609991e+001
2.000141994499396e-003	3.220717e-009	1.610358e+001
2.000142044217623e-003	3.222190e-009	1.611095e+001
2.000142143654077e-003	3.225140e-009	1.612570e+001
2.000142342526986e-003	3.231015e-009	1.615508e+001
2.000142627064209e-003	3.239299e-009	1.619650e+001
2.000142890705503e-003	3.246742e-009	1.623371e+001
2.000143276578232e-003	3.257094e-009	1.628547e+001
2.000143873406038e-003	3.272008e-009	1.636004e+001
2.000144581747631e-003	3.288556e-009	1.644278e+001
2.000145158823874e-003	3.301471e-009	1.650735e+001
2.000145629978946e-003	3.311664e-009	1.655832e+001
2.000145694140428e-003	3.313019e-009	1.656510e+001
2.000145822463391e-003	3.315707e-009	1.657854e+001
2.000146079109318e-003	3.321053e-009	1.660527e+001
2.000146592401171e-003	3.331687e-009	1.665844e+001
2.000147113862643e-003	3.342487e-009	1.671243e+001
2.000147862985459e-003	3.358070e-009	1.679035e+001
2.000148925119573e-003	3.380429e-009	1.690214e+001
2.000151049387801e-003	3.426136e-009	1.713068e+001
2.000154473873384e-003	3.502045e-009	1.751023e+001
2.000157653353818e-003	3.575222e-009	1.787611e+001
2.000161398858400e-003	3.665230e-009	1.832615e+001
2.000165709925693e-003	3.774637e-009	1.887318e+001
2.000173499994164e-003	3.988078e-009	1.994039e+001
2.000185589508803e-003	4.353641e-009	2.176821e+001
2.000200172548283e-003	4.841968e-009	2.420984e+001
2.000210377256004e-003	5.218910e-009	2.609455e+001
2.000222894991564e-003	5.721860e-009	2.860930e+001
2.000235951608032e-003	6.278079e-009	3.139039e+001
2.000243696508431e-003	6.621959e-009	3.310980e+001
2.000250968052413e-003	6.953011e-009	3.476506e+001
2.000258233921333e-003	7.287362e-009	3.643681e+001
2.000266700372215e-003	7.676132e-009	3.838066e+001
2.000280250218393e-003	8.285181e-009	4.142590e+001
2.000293674833131e-003	8.857464e-009	4.428732e+001
2.000308578200814e-003	9.435595e-009	4.717797e+001
2.000324294850797e-003	9.974386e-009	4.987193e+001
2.000334461385041e-003	1.027594e-008	5.137968e+001
2.000343331495964e-003	1.050036e-008	5.250178e+001
2.000354220690044e-003	1.073555e-008	5.367773e+001
2.000364384722455e-003	1.091606e-008	5.458031e+001
2.000380364319902e-003	1.113482e-008	5.567411e+001
2.000399728614195e-003	1.132371e-008	5.661856e+001
2.000422824994407e-003	1.146742e-008	5.733712e+001
2.000444071340934e-003	1.154577e-008	5.772883e+001
2.000454121843859e-003	1.156561e-008	5.782804e+001
2.000459176109970e-003	1.157018e-008	5.785088e+001
2.000463912907481e-003	1.157226e-008	5.786130e+001
2.000465788799445e-003	1.157271e-008	5.786354e+001
2.000468821176401e-003	1.157294e-008	5.786471e+001
2.000471687663992e-003	1.157265e-008	5.786324e+001
2.000477420639174e-003	1.157088e-008	5.785440e+001
2.000482620564976e-003	1.156808e-008	5.784040e+001
2.000489783085800e-003	1.156237e-008	5.781185e+001
2.000497933888347e-003	1.155365e-008	5.776822e+001
2.000510016377877e-003	1.153715e-008	5.768573e+001
2.000524630838855e-003	1.151315e-008	5.756573e+001
2.000536796974999e-003	1.149022e-008	5.745108e+001
2.000546512740234e-003	1.147030e-008	5.735150e+001
2.000547545772845e-003	1.146808e-008	5.734040e+001
2.000549611838065e-003	1.146352e-008	5.731760e+001
2.000553743968507e-003	1.145421e-008	5.727104e+001
2.000560528890487e-003	1.143848e-008	5.719240e+001
2.000567543225371e-003	1.142167e-008	5.710837e+001
2.000574734069955e-003	1.140384e-008	5.701919e+001
2.000581846757577e-003	1.138559e-008	5.692794e+001
2.000589927457588e-003	1.136413e-008	5.682065e+001
2.000599067210921e-003	1.133897e-008	5.669486e+001
2.000609315422805e-003	1.130965e-008	5.654823e+001
2.000620648098969e-003	1.127579e-008	5.637896e+001
2.000633579186321e-003	1.123523e-008	5.617613e+001
2.000648956316916e-003	1.118403e-008	5.592017e+001
2.000669083237606e-003	1.111272e-008	5.556361e+001
2.000682290203511e-003	1.106292e-008	5.531460e+001
2.000693079625475e-003	1.101974e-008	5.509870e+001
2.000703997959563e-003	1.097374e-008	5.486868e+001
2.000714362434305e-003	1.092755e-008	5.463773e+001
2.000729291927946e-003	1.085652e-008	5.428259e+001
2.000745486452074e-003	1.077280e-008	5.386403e+001
2.000766686265744e-003	1.065120e-008	5.325599e+001
2.000790392353103e-003	1.049594e-008	5.247972e+001
2.000822491229099e-003	1.024856e-008	5.124279e+001
2.000863436722858e-003	9.877287e-009	4.938644e+001
2.000907827669228e-003	9.421981e-009	4.710991e+001
2.000951800094513e-003	8.943272e-009	4.471636e+001
2.000999750136333e-003	8.421019e-009	4.210509e+001
2.001054633537458e-003	7.844014e-009	3.922007e+001
2.001114149612842e-003	7.247285e-009	3.623642e+001
2.001168115487920e-003	6.731296e-009	3.365648e+001
2.001230309168947e-003	6.160908e-009	3.080454e+001
2.001295731924242e-003	5.588118e-009	2.794059e+001
2.001384943271947e-003	4.868307e-009	2.434154e+001
2.001447401491717e-003	4.446508e-009	2.223254e+001
2.001518806660373e-003	4.064615e-009	2.032308e+001
2.001552931758297e-003	3.916099e-009	1.958049e+001
2.001597912377222e-003	3.751055e-009	1.875527e+001
2.001638182684215e-003	3.620343e-009	1.810172e+001
2.001680370086471e-003	3.499689e-009	1.749844e+001
2.001733271324103e-003	3.364401e-009	1.682201e+001
2.001768435185686e-003	3.283393e-009	1.641697e+001
2.001804305861086e-003	3.208048e-009	1.604024e+001
2.001819711534626e-003	3.177844e-009	1.588922e+001
2.001839523611132e-003	3.140645e-009	1.570322e+001
2.001857251251534e-003	3.108180e-009	1.554090e+001
2.001877787104437e-003	3.071924e-009	1.535962e+001
2.001908803235096e-003	3.019585e-009	1.509793e+001
2.001941677214856e-003	2.967636e-009	1.483818e+001
2.002007425174375e-003	2.872149e-009	1.436074e+001
2.002077382665262e-003	2.781130e-009	1.390565e+001
2.002193622620580e-003	2.649138e-009	1.324569e+001
2.002319085757673e-003	2.524974e-009	1.262487e+001
2.002424795175789e-003	2.433053e-009	1.216526e+001
2.002495764139923e-003	2.376895e-009	1.188447e+001
2.002520795108351e-003	2.358259e-009	1.179130e+001
2.002547966575672e-003	2.338815e-009	1.169408e+001
2.002583326309180e-003	2.314217e-009	1.157108e+001
2.002615408284226e-003	2.292558e-009	1.146279e+001
2.002651004059538e-003	2.269295e-009	1.134648e+001
2.002693487984859e-003	2.242476e-009	1.121238e+001
2.002743959773860e-003	2.211857e-009	1.105928e+001
2.002808927842504e-003	2.174130e-009	1.087065e+001
2.002872443662784e-003	2.138936e-009	1.069468e+001
2.002941381091096e-003	2.102568e-009	1.051284e+001
2.003010923353211e-003	2.067635e-009	1.033818e+001
2.003082335461016e-003	2.033462e-009	1.016731e+001
2.003154153404445e-003	2.000657e-009	1.000329e+001
2.003227422037783e-003	1.968684e-009	9.843418e+000
2.003308399136362e-003	1.935067e-009	9.675333e+000
2.003430347798769e-003	1.887059e-009	9.435296e+000
2.003545315896420e-003	1.844598e-009	9.222990e+000
2.003737264701979e-003	1.778771e-009	8.893856e+000
2.003941440245727e-003	1.714486e-009	8.572428e+000
2.004246055669841e-003	1.627844e-009	8.139221e+000
2.004614970535208e-003	1.533759e-009	7.668796e+000
2.005039130254402e-003	1.437529e-009	7.187644e+000
2.005510850686950e-003	1.343496e-009	6.717482e+000
2.006284078613862e-003	1.208807e-009	6.044035e+000
2.007004000517971e-003	1.099775e-009	5.498877e+000
2.007857404513005e-003	9.877943e-010	4.938972e+000
2.008617964008590e-003	9.002815e-010	4.501408e+000
2.009399515942556e-003	8.206262e-010	4.103131e+000
2.010003449309145e-003	7.647516e-010	3.823758e+000
2.010340799576525e-003	7.360417e-010	3.680208e+000
2.010846278153697e-003	6.956576e-010	3.478288e+000
2.011124819113831e-003	6.745496e-010	3.372748e+000
2.011505432499448e-003	6.475537e-010	3.237768e+000
2.012266659270682e-003	5.972360e-010	2.986180e+000
2.012860844066395e-003	5.613909e-010	2.806954e+000
2.013294882044740e-003	5.395081e-010	2.697541e+000
2.013733169610018e-003	5.256119e-010	2.628060e+000
2.014048084905885e-003	5.282192e-010	2.641096e+000
2.014372259285010e-003	5.475986e-010	2.737993e+000
2.014551002085796e-003	5.646749e-010	2.823374e+000
2.014744758563742e-003	5.844111e-010	2.922055e+000
2.014891835548783e-003	5.973861e-010	2.986931e+000
2.015059575021462e-003	6.102711e-010	3.051356e+000
2.015243731411048e-003	6.235726e-010	3.117863e+000
2.015530355072997e-003	6.438960e-010	3.219480e+000
2.015839271426066e-003	6.657863e-010	3.328931e+000
2.016457104132204e-003	7.098707e-010	3.549353e+000
2.017219372039715e-003	7.648512e-010	3.824256e+000
2.017626856225593e-003	7.946152e-010	3.973076e+000
2.017831742565268e-003	8.098074e-010	4.049037e+000
2.017957058408622e-003	8.191810e-010	4.095905e+000
2.018049304137942e-003	8.260796e-010	4.130398e+000
2.018113030653459e-003	8.308376e-010	4.154188e+000
2.018164688191097e-003	8.346888e-010	4.173444e+000
2.018222243254035e-003	8.389733e-010	4.194867e+000
2.018257227617486e-003	8.415735e-010	4.207868e+000
2.018277082767314e-003	8.430468e-010	4.215234e+000
2.018306373243731e-003	8.452160e-010	4.226080e+000
2.018337913251243e-003	8.475472e-010	4.237736e+000
2.018359004244758e-003	8.491023e-010	4.245512e+000
2.018379995194275e-003	8.506459e-010	4.253230e+000
2.018404959368972e-003	8.524765e-010	4.262383e+000
2.018429480212249e-003	8.542678e-010	4.271339e+000
2.018460119538793e-003	8.564955e-010	4.282477e+000
2.018493276715932e-003	8.588895e-010	4.294447e+000
2.018542215633076e-003	8.623838e-010	4.311919e+000
2.018607246064766e-003	8.669134e-010	4.334567e+000
2.018737306928147e-003	8.755713e-010	4.377857e+000
2.018858899392252e-003	8.828365e-010	4.414183e+000
2.019063248965803e-003	8.916628e-010	4.458314e+000
2.019471948112905e-003	9.002781e-010	4.501390e+000
2.019762545952854e-003	9.001788e-010	4.500894e+000
2.020075088193774e-003	8.955100e-010	4.477550e+000
2.020392339915794e-003	8.889836e-010	4.444918e+000
2.020725038427828e-003	8.812953e-010	4.406476e+000
2.021180809928701e-003	8.705420e-010	4.352710e+000
2.021680568122903e-003	8.590013e-010	4.295007e+000
2.022224087428182e-003	8.470389e-010	4.235195e+000
2.023111404380788e-003	8.288338e-010	4.144169e+000
