time	V(vout)	-I(Rl)
0.000000000000000e+000	9.996057e+000	-0.000000e+000
6.835937371718615e-011	9.996061e+000	-0.000000e+000
1.367187474343723e-010	9.996064e+000	-0.000000e+000
2.734374948687446e-010	9.996063e+000	-0.000000e+000
5.468749897374892e-010	9.996056e+000	-0.000000e+000
5.469849716792472e-010	9.996056e+000	-0.000000e+000
1.546984971679247e-009	9.996052e+000	-0.000000e+000
2.546984971679247e-009	9.996050e+000	-0.000000e+000
4.546984971679248e-009	9.996051e+000	-0.000000e+000
8.546984971679247e-009	9.996054e+000	-0.000000e+000
1.623163031628784e-008	9.996052e+000	-0.000000e+000
3.038893581463740e-008	9.996055e+000	-0.000000e+000
4.405900773480404e-008	9.996058e+000	-0.000000e+000
6.662980404090159e-008	9.996060e+000	-0.000000e+000
9.388823690924419e-008	9.996062e+000	-0.000000e+000
1.319036640496080e-007	9.996058e+000	-0.000000e+000
1.876524597522209e-007	9.996057e+000	-0.000000e+000
2.655313649802256e-007	9.996059e+000	-0.000000e+000
3.673363882422842e-007	9.996059e+000	-0.000000e+000
4.929196225683310e-007	9.996061e+000	-0.000000e+000
6.523823652861122e-007	9.996063e+000	-0.000000e+000
8.555200421132318e-007	9.996058e+000	-0.000000e+000
1.142412929810517e-006	9.996054e+000	-0.000000e+000
1.607908342181278e-006	9.996056e+000	-0.000000e+000
2.356545686263250e-006	9.996060e+000	-0.000000e+000
3.656420646702444e-006	9.996059e+000	-0.000000e+000
5.514281553306896e-006	9.996057e+000	-0.000000e+000
8.504664569399998e-006	9.996058e+000	-0.000000e+000
1.448543060158620e-005	9.996055e+000	-0.000000e+000
2.067797444803039e-005	9.996053e+000	-0.000000e+000
2.751391194803039e-005	9.996055e+000	-0.000000e+000
3.434984944803039e-005	9.996056e+000	-0.000000e+000
4.118578694803039e-005	9.996056e+000	-0.000000e+000
4.802172444803039e-005	9.996056e+000	-0.000000e+000
5.485766194803039e-005	9.996056e+000	-0.000000e+000
6.169359944803039e-005	9.996056e+000	-0.000000e+000
6.852953694803040e-005	9.996056e+000	-0.000000e+000
7.536547444803040e-005	9.996056e+000	-0.000000e+000
8.220141194803041e-005	9.996056e+000	-0.000000e+000
8.903734944803042e-005	9.996056e+000	-0.000000e+000
9.587328694803042e-005	9.996056e+000	-0.000000e+000
1.027092244480304e-004	9.996056e+000	-0.000000e+000
1.163810994480304e-004	9.996056e+000	-0.000000e+000
1.290764119480305e-004	9.996056e+000	-0.000000e+000
1.417717244480305e-004	9.996056e+000	-0.000000e+000
1.544670369480305e-004	9.996056e+000	-0.000000e+000
1.671623494480305e-004	9.996056e+000	-0.000000e+000
1.798576619480305e-004	9.996056e+000	-0.000000e+000
1.925529744480305e-004	9.996056e+000	-0.000000e+000
2.052482869480305e-004	9.996056e+000	-0.000000e+000
3.585685994480300e-004	9.996056e+000	-0.000000e+000
5.118889119480295e-004	9.996056e+000	-0.000000e+000
6.652092244480290e-004	9.996056e+000	-0.000000e+000
8.185295369480285e-004	9.996056e+000	-0.000000e+000
9.718498494480280e-004	9.996056e+000	-0.000000e+000
1.125170161948028e-003	9.996056e+000	-0.000000e+000
1.278490474448027e-003	9.996056e+000	-0.000000e+000
1.982592036948017e-003	9.996056e+000	-0.000000e+000
1.989427974448017e-003	9.996061e+000	-0.000000e+000
1.993164062500000e-003	9.996062e+000	-0.000000e+000
2.000000000000000e-003	9.996045e+000	-0.000000e+000
2.000000020861626e-003	7.017656e-002	3.691642e+001
2.000000021158712e-003	7.384257e-009	3.692128e+001
2.000000021752886e-003	7.194174e-009	3.597087e+001
2.000000021901429e-003	7.154536e-009	3.577268e+001
2.000000022198515e-003	7.114941e-009	3.557470e+001
2.000000147198515e-003	3.403302e-009	1.701651e+001
2.000000162823515e-003	3.066051e-009	1.533026e+001
2.000000182094915e-003	2.868053e-009	1.434027e+001
2.000000220637715e-003	2.711705e-009	1.355853e+001
2.000000243603573e-003	2.690713e-009	1.345356e+001
2.000000277923259e-003	2.696800e-009	1.348400e+001
2.000000312404553e-003	2.702318e-009	1.351159e+001
2.000000361177523e-003	2.706432e-009	1.353216e+001
2.000000418917022e-003	2.706956e-009	1.353478e+001
2.000000473899884e-003	2.704202e-009	1.352101e+001
2.000000532232700e-003	2.699264e-009	1.349632e+001
2.000000539407566e-003	2.698515e-009	1.349258e+001
2.000000553757299e-003	2.696837e-009	1.348419e+001
2.000000582456764e-003	2.693330e-009	1.346665e+001
2.000000589631630e-003	2.692410e-009	1.346205e+001
2.000000603981362e-003	2.690486e-009	1.345243e+001
2.000000632680828e-003	2.686476e-009	1.343238e+001
2.000000690079757e-003	2.677805e-009	1.338902e+001
2.000000785526458e-003	2.661956e-009	1.330978e+001
2.000000871667002e-003	2.646712e-009	1.323356e+001
2.000000980392577e-003	2.626871e-009	1.313436e+001
2.000001089503474e-003	2.606752e-009	1.303376e+001
2.000001235733890e-003	2.580021e-009	1.290011e+001
2.000001394056014e-003	2.552135e-009	1.276068e+001
2.000001622965500e-003	2.514600e-009	1.257300e+001
2.000001911069142e-003	2.473111e-009	1.236556e+001
2.000002378699139e-003	2.418243e-009	1.209121e+001
2.000002903013799e-003	2.372471e-009	1.186236e+001
2.000003483347126e-003	2.339128e-009	1.169564e+001
2.000004126677993e-003	2.318076e-009	1.159038e+001
2.000004762522781e-003	2.309469e-009	1.154735e+001
2.000005454305834e-003	2.309909e-009	1.154955e+001
2.000006181220110e-003	2.317713e-009	1.158856e+001
2.000007040705609e-003	2.332157e-009	1.166078e+001
2.000007113807618e-003	2.333663e-009	1.166832e+001
2.000007260011634e-003	2.337018e-009	1.168509e+001
2.000007552419668e-003	2.344067e-009	1.172033e+001
2.000007962339223e-003	2.354912e-009	1.177456e+001
2.000008397182243e-003	2.367067e-009	1.183533e+001
2.000008690210196e-003	2.374889e-009	1.187444e+001
2.000009011921405e-003	2.382857e-009	1.191428e+001
2.000009370158170e-003	2.391251e-009	1.195625e+001
2.000009744789163e-003	2.399470e-009	1.199735e+001
2.000010304537095e-003	2.410749e-009	1.205375e+001
2.000010944919398e-003	2.421948e-009	1.210974e+001
2.000011946278188e-003	2.436048e-009	1.218024e+001
2.000012912280014e-003	2.445915e-009	1.222957e+001
2.000014261237372e-003	2.454723e-009	1.227362e+001
2.000015904032895e-003	2.461187e-009	1.230593e+001
2.000017471670842e-003	2.464761e-009	1.232380e+001
2.000018890118150e-003	2.466533e-009	1.233267e+001
2.000019867129701e-003	2.467012e-009	1.233506e+001
2.000019877756795e-003	2.466998e-009	1.233499e+001
2.000019899010984e-003	2.466958e-009	1.233479e+001
2.000019941519361e-003	2.466906e-009	1.233453e+001
2.000020026536115e-003	2.466764e-009	1.233382e+001
2.000020196569623e-003	2.466399e-009	1.233200e+001
2.000020536636638e-003	2.465565e-009	1.232782e+001
2.000021055459544e-003	2.464236e-009	1.232118e+001
2.000022021152222e-003	2.461980e-009	1.230990e+001
2.000023140773546e-003	2.459967e-009	1.229984e+001
2.000024733335709e-003	2.458170e-009	1.229085e+001
2.000026406566894e-003	2.457341e-009	1.228670e+001
2.000028046523511e-003	2.457326e-009	1.228663e+001
2.000029584209777e-003	2.457787e-009	1.228893e+001
2.000031411094077e-003	2.458748e-009	1.229374e+001
2.000033697118021e-003	2.460324e-009	1.230162e+001
2.000035973116724e-003	2.462094e-009	1.231047e+001
2.000040519200089e-003	2.465745e-009	1.232873e+001
2.000045772719528e-003	2.469983e-009	1.234991e+001
2.000050429437628e-003	2.473957e-009	1.236978e+001
2.000054812695358e-003	2.478352e-009	1.239176e+001
2.000059197441735e-003	2.484082e-009	1.242041e+001
2.000063827783428e-003	2.492474e-009	1.246237e+001
2.000068745058439e-003	2.505232e-009	1.252616e+001
2.000074697031387e-003	2.527334e-009	1.263667e+001
2.000081925038659e-003	2.563591e-009	1.281795e+001
2.000087538185937e-003	2.599034e-009	1.299517e+001
2.000091345010631e-003	2.627475e-009	1.313737e+001
2.000094346117546e-003	2.652695e-009	1.326347e+001
2.000096936983441e-003	2.676712e-009	1.338356e+001
2.000099922597237e-003	2.707142e-009	1.353571e+001
2.000102732646020e-003	2.738858e-009	1.369429e+001
2.000106467979159e-003	2.786335e-009	1.393168e+001
2.000112417171358e-003	2.869940e-009	1.434970e+001
2.000114865925217e-003	2.907041e-009	1.453521e+001
2.000116567035785e-003	2.933868e-009	1.466934e+001
2.000117557322198e-003	2.949185e-009	1.474593e+001
2.000118415444288e-003	2.961828e-009	1.480914e+001
2.000118712368455e-003	2.966038e-009	1.483019e+001
2.000118769529553e-003	2.966845e-009	1.483423e+001
2.000118883851748e-003	2.968479e-009	1.484239e+001
2.000119112496139e-003	2.971759e-009	1.485879e+001
2.000119569784920e-003	2.978354e-009	1.489177e+001
2.000120127044295e-003	2.986417e-009	1.493209e+001
2.000120742129394e-003	2.995319e-009	1.497659e+001
2.000121391175979e-003	3.004682e-009	1.502341e+001
2.000122275243132e-003	3.017320e-009	1.508660e+001
2.000123728812643e-003	3.037611e-009	1.518806e+001
2.000125767154506e-003	3.064133e-009	1.532066e+001
2.000128382785463e-003	3.091748e-009	1.545874e+001
2.000130424156447e-003	3.099006e-009	1.549503e+001
2.000131857856218e-003	3.081231e-009	1.540615e+001
2.000132766109158e-003	3.052590e-009	1.526295e+001
2.000133350712906e-003	3.032672e-009	1.516336e+001
2.000133802646591e-003	3.025553e-009	1.512776e+001
2.000134311508435e-003	3.028226e-009	1.514113e+001
2.000134720394231e-003	3.035910e-009	1.517955e+001
2.000135043378166e-003	3.043540e-009	1.521770e+001
2.000135366862093e-003	3.051079e-009	1.525539e+001
2.000135698186255e-003	3.058710e-009	1.529355e+001
2.000136104627655e-003	3.067933e-009	1.533966e+001
2.000136183893459e-003	3.069733e-009	1.534867e+001
2.000136342425068e-003	3.073345e-009	1.536673e+001
2.000136382057970e-003	3.074234e-009	1.537117e+001
2.000136461323774e-003	3.076004e-009	1.538002e+001
2.000136619855383e-003	3.079536e-009	1.539768e+001
2.000136936918600e-003	3.086546e-009	1.543273e+001
2.000137571045035e-003	3.100341e-009	1.550170e+001
2.000138284080107e-003	3.115288e-009	1.557644e+001
2.000138854530651e-003	3.126700e-009	1.563350e+001
2.000138919957996e-003	3.127992e-009	1.563996e+001
2.000138936314833e-003	3.128318e-009	1.564159e+001
2.000138969028505e-003	3.128971e-009	1.564485e+001
2.000138977206923e-003	3.129133e-009	1.564566e+001
2.000138993563760e-003	3.129454e-009	1.564727e+001
2.000139026277432e-003	3.130095e-009	1.565047e+001
2.000139091704778e-003	3.131368e-009	1.565684e+001
2.000139222559468e-003	3.133870e-009	1.566935e+001
2.000139484268850e-003	3.138739e-009	1.569370e+001
2.000139845175807e-003	3.145267e-009	1.572633e+001
2.000140231960313e-003	3.152139e-009	1.576069e+001
2.000140674602242e-003	3.159941e-009	1.579970e+001
2.000140683363233e-003	3.160095e-009	1.580047e+001
2.000140700885215e-003	3.160403e-009	1.580202e+001
2.000140714026701e-003	3.160635e-009	1.580318e+001
2.000140731548683e-003	3.160943e-009	1.580472e+001
2.000140766592647e-003	3.161559e-009	1.580779e+001
2.000140836680574e-003	3.162790e-009	1.581395e+001
2.000140976856429e-003	3.165254e-009	1.582627e+001
2.000141257208138e-003	3.170195e-009	1.585097e+001
2.000141817911557e-003	3.180140e-009	1.590070e+001
2.000142939318395e-003	3.200334e-009	1.600167e+001
2.000145182132070e-003	3.241832e-009	1.620916e+001
2.000148227301602e-003	3.300397e-009	1.650198e+001
2.000151638667778e-003	3.369258e-009	1.684629e+001
2.000155518308805e-003	3.452086e-009	1.726043e+001
2.000160345685930e-003	3.562621e-009	1.781311e+001
2.000168182165034e-003	3.761140e-009	1.880570e+001
2.000182622781135e-003	4.181311e-009	2.090656e+001
2.000203262874020e-003	4.869776e-009	2.434888e+001
2.000215605291600e-003	5.335752e-009	2.667876e+001
2.000229697879761e-003	5.920536e-009	2.960268e+001
2.000240535157807e-003	6.395894e-009	3.197947e+001
2.000247952475125e-003	6.732917e-009	3.366459e+001
2.000255574648122e-003	7.085356e-009	3.542678e+001
2.000263189563736e-003	7.438752e-009	3.719376e+001
2.000274619411024e-003	7.960784e-009	3.980392e+001
2.000291086344860e-003	8.679864e-009	4.339932e+001
2.000306366213038e-003	9.290494e-009	4.645247e+001
2.000322595824033e-003	9.862322e-009	4.931161e+001
2.000333775012685e-003	1.020280e-008	5.101399e+001
2.000342704472745e-003	1.043507e-008	5.217533e+001
2.000352560974051e-003	1.065462e-008	5.327311e+001
2.000362383427364e-003	1.083687e-008	5.418437e+001
2.000376987440157e-003	1.104958e-008	5.524791e+001
2.000395658736735e-003	1.125256e-008	5.626280e+001
2.000409884697259e-003	1.136267e-008	5.681336e+001
2.000418583429161e-003	1.140991e-008	5.704957e+001
2.000422957533401e-003	1.142725e-008	5.713625e+001
2.000427683160940e-003	1.144240e-008	5.721199e+001
2.000429371437603e-003	1.144720e-008	5.723598e+001
2.000432047636726e-003	1.145401e-008	5.727003e+001
2.000434483021661e-003	1.145945e-008	5.729726e+001
2.000439353791530e-003	1.146853e-008	5.734263e+001
2.000444601138004e-003	1.147605e-008	5.738027e+001
2.000451373829612e-003	1.148244e-008	5.741221e+001
2.000459020282453e-003	1.148559e-008	5.742794e+001
2.000470477041503e-003	1.148384e-008	5.741919e+001
2.000484159444582e-003	1.147358e-008	5.736789e+001
2.000505219437766e-003	1.144542e-008	5.722708e+001
2.000527549931944e-003	1.140526e-008	5.702632e+001
2.000539122214423e-003	1.138050e-008	5.690249e+001
2.000547350315353e-003	1.136106e-008	5.680529e+001
2.000554677001560e-003	1.134276e-008	5.671382e+001
2.000562043043400e-003	1.132351e-008	5.661756e+001
2.000570966936441e-003	1.129912e-008	5.649561e+001
2.000581097400460e-003	1.127011e-008	5.635053e+001
2.000592544573251e-003	1.123563e-008	5.617813e+001
2.000604956242758e-003	1.119615e-008	5.598074e+001
2.000618950931344e-003	1.114887e-008	5.574435e+001
2.000634953512624e-003	1.109087e-008	5.545436e+001
2.000654922184232e-003	1.101296e-008	5.506479e+001
2.000669559700558e-003	1.095148e-008	5.475740e+001
2.000681428063868e-003	1.089795e-008	5.448973e+001
2.000693485819047e-003	1.083990e-008	5.419949e+001
2.000705873987953e-003	1.077587e-008	5.387933e+001
2.000722565361188e-003	1.068221e-008	5.341106e+001
2.000740903523153e-003	1.056844e-008	5.284218e+001
2.000764145066981e-003	1.040556e-008	5.202779e+001
2.000790966226256e-003	1.018881e-008	5.094405e+001
2.000827549602246e-003	9.847311e-009	4.923656e+001
2.000873503948886e-003	9.369825e-009	4.684913e+001
2.000922702925997e-003	8.832854e-009	4.416427e+001
2.000969868466684e-003	8.321329e-009	4.160665e+001
2.001026226749346e-003	7.732887e-009	3.866444e+001
2.001079624246080e-003	7.201245e-009	3.600623e+001
2.001136532636790e-003	6.660486e-009	3.330243e+001
2.001199897416002e-003	6.082225e-009	3.041113e+001
2.001266676744959e-003	5.500286e-009	2.750143e+001
2.001346915532507e-003	4.857065e-009	2.428533e+001
2.001407914733844e-003	4.443405e-009	2.221702e+001
2.001464822782384e-003	4.132990e-009	2.066495e+001
2.001501350213434e-003	3.969417e-009	1.984708e+001
2.001547992571675e-003	3.792267e-009	1.896133e+001
2.001593998502522e-003	3.639491e-009	1.819745e+001
2.001637537112226e-003	3.512741e-009	1.756371e+001
2.001684226196926e-003	3.391654e-009	1.695827e+001
2.001720801178280e-003	3.306069e-009	1.653035e+001
2.001758078488597e-003	3.226201e-009	1.613100e+001
2.001773021234305e-003	3.196512e-009	1.598256e+001
2.001793823984095e-003	3.157177e-009	1.578589e+001
2.001810497525181e-003	3.126369e-009	1.563184e+001
2.001829703319602e-003	3.092058e-009	1.546029e+001
2.001859767172699e-003	3.040589e-009	1.520295e+001
2.001891590811492e-003	2.989459e-009	1.494730e+001
2.001955238089078e-003	2.895216e-009	1.447608e+001
2.002020360565764e-003	2.808652e-009	1.404326e+001
2.002135676614115e-003	2.674340e-009	1.337170e+001
2.002250298912918e-003	2.557493e-009	1.278746e+001
2.002351683989288e-003	2.467449e-009	1.233725e+001
2.002467231909553e-003	2.374822e-009	1.187411e+001
2.002489622999208e-003	2.358099e-009	1.179049e+001
2.002514849009140e-003	2.340174e-009	1.170087e+001
2.002545946200372e-003	2.318622e-009	1.159311e+001
2.002573084575654e-003	2.300314e-009	1.150157e+001
2.002606811843225e-003	2.278240e-009	1.139120e+001
2.002650415664542e-003	2.250618e-009	1.125309e+001
2.002696271805644e-003	2.222577e-009	1.111289e+001
2.002741172053829e-003	2.196155e-009	1.098078e+001
2.002796701374761e-003	2.164648e-009	1.082324e+001
2.002836997502379e-003	2.142570e-009	1.071285e+001
2.002883408054890e-003	2.118069e-009	1.059034e+001
2.002946124192696e-003	2.086139e-009	1.043069e+001
2.003003707328049e-003	2.057938e-009	1.028969e+001
2.003063993996702e-003	2.029578e-009	1.014789e+001
2.003126035542773e-003	2.001583e-009	1.000791e+001
2.003211276111967e-003	1.964784e-009	9.823920e+000
2.003299212396847e-003	1.928535e-009	9.642674e+000
2.003388426123214e-003	1.893569e-009	9.467843e+000
2.003499725177930e-003	1.852370e-009	9.261848e+000
2.003666247673260e-003	1.794570e-009	8.972848e+000
2.003847957003186e-003	1.736492e-009	8.682458e+000
2.004171125209416e-003	1.642655e-009	8.213273e+000
2.004489295000784e-003	1.560510e-009	7.802552e+000
2.005092968613646e-003	1.424391e-009	7.121958e+000
2.005665702907852e-003	1.310665e-009	6.553323e+000
2.005887342408459e-003	1.275780e-009	6.378902e+000
2.006022593377191e-003	1.266767e-009	6.333833e+000
2.006133223709692e-003	1.276478e-009	6.382390e+000
2.006242693250954e-003	1.304689e-009	6.523447e+000
2.006322256212981e-003	1.335754e-009	6.678767e+000
2.006412269145993e-003	1.376293e-009	6.881464e+000
2.006507003927138e-003	1.417599e-009	7.087997e+000
2.006582067021788e-003	1.446630e-009	7.233150e+000
2.006655965012565e-003	1.471609e-009	7.358045e+000
2.006750039999241e-003	1.501179e-009	7.505897e+000
2.006854505393943e-003	1.533900e-009	7.669497e+000
2.006932171692229e-003	1.558588e-009	7.792938e+000
2.007008443833710e-003	1.581454e-009	7.907269e+000
2.007085818591325e-003	1.598302e-009	7.991509e+000
2.007181419754550e-003	1.606427e-009	8.032136e+000
2.007241112380928e-003	1.603371e-009	8.016854e+000
2.007276094306881e-003	1.598241e-009	7.991206e+000
2.007316007662228e-003	1.591065e-009	7.955325e+000
2.007361646710366e-003	1.583060e-009	7.915301e+000
2.007406438763584e-003	1.576422e-009	7.882111e+000
2.007453772893312e-003	1.571505e-009	7.857523e+000
2.007511822938843e-003	1.568140e-009	7.840698e+000
2.007567224570307e-003	1.566538e-009	7.832691e+000
2.007629528428399e-003	1.564597e-009	7.822988e+000
2.007693915859519e-003	1.560681e-009	7.803403e+000
2.007738707882907e-003	1.556227e-009	7.781137e+000
2.007781028845020e-003	1.550777e-009	7.753885e+000
2.007835665420083e-003	1.543228e-009	7.716142e+000
2.007892535293061e-003	1.536001e-009	7.680004e+000
2.007963760528143e-003	1.528745e-009	7.643724e+000
2.008026039788242e-003	1.524129e-009	7.620645e+000
2.008093603356721e-003	1.520159e-009	7.600793e+000
2.008165514620651e-003	1.515386e-009	7.576930e+000
2.008259814579477e-003	1.507228e-009	7.536141e+000
2.008323528959527e-003	1.500616e-009	7.503080e+000
2.008395926546744e-003	1.492882e-009	7.464411e+000
2.008472875702240e-003	1.485587e-009	7.427932e+000
2.008542183860828e-003	1.480122e-009	7.400608e+000
2.008620802998447e-003	1.474596e-009	7.372977e+000
2.008710018222434e-003	1.467894e-009	7.339471e+000
2.008822371255713e-003	1.458237e-009	7.291183e+000
2.008914312341712e-003	1.449871e-009	7.249355e+000
2.009018196317889e-003	1.440977e-009	7.204883e+000
2.009126378934811e-003	1.432683e-009	7.163416e+000
2.009240611370919e-003	1.424185e-009	7.120926e+000
2.009359116548626e-003	1.414818e-009	7.074089e+000
2.009462047163980e-003	1.406372e-009	7.031862e+000
2.009601246850318e-003	1.395419e-009	6.977093e+000
2.009747762642722e-003	1.384593e-009	6.922967e+000
2.009907205138266e-003	1.372867e-009	6.864334e+000
2.010082026248242e-003	1.359796e-009	6.798981e+000
2.010285695028675e-003	1.345007e-009	6.725036e+000
2.010493506203772e-003	1.330489e-009	6.652446e+000
2.010714979196914e-003	1.315118e-009	6.575589e+000
2.010928583857785e-003	1.300539e-009	6.502697e+000
2.011167592753731e-003	1.284821e-009	6.424105e+000
2.011299825811070e-003	1.276240e-009	6.381198e+000
2.011413546596319e-003	1.268806e-009	6.344032e+000
2.011490771632108e-003	1.263791e-009	6.318953e+000
2.011554778610226e-003	1.259739e-009	6.298697e+000
2.011642162038127e-003	1.254339e-009	6.271693e+000
2.011671640615598e-003	1.252540e-009	6.262702e+000
2.011690885095776e-003	1.251372e-009	6.256860e+000
2.011718565419570e-003	1.249689e-009	6.248445e+000
2.011738449088538e-003	1.248476e-009	6.242382e+000
2.011760583095580e-003	1.247121e-009	6.235607e+000
2.011783390736306e-003	1.245719e-009	6.228596e+000
