time	V(vout)	-I(Rl)
0.000000000000000e+000	9.996057e+000	-0.000000e+000
4.571428632463691e-010	9.996057e+000	-0.000000e+000
9.142857264927381e-010	9.996057e+000	-0.000000e+000
1.371428589739107e-009	9.996057e+000	-0.000000e+000
1.828571452985476e-009	9.996057e+000	-0.000000e+000
2.285714316231846e-009	9.996057e+000	-0.000000e+000
2.742857179478215e-009	9.996057e+000	-0.000000e+000
3.200000042724582e-009	9.996057e+000	-0.000000e+000
1.280000017089833e-008	9.996057e+000	-0.000000e+000
2.560000034179666e-008	9.996056e+000	-0.000000e+000
5.120000068359332e-008	9.996057e+000	-0.000000e+000
2.048000027343733e-007	9.996057e+000	-0.000000e+000
8.192000109374931e-007	9.996057e+000	-0.000000e+000
1.638400021874986e-006	9.996057e+000	-0.000000e+000
3.638400021874986e-006	9.996057e+000	-0.000000e+000
9.352685736160702e-006	9.996057e+000	-0.000000e+000
1.506697145044642e-005	9.996057e+000	-0.000000e+000
2.078125716473213e-005	9.996057e+000	-0.000000e+000
2.649554287901785e-005	9.996057e+000	-0.000000e+000
3.220982859330357e-005	9.996057e+000	-0.000000e+000
3.792411430758928e-005	9.996057e+000	-0.000000e+000
4.363840002187498e-005	9.996057e+000	-0.000000e+000
1.009638400021875e-003	9.996057e+000	-0.000000e+000
1.998638400021875e-003	9.996057e+000	-0.000000e+000
1.999276800043750e-003	9.996057e+000	-0.000000e+000
1.999660800262499e-003	9.996057e+000	-0.000000e+000
2.000000000000000e-003	9.996057e+000	-0.000000e+000
2.000000008281244e-003	4.687483e+000	2.485068e+001
2.000000133281244e-003	3.658124e-009	1.829062e+001
2.000000135234369e-003	3.568368e-009	1.784184e+001
2.000000135722650e-003	3.547493e-009	1.773746e+001
2.000000136699212e-003	3.507697e-009	1.753848e+001
2.000000138652338e-003	3.431583e-009	1.715792e+001
2.000000138653291e-003	3.431547e-009	1.715774e+001
2.000000138653331e-003	3.431545e-009	1.715773e+001
2.000001138653331e-003	2.801554e-009	1.400777e+001
2.000002138653331e-003	2.509314e-009	1.254657e+001
2.000003138653331e-003	2.418702e-009	1.209351e+001
2.000004138653331e-003	2.370128e-009	1.185064e+001
2.000005138653331e-003	2.349685e-009	1.174842e+001
2.000006138653331e-003	2.347770e-009	1.173885e+001
2.000007138653331e-003	2.357806e-009	1.178903e+001
2.000008138653331e-003	2.375160e-009	1.187580e+001
2.000009138653331e-003	2.395379e-009	1.197689e+001
2.000010121580085e-003	2.413790e-009	1.206895e+001
2.000011006696131e-003	2.427576e-009	1.213788e+001
2.000011533163941e-003	2.434484e-009	1.217242e+001
2.000012138334318e-003	2.441104e-009	1.220552e+001
2.000012844704871e-003	2.447209e-009	1.223605e+001
2.000013785771069e-003	2.453340e-009	1.226670e+001
2.000014729882743e-003	2.457762e-009	1.228881e+001
2.000015806989663e-003	2.461278e-009	1.230639e+001
2.000016897781439e-003	2.463750e-009	1.231875e+001
2.000018154162281e-003	2.465648e-009	1.232824e+001
2.000019394039409e-003	2.466438e-009	1.233219e+001
2.000020115524703e-003	2.465793e-009	1.232897e+001
2.000020826601586e-003	2.464221e-009	1.232111e+001
2.000021577397113e-003	2.462410e-009	1.231205e+001
2.000022435892522e-003	2.460649e-009	1.230324e+001
2.000023285815970e-003	2.459341e-009	1.229670e+001
2.000024613717198e-003	2.458008e-009	1.229004e+001
2.000026002360887e-003	2.457327e-009	1.228663e+001
2.000027395136055e-003	2.457260e-009	1.228630e+001
2.000028771836072e-003	2.457596e-009	1.228798e+001
2.000030373869510e-003	2.458304e-009	1.229152e+001
2.000032143179067e-003	2.459380e-009	1.229690e+001
2.000034261351181e-003	2.460932e-009	1.230466e+001
2.000037195912296e-003	2.463265e-009	1.231632e+001
2.000041429829904e-003	2.466691e-009	1.233345e+001
2.000047328942399e-003	2.471567e-009	1.235784e+001
2.000052184207978e-003	2.476017e-009	1.238008e+001
2.000056502417254e-003	2.480980e-009	1.240490e+001
2.000061276803862e-003	2.488389e-009	1.244194e+001
2.000065730528266e-003	2.498180e-009	1.249090e+001
2.000071226447536e-003	2.515399e-009	1.257699e+001
2.000077431701716e-003	2.542654e-009	1.271327e+001
2.000085061323845e-003	2.586541e-009	1.293270e+001
2.000089796685466e-003	2.619723e-009	1.309862e+001
2.000092789374257e-003	2.643946e-009	1.321973e+001
2.000095427765449e-003	2.667557e-009	1.333779e+001
2.000097981641863e-003	2.692558e-009	1.346279e+001
2.000100712508353e-003	2.721907e-009	1.360953e+001
2.000103879537008e-003	2.759712e-009	1.379856e+001
2.000108206269717e-003	2.816661e-009	1.408330e+001
2.000110931162845e-003	2.855562e-009	1.427781e+001
2.000113562232333e-003	2.895479e-009	1.447739e+001
2.000115256884368e-003	2.922053e-009	1.461026e+001
2.000116381672842e-003	2.939788e-009	1.469894e+001
2.000117222227052e-003	2.952685e-009	1.476343e+001
2.000117679088547e-003	2.959376e-009	1.479688e+001
2.000117983583433e-003	2.963707e-009	1.481853e+001
2.000118376643546e-003	2.969304e-009	1.484652e+001
2.000118772801499e-003	2.974997e-009	1.487498e+001
2.000119193550876e-003	2.981077e-009	1.490539e+001
2.000119784288611e-003	2.989628e-009	1.494814e+001
2.000120437740068e-003	2.999075e-009	1.499538e+001
2.000121336938724e-003	3.012004e-009	1.506002e+001
2.000122417498989e-003	3.027295e-009	1.513647e+001
2.000124283589515e-003	3.052618e-009	1.526309e+001
2.000126571802882e-003	3.080109e-009	1.540054e+001
2.000128949200806e-003	3.099315e-009	1.549657e+001
2.000130575932527e-003	3.095301e-009	1.547650e+001
2.000131702804946e-003	3.071151e-009	1.535576e+001
2.000132513011799e-003	3.042464e-009	1.521232e+001
2.000133013795973e-003	3.028900e-009	1.514450e+001
2.000133546756433e-003	3.025991e-009	1.512996e+001
2.000133951014110e-003	3.031329e-009	1.515665e+001
2.000134289786370e-003	3.039054e-009	1.519527e+001
2.000134561461742e-003	3.045474e-009	1.522737e+001
2.000134871351927e-003	3.052641e-009	1.526321e+001
2.000135199199473e-003	3.060197e-009	1.530098e+001
2.000135515896094e-003	3.067393e-009	1.533696e+001
2.000135941972583e-003	3.076969e-009	1.538485e+001
2.000136414017690e-003	3.087451e-009	1.543726e+001
2.000136869862183e-003	3.097424e-009	1.548712e+001
2.000137550815745e-003	3.111829e-009	1.555914e+001
2.000138244035285e-003	3.125744e-009	1.562872e+001
2.000138979882059e-003	3.139816e-009	1.569908e+001
2.000139390295235e-003	3.147308e-009	1.573654e+001
2.000139898967248e-003	3.156325e-009	1.578163e+001
2.000140412319086e-003	3.165375e-009	1.582688e+001
2.000140952961124e-003	3.174916e-009	1.587458e+001
2.000141749995154e-003	3.189138e-009	1.594569e+001
2.000143344063214e-003	3.218039e-009	1.609019e+001
2.000144801723028e-003	3.245180e-009	1.622590e+001
2.000147717042656e-003	3.301375e-009	1.650687e+001
2.000150556314936e-003	3.358453e-009	1.679227e+001
2.000154234989021e-003	3.436698e-009	1.718349e+001
2.000159996701769e-003	3.567272e-009	1.783636e+001
2.000165697484732e-003	3.708311e-009	1.854156e+001
2.000177099050657e-003	4.025599e-009	2.012800e+001
2.000193605895145e-003	4.543704e-009	2.271852e+001
2.000205698907431e-003	4.970074e-009	2.485037e+001
2.000216760517283e-003	5.401319e-009	2.700660e+001
2.000229941695903e-003	5.951679e-009	2.975839e+001
2.000237725506787e-003	6.292573e-009	3.146287e+001
2.000244785191364e-003	6.612097e-009	3.306049e+001
2.000252498269919e-003	6.967414e-009	3.483707e+001
2.000260233484705e-003	7.326547e-009	3.663274e+001
2.000269967841448e-003	7.774892e-009	3.887446e+001
2.000284682305416e-003	8.433100e-009	4.216550e+001
2.000297168457055e-003	8.954592e-009	4.477296e+001
2.000314914600988e-003	9.615915e-009	4.807957e+001
2.000331013993006e-003	1.013569e-008	5.067847e+001
2.000340599060216e-003	1.039714e-008	5.198568e+001
2.000349751390500e-003	1.060851e-008	5.304257e+001
2.000358801362602e-003	1.078528e-008	5.392642e+001
2.000371196607041e-003	1.098035e-008	5.490173e+001
2.000388934701962e-003	1.118877e-008	5.594384e+001
2.000409866158449e-003	1.136180e-008	5.680899e+001
2.000419240582476e-003	1.141388e-008	5.706938e+001
2.000423510780445e-003	1.143017e-008	5.715084e+001
2.000425885569257e-003	1.143770e-008	5.718851e+001
2.000427634419401e-003	1.144277e-008	5.721384e+001
2.000429934948413e-003	1.144880e-008	5.724400e+001
2.000433590628921e-003	1.145726e-008	5.728629e+001
2.000437542754192e-003	1.146488e-008	5.732441e+001
2.000443214893527e-003	1.147334e-008	5.736672e+001
2.000449157052454e-003	1.147926e-008	5.739628e+001
2.000458426918716e-003	1.148352e-008	5.741758e+001
2.000468079221174e-003	1.148221e-008	5.741105e+001
2.000485236588820e-003	1.146943e-008	5.734715e+001
2.000502251458797e-003	1.144737e-008	5.723685e+001
2.000521651859329e-003	1.141324e-008	5.706622e+001
2.000533784540185e-003	1.138803e-008	5.694016e+001
2.000542839939459e-003	1.136718e-008	5.683588e+001
2.000550686597988e-003	1.134793e-008	5.673966e+001
2.000558626377939e-003	1.132748e-008	5.663742e+001
2.000566342338464e-003	1.130668e-008	5.653339e+001
2.000576570855517e-003	1.127779e-008	5.638895e+001
2.000587066873083e-003	1.124665e-008	5.623326e+001
2.000599658240080e-003	1.120725e-008	5.603627e+001
2.000612581212304e-003	1.116439e-008	5.582196e+001
2.000628281268322e-003	1.110875e-008	5.554376e+001
2.000646068224734e-003	1.104108e-008	5.520538e+001
2.000662064204995e-003	1.097562e-008	5.487811e+001
2.000674979559607e-003	1.091894e-008	5.459472e+001
2.000686385980906e-003	1.086553e-008	5.432766e+001
2.000697870127034e-003	1.080805e-008	5.404022e+001
2.000712742665875e-003	1.072780e-008	5.363899e+001
2.000729911558785e-003	1.062636e-008	5.313182e+001
2.000750898848115e-003	1.048785e-008	5.243923e+001
2.000775273203340e-003	1.030415e-008	5.152077e+001
2.000806608814587e-003	1.003055e-008	5.015274e+001
2.000848496667261e-003	9.615333e-009	4.807666e+001
2.000891104745547e-003	9.158633e-009	4.579317e+001
2.000939867404129e-003	8.624452e-009	4.312226e+001
2.000990796392458e-003	8.079558e-009	4.039779e+001
2.001046806431390e-003	7.506520e-009	3.753260e+001
2.001105159286440e-003	6.937730e-009	3.468865e+001
2.001163669486688e-003	6.392605e-009	3.196302e+001
2.001232740003554e-003	5.775097e-009	2.887548e+001
2.001304602869107e-003	5.163734e-009	2.581867e+001
2.001359368965330e-003	4.745466e-009	2.372733e+001
2.001420694252140e-003	4.351966e-009	2.175983e+001
2.001462952195329e-003	4.129195e-009	2.064598e+001
2.001500419830705e-003	3.964205e-009	1.982102e+001
2.001541893102805e-003	3.805649e-009	1.902824e+001
2.001584613392687e-003	3.662302e-009	1.831151e+001
2.001630026386000e-003	3.528115e-009	1.764058e+001
2.001676855115635e-003	3.405791e-009	1.702896e+001
2.001728180078337e-003	3.286078e-009	1.643039e+001
2.001763041714389e-003	3.212436e-009	1.606218e+001
2.001780778002421e-003	3.177870e-009	1.588935e+001
2.001800960981537e-003	3.140195e-009	1.570097e+001
2.001818797836116e-003	3.107764e-009	1.553882e+001
2.001839614266785e-003	3.071323e-009	1.535662e+001
2.001872138256729e-003	3.016985e-009	1.508492e+001
2.001906444445826e-003	2.963425e-009	1.481712e+001
2.001975056824022e-003	2.865187e-009	1.432594e+001
2.002046004935955e-003	2.774408e-009	1.387204e+001
2.002167299325449e-003	2.638883e-009	1.319442e+001
2.002284625049965e-003	2.524476e-009	1.262238e+001
2.002393771816713e-003	2.430651e-009	1.215325e+001
2.002456594313034e-003	2.381248e-009	1.190624e+001
2.002481093535898e-003	2.363101e-009	1.181551e+001
2.002510126719312e-003	2.342397e-009	1.171198e+001
2.002547121277468e-003	2.316784e-009	1.158392e+001
2.002582291767792e-003	2.293186e-009	1.146593e+001
2.002617874339643e-003	2.270102e-009	1.135051e+001
2.002660953796479e-003	2.243146e-009	1.121573e+001
2.002715736233493e-003	2.210194e-009	1.105097e+001
2.002773589335773e-003	2.176717e-009	1.088358e+001
2.002812088006391e-003	2.155266e-009	1.077633e+001
2.002857828389402e-003	2.130746e-009	1.065373e+001
2.002926425352197e-003	2.095363e-009	1.047681e+001
2.002992291132085e-003	2.062836e-009	1.031418e+001
2.003065430844571e-003	2.028454e-009	1.014227e+001
2.003156662835743e-003	1.987900e-009	9.939500e+000
2.003289427081933e-003	1.932829e-009	9.664144e+000
2.003480046142639e-003	1.860357e-009	9.301785e+000
2.003741001383167e-003	1.771418e-009	8.857089e+000
2.004109570743907e-003	1.660488e-009	8.302441e+000
2.004509567765762e-003	1.555653e-009	7.778263e+000
2.005071654239367e-003	1.428249e-009	7.141244e+000
2.005655120858913e-003	1.312637e-009	6.563187e+000
2.005892863915284e-003	1.275511e-009	6.377556e+000
2.006029277237463e-003	1.267409e-009	6.337046e+000
2.006143581483800e-003	1.279164e-009	6.395822e+000
2.006255680950610e-003	1.310134e-009	6.550671e+000
2.006339493260719e-003	1.343986e-009	6.719929e+000
2.006441557163854e-003	1.389908e-009	6.949542e+000
2.006536391570418e-003	1.430144e-009	7.150721e+000
2.006602795141877e-003	1.454844e-009	7.274221e+000
2.006685357402084e-003	1.481877e-009	7.409385e+000
2.006778656506038e-003	1.510857e-009	7.554284e+000
2.006933204905116e-003	1.558843e-009	7.794217e+000
2.007011929896256e-003	1.582251e-009	7.911256e+000
2.007082636475562e-003	1.597804e-009	7.989022e+000
2.007179814186830e-003	1.606311e-009	8.031557e+000
2.007244335818568e-003	1.603099e-009	8.015496e+000
2.007280350067552e-003	1.597753e-009	7.988768e+000
2.007319821275416e-003	1.590542e-009	7.952708e+000
2.007364993436069e-003	1.582540e-009	7.912703e+000
2.007408858917600e-003	1.576017e-009	7.880084e+000
2.007456209741138e-003	1.571110e-009	7.855549e+000
2.007513346417575e-003	1.567851e-009	7.839254e+000
2.007568974531056e-003	1.566330e-009	7.831648e+000
2.007630566533723e-003	1.564508e-009	7.822539e+000
2.007694852769395e-003	1.560675e-009	7.803377e+000
2.007739330128398e-003	1.556276e-009	7.781380e+000
2.007781275628480e-003	1.550860e-009	7.754299e+000
2.007835024602285e-003	1.543376e-009	7.716881e+000
2.007891227957254e-003	1.536163e-009	7.680815e+000
2.007965018312814e-003	1.528580e-009	7.642899e+000
2.008028022978492e-003	1.523903e-009	7.619514e+000
2.008095140727575e-003	1.520002e-009	7.600011e+000
2.008166715121266e-003	1.515305e-009	7.576527e+000
2.008259575397573e-003	1.507314e-009	7.536572e+000
2.008321985297052e-003	1.500827e-009	7.504135e+000
2.008392680349496e-003	1.493212e-009	7.466059e+000
2.008468514740678e-003	1.485928e-009	7.429638e+000
2.008537967458451e-003	1.480390e-009	7.401949e+000
2.008615111530624e-003	1.474975e-009	7.374875e+000
2.008703877089845e-003	1.468373e-009	7.341865e+000
2.008821874263723e-003	1.458299e-009	7.291496e+000
2.008913429015962e-003	1.449969e-009	7.249846e+000
2.009018369335165e-003	1.440956e-009	7.204780e+000
2.009131382460727e-003	1.432279e-009	7.161393e+000
2.009257637525965e-003	1.422871e-009	7.114354e+000
2.009372316840925e-003	1.413772e-009	7.068859e+000
2.009475299015324e-003	1.405306e-009	7.026530e+000
2.009611620308384e-003	1.394604e-009	6.973022e+000
2.009747722564029e-003	1.384580e-009	6.922901e+000
2.009906385948804e-003	1.372931e-009	6.864655e+000
2.010076488727538e-003	1.360202e-009	6.801012e+000
2.010276148296385e-003	1.345674e-009	6.728371e+000
2.010475800608863e-003	1.331717e-009	6.658583e+000
2.010699235642714e-003	1.316204e-009	6.581020e+000
2.010913380917729e-003	1.301557e-009	6.507783e+000
2.011149898599850e-003	1.285969e-009	6.429843e+000
2.011289998809593e-003	1.276874e-009	6.384372e+000
2.011409516671001e-003	1.269063e-009	6.345314e+000
2.011489639637531e-003	1.263858e-009	6.319291e+000
2.011554815659638e-003	1.259732e-009	6.298659e+000
2.011630003867142e-003	1.255085e-009	6.275427e+000
2.011667407506565e-003	1.252804e-009	6.264019e+000
2.011688555848632e-003	1.251519e-009	6.257596e+000
2.011721143747882e-003	1.249535e-009	6.247674e+000
2.011753897021137e-003	1.247532e-009	6.237661e+000
2.011777413537652e-003	1.246087e-009	6.230435e+000
2.011799908455289e-003	1.244698e-009	6.223491e+000
2.011825886930444e-003	1.243089e-009	6.215445e+000
2.011853698795835e-003	1.241363e-009	6.206813e+000
2.011885528339413e-003	1.239388e-009	6.196939e+000
2.011925389645793e-003	1.236926e-009	6.184629e+000
2.011977085635834e-003	1.233770e-009	6.168850e+000
2.012068231899663e-003	1.228309e-009	6.141543e+000
2.012215898185507e-003	1.219610e-009	6.098049e+000
2.012371764171907e-003	1.210551e-009	6.052754e+000
2.012683496144709e-003	1.192815e-009	5.964074e+000
2.013077773012978e-003	1.171172e-009	5.855858e+000
2.013590522184450e-003	1.144329e-009	5.721643e+000
2.014278995055335e-003	1.110466e-009	5.552332e+000
2.015232960949217e-003	1.067079e-009	5.335394e+000
2.016232960949217e-003	1.025524e-009	5.127621e+000
2.017232960949217e-003	9.878824e-010	4.939413e+000
2.018232960949217e-003	9.538226e-010	4.769114e+000
2.019232960949217e-003	9.230089e-010	4.615045e+000
2.020232960949217e-003	8.951280e-010	4.475640e+000
2.021232960949217e-003	8.699032e-010	4.349516e+000
2.022232960949217e-003	8.470806e-010	4.235403e+000
2.023232960949217e-003	8.264309e-010	4.132154e+000
2.024232960949217e-003	8.077491e-010	4.038745e+000
2.025232960949217e-003	7.908446e-010	3.954223e+000
2.026232960949217e-003	7.755522e-010	3.877761e+000
2.027232960949217e-003	7.617138e-010	3.808569e+000
2.028232960949217e-003	7.491955e-010	3.745977e+000
2.029232960949217e-003	7.378674e-010	3.689337e+000
2.030232960949217e-003	7.276195e-010	3.638097e+000
2.031232960949217e-003	7.183466e-010	3.591733e+000
2.032232960949217e-003	7.099569e-010	3.549784e+000
2.033232960949217e-003	7.023660e-010	3.511830e+000
2.034232960949217e-003	6.954970e-010	3.477485e+000
2.035232960949217e-003	6.892834e-010	3.446417e+000
2.036232960949217e-003	6.836602e-010	3.418301e+000
2.037232960949217e-003	6.785743e-010	3.392871e+000
2.038232960949217e-003	6.739710e-010	3.369855e+000
2.039232960949217e-003	6.698075e-010	3.349038e+000
2.040232960949217e-003	6.660393e-010	3.330196e+000
2.041232960949217e-003	6.626306e-010	3.313153e+000
2.042232960949217e-003	6.595461e-010	3.297730e+000
2.043232960949217e-003	6.567552e-010	3.283776e+000
2.044232960949217e-003	6.542302e-010	3.271151e+000
2.045232960949217e-003	6.519449e-010	3.259725e+000
2.046232960949217e-003	6.498780e-010	3.249390e+000
2.047232960949217e-003	6.480065e-010	3.240033e+000
2.048232960949217e-003	6.463139e-010	3.231570e+000
2.049232960949217e-003	6.447809e-010	3.223904e+000
2.050232960949217e-003	6.433936e-010	3.216968e+000
2.051232960949217e-003	6.421367e-010	3.210683e+000
2.052232960949217e-003	6.409969e-010	3.204985e+000
2.053232960949217e-003	6.399399e-010	3.199699e+000
2.053742510643651e-003	6.394175e-010	3.197088e+000
2.054067066145885e-003	6.390741e-010	3.195371e+000
2.054283048044470e-003	6.388238e-010	3.194119e+000
2.054493703020210e-003	6.385637e-010	3.192818e+000
2.054645863533516e-003	6.383670e-010	3.191835e+000
2.054781869287353e-003	6.381696e-010	3.190848e+000
2.054859384812518e-003	6.380173e-010	3.190086e+000
2.054896124991212e-003	6.378847e-010	3.189423e+000
2.054928270560851e-003	6.376696e-010	3.188348e+000
2.054962414310924e-003	6.373048e-010	3.186524e+000
2.054994774919820e-003	6.367867e-010	3.183934e+000
2.055059496137614e-003	6.354068e-010	3.177034e+000
2.055125233395007e-003	6.338117e-010	3.169058e+000
2.055219151711754e-003	6.315886e-010	3.157943e+000
2.055303722921216e-003	6.298848e-010	3.149424e+000
2.055388224581952e-003	6.283754e-010	3.141877e+000
2.055477513681441e-003	6.265461e-010	3.132730e+000
2.055572011315763e-003	6.238469e-010	3.119234e+000
2.055685293712998e-003	6.194231e-010	3.097115e+000
2.055791635621806e-003	6.142501e-010	3.071250e+000
2.055905725865911e-003	6.078706e-010	3.039353e+000
2.056022525669370e-003	6.006818e-010	3.003409e+000
2.056145368225364e-003	5.922808e-010	2.961404e+000
2.056304766151965e-003	5.798951e-010	2.899476e+000
2.056469847639244e-003	5.652488e-010	2.826244e+000
2.056624506006536e-003	5.498484e-010	2.749242e+000
2.056811566314889e-003	5.297963e-010	2.648982e+000
2.057015026363484e-003	5.075791e-010	2.537896e+000
2.057336018989169e-003	4.736514e-010	2.368257e+000
2.057607200932501e-003	4.471178e-010	2.235589e+000
2.057889184098570e-003	4.220703e-010	2.110351e+000
2.058186922909336e-003	3.978034e-010	1.989017e+000
2.058584823376931e-003	3.675904e-010	1.837952e+000
2.058968872146871e-003	3.405505e-010	1.702752e+000
2.059444796915565e-003	3.105604e-010	1.552802e+000
2.060086960538745e-003	2.757807e-010	1.378903e+000
2.060871779186778e-003	2.398621e-010	1.199310e+000
2.061581611386994e-003	2.127159e-010	1.063580e+000
