time	V(vout)	-I(Rl)
0.000000000000000e+000	1.027415e+000	1.037689e-010
9.999999960041972e-012	1.027415e+000	1.037689e-010
1.999999992008394e-011	1.027415e+000	1.037689e-010
3.999999984016789e-011	1.027415e+000	1.037689e-010
7.999999968033578e-011	1.027415e+000	1.037689e-010
1.599999993606716e-010	1.027415e+000	1.037689e-010
3.199999987213431e-010	1.027415e+000	1.037689e-010
6.399999974426862e-010	1.027415e+000	1.037689e-010
1.279999994885372e-009	1.027415e+000	1.037689e-010
2.559999989770745e-009	1.027415e+000	1.037689e-010
5.119999979541490e-009	1.027415e+000	1.037689e-010
1.023999995908298e-008	1.027415e+000	1.037689e-010
2.047999991816596e-008	1.027415e+000	1.037689e-010
4.095999983633192e-008	1.027415e+000	1.037689e-010
8.191999967266384e-008	1.027415e+000	1.037689e-010
1.638399993453277e-007	1.027415e+000	1.037689e-010
6.553599973813107e-007	1.027415e+000	1.037689e-010
1.310719994762621e-006	1.027415e+000	1.037689e-010
2.310719994762622e-006	1.027415e+000	1.037689e-010
3.310719994762621e-006	1.027415e+000	1.037689e-010
4.310719994762621e-006	1.027415e+000	1.037689e-010
7.310719994762622e-006	1.027415e+000	1.037689e-010
8.310719994762622e-006	1.027415e+000	1.037689e-010
9.310719994762621e-006	1.027415e+000	1.037689e-010
1.031071999476262e-005	1.027415e+000	1.037689e-010
1.131071999476262e-005	1.027415e+000	1.037689e-010
1.231071999476262e-005	1.027415e+000	1.037689e-010
1.331071999476262e-005	1.027415e+000	1.037689e-010
1.431071999476262e-005	1.027415e+000	1.037689e-010
1.531071999476262e-005	1.027415e+000	1.037689e-010
1.731071999476262e-005	1.027415e+000	1.037689e-010
2.031071999476262e-005	1.027415e+000	1.037689e-010
2.131071999476262e-005	1.027415e+000	1.037689e-010
2.231071999476262e-005	1.027415e+000	1.037689e-010
2.331071999476262e-005	1.027415e+000	1.037689e-010
2.431071999476262e-005	1.027415e+000	1.037689e-010
2.531071999476262e-005	1.027415e+000	1.037689e-010
2.631071999476262e-005	1.027415e+000	1.037689e-010
2.831071999476262e-005	1.027415e+000	1.037689e-010
2.902500570904833e-005	1.027415e+000	1.037689e-010
2.973929142333405e-005	1.027415e+000	1.037689e-010
3.045357713761976e-005	1.027415e+000	1.037689e-010
3.116786285190548e-005	1.027415e+000	1.037689e-010
3.188214856619119e-005	1.027415e+000	1.037689e-010
3.259643428047691e-005	1.027415e+000	1.037689e-010
3.331071999476262e-005	1.027415e+000	1.037689e-010
3.431071999476262e-005	1.027415e+000	1.037689e-010
3.531071999476262e-005	1.027415e+000	1.037689e-010
3.631071999476262e-005	1.027415e+000	1.037689e-010
3.731071999476262e-005	1.027415e+000	1.037689e-010
3.831071999476262e-005	1.027415e+000	1.037689e-010
4.031071999476262e-005	1.027415e+000	1.037689e-010
4.116786285190548e-005	1.027415e+000	1.037689e-010
4.202500570904834e-005	1.027415e+000	1.037689e-010
4.288214856619120e-005	1.027415e+000	1.037689e-010
4.373929142333406e-005	1.027415e+000	1.037689e-010
4.459643428047691e-005	1.027415e+000	1.037689e-010
4.545357713761977e-005	1.027415e+000	1.037689e-010
4.631071999476262e-005	1.027415e+000	1.037689e-010
4.731071999476262e-005	1.027415e+000	1.037689e-010
4.831071999476262e-005	1.027415e+000	1.037689e-010
5.031071999476262e-005	1.027415e+000	1.037689e-010
5.231071999476262e-005	1.027415e+000	1.037689e-010
5.316786285190548e-005	1.027415e+000	1.037689e-010
5.402500570904834e-005	1.027415e+000	1.037689e-010
5.488214856619120e-005	1.027415e+000	1.037689e-010
5.573929142333406e-005	1.027415e+000	1.037689e-010
5.659643428047691e-005	1.027415e+000	1.037689e-010
5.745357713761977e-005	1.027415e+000	1.037689e-010
5.831071999476262e-005	1.027415e+000	1.037689e-010
6.031071999476262e-005	1.027415e+000	1.037689e-010
6.231071999476263e-005	1.027415e+000	1.037689e-010
6.431071999476262e-005	1.027415e+000	1.037689e-010
6.531071999476262e-005	1.027415e+000	1.037689e-010
6.631071999476262e-005	1.027415e+000	1.037689e-010
6.731071999476263e-005	1.027415e+000	1.037689e-010
6.831071999476262e-005	1.027415e+000	1.037689e-010
6.931071999476262e-005	1.027415e+000	1.037689e-010
7.031071999476262e-005	1.027415e+000	1.037689e-010
7.131071999476262e-005	1.027415e+000	1.037689e-010
7.331071999476262e-005	1.027415e+000	1.037689e-010
7.531071999476262e-005	1.027415e+000	1.037689e-010
7.631071999476262e-005	1.027415e+000	1.037689e-010
7.731071999476263e-005	1.027415e+000	1.037689e-010
7.831071999476262e-005	1.027415e+000	1.037689e-010
7.931071999476262e-005	1.027415e+000	1.037689e-010
8.031071999476263e-005	1.027415e+000	1.037689e-010
8.131071999476263e-005	1.027415e+000	1.037689e-010
8.231071999476263e-005	1.027415e+000	1.037689e-010
8.431071999476262e-005	1.027415e+000	1.037689e-010
8.631071999476263e-005	1.027415e+000	1.037689e-010
8.931071999476262e-005	1.027415e+000	1.037689e-010
9.045357713761977e-005	1.027415e+000	1.037689e-010
9.159643428047690e-005	1.027415e+000	1.037689e-010
9.273929142333405e-005	1.027415e+000	1.037689e-010
9.388214856619119e-005	1.027415e+000	1.037689e-010
9.502500570904834e-005	1.027415e+000	1.037689e-010
9.616786285190549e-005	1.027415e+000	1.037689e-010
9.731071999476262e-005	1.027415e+000	1.037689e-010
1.003107199947626e-004	1.027415e+000	1.037689e-010
1.014535771376198e-004	1.027415e+000	1.037689e-010
1.025964342804769e-004	1.027415e+000	1.037689e-010
1.037392914233341e-004	1.027415e+000	1.037689e-010
1.048821485661912e-004	1.027415e+000	1.037689e-010
1.060250057090483e-004	1.027415e+000	1.037689e-010
1.071678628519055e-004	1.027415e+000	1.037689e-010
1.083107199947626e-004	1.027415e+000	1.037689e-010
1.113107199947626e-004	1.027415e+000	1.037689e-010
1.193107199947626e-004	1.027415e+000	1.037689e-010
1.223107199947626e-004	1.027415e+000	1.037689e-010
1.235964342804769e-004	1.027415e+000	1.037689e-010
1.248821485661912e-004	1.027415e+000	1.037689e-010
1.261678628519055e-004	1.027415e+000	1.037689e-010
1.274535771376198e-004	1.027415e+000	1.037689e-010
1.287392914233340e-004	1.027415e+000	1.037689e-010
1.300250057090483e-004	1.027415e+000	1.037689e-010
1.313107199947626e-004	1.027415e+000	1.037689e-010
1.343107199947626e-004	1.027415e+000	1.037689e-010
1.355964342804769e-004	1.027415e+000	1.037689e-010
1.368821485661912e-004	1.027415e+000	1.037689e-010
1.381678628519055e-004	1.027415e+000	1.037689e-010
1.394535771376198e-004	1.027415e+000	1.037689e-010
1.407392914233341e-004	1.027415e+000	1.037689e-010
1.420250057090484e-004	1.027415e+000	1.037689e-010
1.433107199947626e-004	1.027415e+000	1.037689e-010
1.448821485661912e-004	1.027415e+000	1.037689e-010
1.464535771376198e-004	1.027415e+000	1.037689e-010
1.480250057090483e-004	1.027415e+000	1.037689e-010
1.495964342804769e-004	1.027415e+000	1.037689e-010
1.511678628519055e-004	1.027415e+000	1.037689e-010
1.527392914233341e-004	1.027415e+000	1.037689e-010
1.543107199947626e-004	1.027415e+000	1.037689e-010
1.560250057090483e-004	1.027415e+000	1.037689e-010
1.577392914233341e-004	1.027415e+000	1.037689e-010
1.594535771376198e-004	1.027415e+000	1.037689e-010
1.611678628519055e-004	1.027415e+000	1.037689e-010
1.628821485661912e-004	1.027415e+000	1.037689e-010
1.645964342804769e-004	1.027415e+000	1.037689e-010
1.663107199947626e-004	1.027415e+000	1.037689e-010
1.680250057090483e-004	1.027415e+000	1.037689e-010
1.697392914233341e-004	1.027415e+000	1.037689e-010
1.714535771376198e-004	1.027415e+000	1.037689e-010
1.731678628519055e-004	1.027415e+000	1.037689e-010
1.748821485661912e-004	1.027415e+000	1.037689e-010
1.765964342804769e-004	1.027415e+000	1.037689e-010
1.783107199947626e-004	1.027415e+000	1.037689e-010
1.801678628519055e-004	1.027415e+000	1.037689e-010
1.820250057090483e-004	1.027415e+000	1.037689e-010
1.838821485661912e-004	1.027415e+000	1.037689e-010
1.857392914233341e-004	1.027415e+000	1.037689e-010
1.875964342804769e-004	1.027415e+000	1.037689e-010
1.894535771376198e-004	1.027415e+000	1.037689e-010
1.913107199947626e-004	1.027415e+000	1.037689e-010
1.933107199947626e-004	1.027415e+000	1.037689e-010
1.953107199947626e-004	1.027415e+000	1.037689e-010
1.973107199947626e-004	1.027415e+000	1.037689e-010
1.993107199947626e-004	1.027415e+000	1.037689e-010
2.013107199947626e-004	1.027415e+000	1.037689e-010
2.033107199947626e-004	1.027415e+000	1.037689e-010
2.053107199947626e-004	1.027415e+000	1.037689e-010
2.074535771376198e-004	1.027415e+000	1.037689e-010
2.095964342804769e-004	1.027415e+000	1.037689e-010
2.117392914233341e-004	1.027415e+000	1.037689e-010
2.138821485661912e-004	1.027415e+000	1.037689e-010
2.160250057090483e-004	1.027415e+000	1.037689e-010
2.181678628519055e-004	1.027415e+000	1.037689e-010
2.203107199947626e-004	1.027415e+000	1.037689e-010
2.234535771376198e-004	1.027415e+000	1.037689e-010
2.265964342804769e-004	1.027415e+000	1.037689e-010
2.297392914233341e-004	1.027415e+000	1.037689e-010
2.328821485661912e-004	1.027415e+000	1.037689e-010
2.360250057090483e-004	1.027415e+000	1.037689e-010
2.391678628519055e-004	1.027415e+000	1.037689e-010
2.423107199947626e-004	1.027415e+000	1.037689e-010
2.461678628519055e-004	1.027415e+000	1.037689e-010
2.500250057090483e-004	1.027415e+000	1.037689e-010
2.538821485661912e-004	1.027415e+000	1.037689e-010
2.577392914233341e-004	1.027415e+000	1.037689e-010
2.615964342804769e-004	1.027415e+000	1.037689e-010
2.654535771376198e-004	1.027415e+000	1.037689e-010
2.693107199947626e-004	1.027415e+000	1.037689e-010
2.731678628519055e-004	1.027415e+000	1.037689e-010
2.770250057090483e-004	1.027415e+000	1.037689e-010
2.808821485661912e-004	1.027415e+000	1.037689e-010
2.847392914233341e-004	1.027415e+000	1.037689e-010
2.885964342804769e-004	1.027415e+000	1.037689e-010
2.924535771376198e-004	1.027415e+000	1.037689e-010
2.963107199947626e-004	1.027415e+000	1.037689e-010
1.006310719994763e-003	1.027415e+000	1.037689e-010
1.998310719994763e-003	1.027415e+000	1.037689e-010
2.000000000000000e-003	1.027415e+000	1.037689e-010
2.000002027735167e-003	7.053337e-001	3.628619e-001
2.000006083205500e-003	5.324031e-001	5.324031e-001
2.000006863503560e-003	5.333583e-001	5.333583e-001
2.000007417176377e-003	5.334659e-001	5.334659e-001
2.000007936156363e-003	5.335986e-001	5.335986e-001
2.000008156176456e-003	5.333526e-001	5.333526e-001
2.000008283006742e-003	5.330721e-001	5.330721e-001
2.000008380456720e-003	5.331979e-001	5.331979e-001
2.000008489114627e-003	5.331925e-001	5.331925e-001
2.000008637842004e-003	5.331894e-001	5.331894e-001
2.000008935296757e-003	5.331783e-001	5.331783e-001
2.000009530206264e-003	5.331691e-001	5.331691e-001
2.000010720025277e-003	5.332063e-001	5.332063e-001
2.000012810530484e-003	5.334615e-001	5.334615e-001
2.000014962643042e-003	5.340456e-001	5.340456e-001
2.000017848037536e-003	5.354066e-001	5.354066e-001
2.000021233812063e-003	5.378139e-001	5.378139e-001
2.000026526043346e-003	5.428212e-001	5.428212e-001
2.000031866997792e-003	5.488290e-001	5.488290e-001
2.000037533870636e-003	5.558205e-001	5.558205e-001
2.000042726482034e-003	5.624285e-001	5.624285e-001
2.000048701684748e-003	5.700109e-001	5.700109e-001
2.000054964394799e-003	5.777499e-001	5.777499e-001
2.000062388394231e-003	5.865220e-001	5.865220e-001
2.000070488958894e-003	5.955098e-001	5.955098e-001
2.000080335848590e-003	6.055783e-001	6.055783e-001
2.000091678966194e-003	6.160790e-001	6.160790e-001
2.000104194267722e-003	6.263992e-001	6.263992e-001
2.000117337613595e-003	6.359141e-001	6.359141e-001
2.000132656752285e-003	6.455665e-001	6.455665e-001
2.000147186793030e-003	6.535183e-001	6.535183e-001
2.000160378796837e-003	6.598231e-001	6.598231e-001
2.000172140682061e-003	6.647829e-001	6.647829e-001
2.000185503416325e-003	6.697985e-001	6.697985e-001
2.000198312499125e-003	6.740844e-001	6.740844e-001
2.000216108929611e-003	6.794062e-001	6.794062e-001
2.000234864258681e-003	6.845519e-001	6.845519e-001
2.000254244556814e-003	6.897900e-001	6.897900e-001
2.000272850478277e-003	6.956103e-001	6.956103e-001
2.000292658555953e-003	7.043133e-001	7.043133e-001
2.000311313273648e-003	7.175397e-001	7.175397e-001
2.000331093742432e-003	7.400743e-001	7.400743e-001
2.000350337808836e-003	7.721359e-001	7.721359e-001
2.000370534823783e-003	8.152230e-001	8.152230e-001
2.000394657639723e-003	8.716859e-001	8.716859e-001
2.000417424888848e-003	9.228500e-001	9.228500e-001
2.000431254721081e-003	9.498554e-001	9.498554e-001
2.000441786611973e-003	9.666787e-001	9.666787e-001
2.000452311613031e-003	9.798844e-001	9.798844e-001
2.000464318068986e-003	9.908275e-001	9.908275e-001
2.000475980716030e-003	9.975029e-001	9.975029e-001
2.000486580147774e-003	1.000245e+000	1.000245e+000
2.000497328157289e-003	1.000212e+000	1.000212e+000
2.000511485934813e-003	9.977421e-001	9.977421e-001
2.000526510600560e-003	9.942416e-001	9.942416e-001
2.000539548892526e-003	9.915191e-001	9.915191e-001
2.000552306770212e-003	9.894503e-001	9.894503e-001
2.000565645434954e-003	9.876318e-001	9.876318e-001
2.000576543555743e-003	9.862043e-001	9.862043e-001
2.000588511551509e-003	9.845886e-001	9.845886e-001
2.000602459118230e-003	9.826059e-001	9.826059e-001
2.000616225326077e-003	9.805393e-001	9.805393e-001
2.000631407767220e-003	9.781482e-001	9.781482e-001
2.000647432802995e-003	9.755279e-001	9.755279e-001
2.000666001021296e-003	9.724082e-001	9.724082e-001
2.000683637827793e-003	9.693944e-001	9.693944e-001
2.000702453400033e-003	9.661523e-001	9.661523e-001
2.000720433500356e-003	9.630525e-001	9.630525e-001
2.000740415913270e-003	9.596288e-001	9.596288e-001
2.000761527210961e-003	9.560626e-001	9.560626e-001
2.000788077880959e-003	9.516947e-001	9.516947e-001
2.000822030783770e-003	9.463308e-001	9.463308e-001
2.000849880689330e-003	9.422114e-001	9.422114e-001
2.000883847500848e-003	9.376547e-001	9.376547e-001
2.000914683682790e-003	9.341747e-001	9.341747e-001
2.000961365259146e-003	9.306204e-001	9.306204e-001
2.001028017299535e-003	9.288122e-001	9.288122e-001
2.001078542165137e-003	9.302810e-001	9.302810e-001
2.001118743657576e-003	9.336281e-001	9.336281e-001
2.001164132766273e-003	9.392591e-001	9.392591e-001
2.001213872241245e-003	9.467880e-001	9.467880e-001
2.001264878839160e-003	9.552355e-001	9.552355e-001
2.001326442975359e-003	9.654802e-001	9.654802e-001
2.001391663866747e-003	9.757212e-001	9.757212e-001
2.001458458605717e-003	9.852021e-001	9.852021e-001
2.001529595540957e-003	9.940904e-001	9.940904e-001
2.001599947304818e-003	1.001603e+000	1.001603e+000
2.001694378931560e-003	1.009612e+000	1.009612e+000
2.001850686503098e-003	1.019027e+000	1.019027e+000
2.002007026334179e-003	1.024598e+000	1.024598e+000
2.002165443399011e-003	1.027008e+000	1.027008e+000
2.002352805603684e-003	1.027691e+000	1.027691e+000
2.002527999483270e-003	1.027560e+000	1.027560e+000
2.002706084971401e-003	1.027329e+000	1.027329e+000
2.002897835486846e-003	1.027228e+000	1.027228e+000
2.003144407362981e-003	1.027229e+000	1.027229e+000
2.003506629882591e-003	1.027258e+000	1.027258e+000
2.004096769738093e-003	1.027261e+000	1.027261e+000
2.004722824474680e-003	1.027252e+000	1.027252e+000
2.005722824474680e-003	1.027247e+000	1.027247e+000
2.006722824474680e-003	1.027240e+000	1.027240e+000
2.007722824474680e-003	1.027234e+000	1.027234e+000
2.008722824474681e-003	1.027230e+000	1.027230e+000
2.009722824474680e-003	1.027225e+000	1.027225e+000
2.010722824474680e-003	1.027221e+000	1.027221e+000
2.011722824474680e-003	1.027217e+000	1.027217e+000
2.012722824474680e-003	1.027214e+000	1.027214e+000
2.013722824474680e-003	1.027211e+000	1.027211e+000
2.014722824474680e-003	1.027209e+000	1.027209e+000
2.015722824474680e-003	1.027207e+000	1.027207e+000
2.016722824474680e-003	1.027205e+000	1.027205e+000
2.017722824474680e-003	1.027203e+000	1.027203e+000
2.018722824474680e-003	1.027201e+000	1.027201e+000
2.019722824474680e-003	1.027200e+000	1.027200e+000
2.020722824474680e-003	1.027199e+000	1.027199e+000
2.021722824474681e-003	1.027198e+000	1.027198e+000
2.022722824474680e-003	1.027197e+000	1.027197e+000
2.023722824474680e-003	1.027196e+000	1.027196e+000
2.024722824474680e-003	1.027195e+000	1.027195e+000
2.025722824474680e-003	1.027195e+000	1.027195e+000
2.026722824474680e-003	1.027194e+000	1.027194e+000
2.027722824474680e-003	1.027194e+000	1.027194e+000
2.028722824474680e-003	1.027193e+000	1.027193e+000
2.029722824474680e-003	1.027193e+000	1.027193e+000
2.030722824474680e-003	1.027193e+000	1.027193e+000
2.031722824474680e-003	1.027193e+000	1.027193e+000
2.032722824474680e-003	1.027193e+000	1.027193e+000
2.033722824474680e-003	1.027193e+000	1.027193e+000
2.034722824474681e-003	1.027193e+000	1.027193e+000
2.035722824474680e-003	1.027193e+000	1.027193e+000
2.036722824474680e-003	1.027193e+000	1.027193e+000
2.037722824474680e-003	1.027193e+000	1.027193e+000
2.038722824474680e-003	1.027193e+000	1.027193e+000
2.039722824474680e-003	1.027193e+000	1.027193e+000
2.040722824474680e-003	1.027193e+000	1.027193e+000
2.041722824474680e-003	1.027193e+000	1.027193e+000
2.042722824474680e-003	1.027193e+000	1.027193e+000
2.043722824474680e-003	1.027194e+000	1.027194e+000
2.044722824474681e-003	1.027194e+000	1.027194e+000
2.045722824474680e-003	1.027194e+000	1.027194e+000
2.046722824474680e-003	1.027194e+000	1.027194e+000
2.047722824474681e-003	1.027194e+000	1.027194e+000
2.048722824474680e-003	1.027194e+000	1.027194e+000
2.049722824474680e-003	1.027195e+000	1.027195e+000
2.050722824474680e-003	1.027195e+000	1.027195e+000
2.051722824474680e-003	1.027195e+000	1.027195e+000
2.052722824474680e-003	1.027195e+000	1.027195e+000
2.053722824474680e-003	1.027196e+000	1.027196e+000
2.054722824474680e-003	1.027196e+000	1.027196e+000
2.055722824474680e-003	1.027196e+000	1.027196e+000
2.056722824474680e-003	1.027196e+000	1.027196e+000
2.057722824474681e-003	1.027197e+000	1.027197e+000
2.058722824474680e-003	1.027197e+000	1.027197e+000
2.059722824474680e-003	1.027197e+000	1.027197e+000
2.060722824474680e-003	1.027197e+000	1.027197e+000
2.061722824474680e-003	1.027198e+000	1.027198e+000
2.062722824474680e-003	1.027198e+000	1.027198e+000
2.063722824474680e-003	1.027198e+000	1.027198e+000
2.064722824474680e-003	1.027198e+000	1.027198e+000
2.065722824474680e-003	1.027198e+000	1.027198e+000
2.066722824474680e-003	1.027199e+000	1.027199e+000
2.067722824474680e-003	1.027199e+000	1.027199e+000
2.068722824474680e-003	1.027199e+000	1.027199e+000
2.069722824474680e-003	1.027199e+000	1.027199e+000
2.070722824474681e-003	1.027200e+000	1.027200e+000
2.071722824474680e-003	1.027200e+000	1.027200e+000
2.072722824474680e-003	1.027200e+000	1.027200e+000
2.073722824474680e-003	1.027200e+000	1.027200e+000
2.074722824474680e-003	1.027200e+000	1.027200e+000
2.075722824474680e-003	1.027201e+000	1.027201e+000
2.076722824474680e-003	1.027201e+000	1.027201e+000
2.077722824474680e-003	1.027201e+000	1.027201e+000
2.078722824474680e-003	1.027201e+000	1.027201e+000
2.079722824474680e-003	1.027201e+000	1.027201e+000
2.080722824474680e-003	1.027202e+000	1.027202e+000
2.081722824474680e-003	1.027202e+000	1.027202e+000
2.082722824474680e-003	1.027202e+000	1.027202e+000
2.083722824474681e-003	1.027202e+000	1.027202e+000
2.084722824474680e-003	1.027202e+000	1.027202e+000
2.085722824474680e-003	1.027203e+000	1.027203e+000
2.086722824474680e-003	1.027203e+000	1.027203e+000
2.087722824474680e-003	1.027203e+000	1.027203e+000
2.088722824474680e-003	1.027203e+000	1.027203e+000
2.089722824474680e-003	1.027203e+000	1.027203e+000
2.090722824474680e-003	1.027204e+000	1.027204e+000
2.091722824474680e-003	1.027204e+000	1.027204e+000
2.092722824474680e-003	1.027204e+000	1.027204e+000
2.093722824474681e-003	1.027204e+000	1.027204e+000
2.094722824474680e-003	1.027204e+000	1.027204e+000
2.095722824474680e-003	1.027204e+000	1.027204e+000
2.096722824474681e-003	1.027205e+000	1.027205e+000
2.097722824474680e-003	1.027205e+000	1.027205e+000
2.098722824474680e-003	1.027205e+000	1.027205e+000
2.099722824474680e-003	1.027205e+000	1.027205e+000
2.100722824474680e-003	1.027205e+000	1.027205e+000
2.101722824474680e-003	1.027205e+000	1.027205e+000
2.102722824474680e-003	1.027205e+000	1.027205e+000
2.103722824474680e-003	1.027206e+000	1.027206e+000
2.104722824474680e-003	1.027206e+000	1.027206e+000
2.106722824474681e-003	1.027206e+000	1.027206e+000
