time	V(vout)	-I(Rl)
0.000000000000000e+000	1.027415e+000	1.037689e-010
1.000000013351432e-010	1.027415e+000	1.037689e-010
2.000000026702864e-010	1.027415e+000	1.037689e-010
4.000000053405728e-010	1.027415e+000	1.037689e-010
8.000000106811456e-010	1.027415e+000	1.037689e-010
1.600000021362291e-009	1.027415e+000	1.037689e-010
3.200000042724582e-009	1.027415e+000	1.037689e-010
6.400000085449165e-009	1.027415e+000	1.037689e-010
1.280000017089833e-008	1.027415e+000	1.037689e-010
2.560000034179666e-008	1.027415e+000	1.037689e-010
5.120000068359332e-008	1.027415e+000	1.037689e-010
1.024000013671866e-007	1.027415e+000	1.037689e-010
2.048000027343733e-007	1.027415e+000	1.037689e-010
4.096000054687465e-007	1.027415e+000	1.037689e-010
8.192000109374931e-007	1.027415e+000	1.037689e-010
1.638400021874986e-006	1.027415e+000	1.037689e-010
2.638400021874986e-006	1.027415e+000	1.037689e-010
3.638400021874986e-006	1.027415e+000	1.037689e-010
5.638400021874986e-006	1.027415e+000	1.037689e-010
7.638400021874986e-006	1.027415e+000	1.037689e-010
8.638400021874987e-006	1.027415e+000	1.037689e-010
9.638400021874986e-006	1.027415e+000	1.037689e-010
1.063840002187499e-005	1.027415e+000	1.037689e-010
1.163840002187499e-005	1.027415e+000	1.037689e-010
1.263840002187499e-005	1.027415e+000	1.037689e-010
1.363840002187499e-005	1.027415e+000	1.037689e-010
1.463840002187499e-005	1.027415e+000	1.037689e-010
1.663840002187499e-005	1.027415e+000	1.037689e-010
1.963840002187499e-005	1.027415e+000	1.037689e-010
2.063840002187499e-005	1.027415e+000	1.037689e-010
2.163840002187499e-005	1.027415e+000	1.037689e-010
2.263840002187499e-005	1.027415e+000	1.037689e-010
2.363840002187499e-005	1.027415e+000	1.037689e-010
2.463840002187499e-005	1.027415e+000	1.037689e-010
2.563840002187499e-005	1.027415e+000	1.037689e-010
2.663840002187499e-005	1.027415e+000	1.037689e-010
2.863840002187499e-005	1.027415e+000	1.037689e-010
2.935268573616070e-005	1.027415e+000	1.037689e-010
3.006697145044642e-005	1.027415e+000	1.037689e-010
3.078125716473213e-005	1.027415e+000	1.037689e-010
3.149554287901785e-005	1.027415e+000	1.037689e-010
3.220982859330356e-005	1.027415e+000	1.037689e-010
3.292411430758927e-005	1.027415e+000	1.037689e-010
3.363840002187499e-005	1.027415e+000	1.037689e-010
3.463840002187499e-005	1.027415e+000	1.037689e-010
3.563840002187499e-005	1.027415e+000	1.037689e-010
3.663840002187498e-005	1.027415e+000	1.037689e-010
3.763840002187499e-005	1.027415e+000	1.037689e-010
3.963840002187499e-005	1.027415e+000	1.037689e-010
4.049554287901785e-005	1.027415e+000	1.037689e-010
4.135268573616071e-005	1.027415e+000	1.037689e-010
4.220982859330356e-005	1.027415e+000	1.037689e-010
4.306697145044642e-005	1.027415e+000	1.037689e-010
4.392411430758928e-005	1.027415e+000	1.037689e-010
4.478125716473213e-005	1.027415e+000	1.037689e-010
4.563840002187499e-005	1.027415e+000	1.037689e-010
4.763840002187499e-005	1.027415e+000	1.037689e-010
4.863840002187498e-005	1.027415e+000	1.037689e-010
5.063840002187499e-005	1.027415e+000	1.037689e-010
5.263840002187499e-005	1.027415e+000	1.037689e-010
5.349554287901784e-005	1.027415e+000	1.037689e-010
5.435268573616070e-005	1.027415e+000	1.037689e-010
5.520982859330356e-005	1.027415e+000	1.037689e-010
5.606697145044642e-005	1.027415e+000	1.037689e-010
5.692411430758927e-005	1.027415e+000	1.037689e-010
5.778125716473213e-005	1.027415e+000	1.037689e-010
5.863840002187499e-005	1.027415e+000	1.037689e-010
6.063840002187498e-005	1.027415e+000	1.037689e-010
6.263840002187499e-005	1.027415e+000	1.037689e-010
6.463840002187499e-005	1.027415e+000	1.037689e-010
6.563840002187498e-005	1.027415e+000	1.037689e-010
6.663840002187498e-005	1.027415e+000	1.037689e-010
6.763840002187499e-005	1.027415e+000	1.037689e-010
6.863840002187499e-005	1.027415e+000	1.037689e-010
6.963840002187499e-005	1.027415e+000	1.037689e-010
7.063840002187498e-005	1.027415e+000	1.037689e-010
7.163840002187498e-005	1.027415e+000	1.037689e-010
7.363840002187499e-005	1.027415e+000	1.037689e-010
7.563840002187498e-005	1.027415e+000	1.037689e-010
7.663840002187498e-005	1.027415e+000	1.037689e-010
7.763840002187499e-005	1.027415e+000	1.037689e-010
7.863840002187499e-005	1.027415e+000	1.037689e-010
7.963840002187499e-005	1.027415e+000	1.037689e-010
8.063840002187500e-005	1.027415e+000	1.037689e-010
8.163840002187499e-005	1.027415e+000	1.037689e-010
8.263840002187499e-005	1.027415e+000	1.037689e-010
8.463840002187498e-005	1.027415e+000	1.037689e-010
8.663840002187499e-005	1.027415e+000	1.037689e-010
8.963840002187498e-005	1.027415e+000	1.037689e-010
9.078125716473213e-005	1.027415e+000	1.037689e-010
9.192411430758927e-005	1.027415e+000	1.037689e-010
9.306697145044642e-005	1.027415e+000	1.037689e-010
9.420982859330355e-005	1.027415e+000	1.037689e-010
9.535268573616070e-005	1.027415e+000	1.037689e-010
9.649554287901785e-005	1.027415e+000	1.037689e-010
9.763840002187499e-005	1.027415e+000	1.037689e-010
1.006384000218750e-004	1.027415e+000	1.037689e-010
1.017812571647321e-004	1.027415e+000	1.037689e-010
1.029241143075893e-004	1.027415e+000	1.037689e-010
1.040669714504464e-004	1.027415e+000	1.037689e-010
1.052098285933036e-004	1.027415e+000	1.037689e-010
1.063526857361607e-004	1.027415e+000	1.037689e-010
1.074955428790179e-004	1.027415e+000	1.037689e-010
1.086384000218750e-004	1.027415e+000	1.037689e-010
1.116384000218750e-004	1.027415e+000	1.037689e-010
1.127812571647321e-004	1.027415e+000	1.037689e-010
1.139241143075893e-004	1.027415e+000	1.037689e-010
1.150669714504464e-004	1.027415e+000	1.037689e-010
1.162098285933036e-004	1.027415e+000	1.037689e-010
1.173526857361607e-004	1.027415e+000	1.037689e-010
1.184955428790179e-004	1.027415e+000	1.037689e-010
1.196384000218750e-004	1.027415e+000	1.037689e-010
1.226384000218750e-004	1.027415e+000	1.037689e-010
1.239241143075893e-004	1.027415e+000	1.037689e-010
1.252098285933036e-004	1.027415e+000	1.037689e-010
1.264955428790178e-004	1.027415e+000	1.037689e-010
1.277812571647321e-004	1.027415e+000	1.037689e-010
1.290669714504464e-004	1.027415e+000	1.037689e-010
1.303526857361607e-004	1.027415e+000	1.037689e-010
1.316384000218750e-004	1.027415e+000	1.037689e-010
1.346384000218750e-004	1.027415e+000	1.037689e-010
1.359241143075893e-004	1.027415e+000	1.037689e-010
1.372098285933036e-004	1.027415e+000	1.037689e-010
1.384955428790178e-004	1.027415e+000	1.037689e-010
1.397812571647322e-004	1.027415e+000	1.037689e-010
1.410669714504464e-004	1.027415e+000	1.037689e-010
1.423526857361607e-004	1.027415e+000	1.037689e-010
1.436384000218750e-004	1.027415e+000	1.037689e-010
1.450669714504464e-004	1.027415e+000	1.037689e-010
1.464955428790179e-004	1.027415e+000	1.037689e-010
1.479241143075893e-004	1.027415e+000	1.037689e-010
1.493526857361607e-004	1.027415e+000	1.037689e-010
1.507812571647321e-004	1.027415e+000	1.037689e-010
1.522098285933036e-004	1.027415e+000	1.037689e-010
1.536384000218750e-004	1.027415e+000	1.037689e-010
1.553526857361607e-004	1.027415e+000	1.037689e-010
1.570669714504464e-004	1.027415e+000	1.037689e-010
1.587812571647322e-004	1.027415e+000	1.037689e-010
1.604955428790179e-004	1.027415e+000	1.037689e-010
1.622098285933036e-004	1.027415e+000	1.037689e-010
1.639241143075893e-004	1.027415e+000	1.037689e-010
1.656384000218750e-004	1.027415e+000	1.037689e-010
1.674955428790178e-004	1.027415e+000	1.037689e-010
1.693526857361607e-004	1.027415e+000	1.037689e-010
1.712098285933036e-004	1.027415e+000	1.037689e-010
1.730669714504464e-004	1.027415e+000	1.037689e-010
1.749241143075893e-004	1.027415e+000	1.037689e-010
1.767812571647321e-004	1.027415e+000	1.037689e-010
1.786384000218750e-004	1.027415e+000	1.037689e-010
1.804955428790178e-004	1.027415e+000	1.037689e-010
1.823526857361607e-004	1.027415e+000	1.037689e-010
1.842098285933036e-004	1.027415e+000	1.037689e-010
1.860669714504464e-004	1.027415e+000	1.037689e-010
1.879241143075893e-004	1.027415e+000	1.037689e-010
1.897812571647321e-004	1.027415e+000	1.037689e-010
1.916384000218750e-004	1.027415e+000	1.037689e-010
1.936384000218750e-004	1.027415e+000	1.037689e-010
1.956384000218750e-004	1.027415e+000	1.037689e-010
1.976384000218750e-004	1.027415e+000	1.037689e-010
1.996384000218750e-004	1.027415e+000	1.037689e-010
2.016384000218750e-004	1.027415e+000	1.037689e-010
2.036384000218750e-004	1.027415e+000	1.037689e-010
2.056384000218750e-004	1.027415e+000	1.037689e-010
2.077812571647321e-004	1.027415e+000	1.037689e-010
2.099241143075893e-004	1.027415e+000	1.037689e-010
2.120669714504464e-004	1.027415e+000	1.037689e-010
2.142098285933036e-004	1.027415e+000	1.037689e-010
2.163526857361607e-004	1.027415e+000	1.037689e-010
2.184955428790179e-004	1.027415e+000	1.037689e-010
2.206384000218750e-004	1.027415e+000	1.037689e-010
2.237812571647321e-004	1.027415e+000	1.037689e-010
2.269241143075893e-004	1.027415e+000	1.037689e-010
2.300669714504464e-004	1.027415e+000	1.037689e-010
2.332098285933036e-004	1.027415e+000	1.037689e-010
2.363526857361607e-004	1.027415e+000	1.037689e-010
2.394955428790179e-004	1.027415e+000	1.037689e-010
2.426384000218750e-004	1.027415e+000	1.037689e-010
2.463526857361607e-004	1.027415e+000	1.037689e-010
2.500669714504464e-004	1.027415e+000	1.037689e-010
2.537812571647321e-004	1.027415e+000	1.037689e-010
2.574955428790178e-004	1.027415e+000	1.037689e-010
2.612098285933036e-004	1.027415e+000	1.037689e-010
2.649241143075893e-004	1.027415e+000	1.037689e-010
2.686384000218750e-004	1.027415e+000	1.037689e-010
2.724955428790178e-004	1.027415e+000	1.037689e-010
2.763526857361607e-004	1.027415e+000	1.037689e-010
2.802098285933036e-004	1.027415e+000	1.037689e-010
2.840669714504464e-004	1.027415e+000	1.037689e-010
2.879241143075893e-004	1.027415e+000	1.037689e-010
2.917812571647321e-004	1.027415e+000	1.037689e-010
2.956384000218750e-004	1.027415e+000	1.037689e-010
3.974955428790179e-004	1.027415e+000	1.037689e-010
4.993526857361608e-004	1.027415e+000	1.037689e-010
6.012098285933037e-004	1.027415e+000	1.037689e-010
7.030669714504466e-004	1.027415e+000	1.037689e-010
8.049241143075895e-004	1.027415e+000	1.037689e-010
9.067812571647324e-004	1.027415e+000	1.037689e-010
1.008638400021875e-003	1.027415e+000	1.037689e-010
1.009638400021875e-003	1.027415e+000	1.037689e-010
1.998638400021875e-003	1.027415e+000	1.037689e-010
2.000000000000000e-003	1.027415e+000	1.037689e-010
2.000000746246024e-003	7.041947e-001	3.617229e-001
2.000002238738072e-003	5.180149e-001	5.180149e-001
2.000002516478400e-003	5.210021e-001	5.210021e-001
2.000002782598437e-003	5.223597e-001	5.223597e-001
2.000002855437198e-003	5.222425e-001	5.222425e-001
2.000002897468448e-003	5.228283e-001	5.228283e-001
2.000002948364395e-003	5.230426e-001	5.230426e-001
2.000002997620503e-003	5.231338e-001	5.231338e-001
2.000003096132721e-003	5.231932e-001	5.231932e-001
2.000003204913863e-003	5.232248e-001	5.232248e-001
2.000003422476146e-003	5.232808e-001	5.232808e-001
2.000003705065452e-003	5.234004e-001	5.234004e-001
2.000004270244065e-003	5.237630e-001	5.237630e-001
2.000005168821836e-003	5.245242e-001	5.245242e-001
2.000006045167164e-003	5.254004e-001	5.254004e-001
2.000007146759147e-003	5.265849e-001	5.265849e-001
2.000008265714616e-003	5.277858e-001	5.277858e-001
2.000009836462827e-003	5.293975e-001	5.293975e-001
2.000011457844416e-003	5.309417e-001	5.309417e-001
2.000013553930846e-003	5.327866e-001	5.327866e-001
2.000015903741482e-003	5.347931e-001	5.347931e-001
2.000019093652250e-003	5.377945e-001	5.377945e-001
2.000023088924735e-003	5.427369e-001	5.427369e-001
2.000028729625702e-003	5.524439e-001	5.524439e-001
2.000035941188246e-003	5.681770e-001	5.681770e-001
2.000042264303573e-003	5.836753e-001	5.836753e-001
2.000049147536446e-003	6.010118e-001	6.010118e-001
2.000055589567208e-003	6.167890e-001	6.167890e-001
2.000063573284535e-003	6.352668e-001	6.352668e-001
2.000071676114000e-003	6.525599e-001	6.525599e-001
2.000081795617189e-003	6.720329e-001	6.720329e-001
2.000092703174144e-003	6.906893e-001	6.906893e-001
2.000103043379032e-003	7.061788e-001	7.061788e-001
2.000114532135719e-003	7.210516e-001	7.210516e-001
2.000128505938943e-003	7.365921e-001	7.365921e-001
2.000141214065426e-003	7.487267e-001	7.487267e-001
2.000151736843173e-003	7.574017e-001	7.574017e-001
2.000162311165146e-003	7.650741e-001	7.650741e-001
2.000172886481810e-003	7.719651e-001	7.719651e-001
2.000186201912284e-003	7.801443e-001	7.801443e-001
2.000203351972795e-003	7.918085e-001	7.918085e-001
2.000219950886708e-003	8.078446e-001	8.078446e-001
2.000233638603399e-003	8.299462e-001	8.299462e-001
2.000247078632165e-003	8.653837e-001	8.653837e-001
2.000261481589056e-003	9.204912e-001	9.204912e-001
2.000276046900881e-003	9.909775e-001	9.909775e-001
2.000284674573427e-003	1.038464e+000	1.038464e+000
2.000290050846951e-003	1.069931e+000	1.069931e+000
2.000294446255495e-003	1.096283e+000	1.096283e+000
2.000298433764761e-003	1.120476e+000	1.120476e+000
2.000302220394246e-003	1.143611e+000	1.143611e+000
2.000306548805475e-003	1.170144e+000	1.170144e+000
2.000310488200476e-003	1.194260e+000	1.194260e+000
2.000315311979629e-003	1.223575e+000	1.223575e+000
2.000320392865708e-003	1.253962e+000	1.253962e+000
2.000326712998201e-003	1.290644e+000	1.290644e+000
2.000335659448687e-003	1.340578e+000	1.340578e+000
2.000341496448328e-003	1.371714e+000	1.371714e+000
2.000346442280589e-003	1.396861e+000	1.396861e+000
2.000351445880763e-003	1.421155e+000	1.421155e+000
2.000356674555255e-003	1.445139e+000	1.445139e+000
2.000364126013512e-003	1.476864e+000	1.476864e+000
2.000372388909823e-003	1.509094e+000	1.509094e+000
2.000378196445265e-003	1.529520e+000	1.529520e+000
2.000384396285918e-003	1.548907e+000	1.548907e+000
2.000391728987249e-003	1.568705e+000	1.568705e+000
2.000402323074643e-003	1.591822e+000	1.591822e+000
2.000414778011408e-003	1.610854e+000	1.610854e+000
2.000432335096631e-003	1.624566e+000	1.624566e+000
2.000451659469770e-003	1.626179e+000	1.626179e+000
2.000472318346810e-003	1.618016e+000	1.618016e+000
2.000487429145736e-003	1.609390e+000	1.609390e+000
2.000501586226099e-003	1.601288e+000	1.601288e+000
2.000515408136880e-003	1.593851e+000	1.593851e+000
2.000530575170053e-003	1.585971e+000	1.585971e+000
2.000545780695532e-003	1.578219e+000	1.578219e+000
2.000563856737497e-003	1.569135e+000	1.569135e+000
2.000580143270010e-003	1.561062e+000	1.561062e+000
2.000599478826596e-003	1.551615e+000	1.551615e+000
2.000618890196962e-003	1.542267e+000	1.542267e+000
2.000637920631239e-003	1.533242e+000	1.533242e+000
2.000659068121146e-003	1.523368e+000	1.523368e+000
2.000679400473813e-003	1.514039e+000	1.514039e+000
2.000702318627519e-003	1.504157e+000	1.504157e+000
2.000727124726383e-003	1.495145e+000	1.495145e+000
2.000748284266348e-003	1.488695e+000	1.488695e+000
2.000763423012811e-003	1.483660e+000	1.483660e+000
2.000781384700632e-003	1.476529e+000	1.476529e+000
2.000798464572807e-003	1.469213e+000	1.469213e+000
2.000814558292625e-003	1.462189e+000	1.462189e+000
2.000836289599304e-003	1.452798e+000	1.452798e+000
2.000861135325341e-003	1.442289e+000	1.442289e+000
2.000893851377581e-003	1.428786e+000	1.428786e+000
2.000930162510199e-003	1.414148e+000	1.414148e+000
2.000968979932405e-003	1.398889e+000	1.398889e+000
2.001020050581641e-003	1.379363e+000	1.379363e+000
2.001075181746078e-003	1.358919e+000	1.358919e+000
2.001133198856569e-003	1.338140e+000	1.338140e+000
2.001204445000309e-003	1.313649e+000	1.313649e+000
2.001306050806176e-003	1.280349e+000	1.280349e+000
2.001418156036477e-003	1.245854e+000	1.245854e+000
2.001609321273313e-003	1.191178e+000	1.191178e+000
2.001772194391329e-003	1.148141e+000	1.148141e+000
2.001945173952097e-003	1.105949e+000	1.105949e+000
2.002070750903082e-003	1.077374e+000	1.077374e+000
2.002199266970341e-003	1.049915e+000	1.049915e+000
2.002334307957796e-003	1.022467e+000	1.022467e+000
2.002431968284949e-003	1.003438e+000	1.003438e+000
2.002536870423243e-003	9.837099e-001	9.837099e-001
2.002629759710883e-003	9.667733e-001	9.667733e-001
2.002723286558621e-003	9.502900e-001	9.502900e-001
2.002830427621469e-003	9.320240e-001	9.320240e-001
2.002892891233618e-003	9.217150e-001	9.217150e-001
2.002960167136450e-003	9.109440e-001	9.109440e-001
2.003034170713120e-003	8.994078e-001	8.994078e-001
2.003114403576424e-003	8.872474e-001	8.872474e-001
2.003193698650633e-003	8.756132e-001	8.756132e-001
2.003291927790746e-003	8.617911e-001	8.617911e-001
2.003389177632971e-003	8.490289e-001	8.490289e-001
2.003484838978518e-003	8.379679e-001	8.379679e-001
2.003551820354449e-003	8.319815e-001	8.319815e-001
2.003614894394639e-003	8.289761e-001	8.289761e-001
2.003689855035551e-003	8.294811e-001	8.294811e-001
2.003762196728243e-003	8.341878e-001	8.341878e-001
2.003819328781603e-003	8.408896e-001	8.408896e-001
2.003880857724526e-003	8.502840e-001	8.502840e-001
2.003938522764022e-003	8.600751e-001	8.600751e-001
2.004009329357444e-003	8.723911e-001	8.723911e-001
2.004079956025212e-003	8.843182e-001	8.843182e-001
2.004156073626629e-003	8.964878e-001	8.964878e-001
2.004238950471648e-003	9.089670e-001	9.089670e-001
2.004323765092394e-003	9.209065e-001	9.209065e-001
2.004450238400089e-003	9.370463e-001	9.370463e-001
2.004601238500037e-003	9.534850e-001	9.534850e-001
2.004739166287182e-003	9.654687e-001	9.654687e-001
2.004832993857420e-003	9.717647e-001	9.717647e-001
2.004931523689019e-003	9.770676e-001	9.770676e-001
2.005045078950256e-003	9.823439e-001	9.823439e-001
2.005154241169900e-003	9.868041e-001	9.868041e-001
2.005275813034084e-003	9.911001e-001	9.911001e-001
2.005403231796010e-003	9.949070e-001	9.949070e-001
2.005571867857306e-003	9.991660e-001	9.991660e-001
2.005761875266412e-003	1.003256e+000	1.003256e+000
2.005966177652370e-003	1.006912e+000	1.006912e+000
2.006200805437439e-003	1.010288e+000	1.010288e+000
2.006558097622640e-003	1.014354e+000	1.014354e+000
2.006916234618122e-003	1.017457e+000	1.017457e+000
2.007343035918430e-003	1.020085e+000	1.020085e+000
2.007987025356762e-003	1.022750e+000	1.022750e+000
2.008748235975384e-003	1.024684e+000	1.024684e+000
2.009598308863407e-003	1.025869e+000	1.025869e+000
2.010598308863407e-003	1.026573e+000	1.026573e+000
2.011598308863407e-003	1.026909e+000	1.026909e+000
2.012598308863407e-003	1.027059e+000	1.027059e+000
2.013598308863407e-003	1.027127e+000	1.027127e+000
2.014598308863407e-003	1.027158e+000	1.027158e+000
2.015598308863407e-003	1.027171e+000	1.027171e+000
2.016598308863407e-003	1.027178e+000	1.027178e+000
2.017598308863407e-003	1.027180e+000	1.027180e+000
2.018598308863407e-003	1.027182e+000	1.027182e+000
2.019598308863407e-003	1.027182e+000	1.027182e+000
2.020598308863407e-003	1.027183e+000	1.027183e+000
2.021598308863407e-003	1.027183e+000	1.027183e+000
2.022598308863407e-003	1.027183e+000	1.027183e+000
2.023598308863407e-003	1.027183e+000	1.027183e+000
2.024598308863407e-003	1.027184e+000	1.027184e+000
2.025598308863407e-003	1.027184e+000	1.027184e+000
2.026598308863407e-003	1.027184e+000	1.027184e+000
2.027598308863407e-003	1.027185e+000	1.027185e+000
2.028598308863407e-003	1.027185e+000	1.027185e+000
2.029598308863407e-003	1.027185e+000	1.027185e+000
2.030598308863407e-003	1.027185e+000	1.027185e+000
2.031598308863407e-003	1.027186e+000	1.027186e+000
2.032598308863407e-003	1.027186e+000	1.027186e+000
2.033598308863407e-003	1.027187e+000	1.027187e+000
2.034598308863407e-003	1.027187e+000	1.027187e+000
2.035598308863407e-003	1.027187e+000	1.027187e+000
2.036598308863407e-003	1.027187e+000	1.027187e+000
2.037598308863407e-003	1.027188e+000	1.027188e+000
2.038598308863407e-003	1.027188e+000	1.027188e+000
2.039598308863407e-003	1.027188e+000	1.027188e+000
2.040598308863407e-003	1.027189e+000	1.027189e+000
2.041598308863407e-003	1.027189e+000	1.027189e+000
2.042598308863407e-003	1.027190e+000	1.027190e+000
2.043598308863407e-003	1.027190e+000	1.027190e+000
2.044598308863407e-003	1.027190e+000	1.027190e+000
2.045598308863407e-003	1.027190e+000	1.027190e+000
2.046598308863407e-003	1.027191e+000	1.027191e+000
2.047598308863407e-003	1.027191e+000	1.027191e+000
2.048598308863407e-003	1.027191e+000	1.027191e+000
