time	V(vout)	-I(Rl)
0.000000000000000e+000	9.996057e+000	1.009602e-009
1.009638400021875e-003	9.996057e+000	1.009602e-009
2.000000000000000e-003	9.996057e+000	1.009602e-009
2.000000686880232e-003	9.460893e+000	6.128874e-001
2.000002060640694e-003	9.097732e+000	9.097731e-001
2.000002302148719e-003	9.111507e+000	9.111508e-001
2.000002420982828e-003	9.122065e+000	9.122065e-001
2.000002457726978e-003	9.121944e+000	9.121944e-001
2.000002508720115e-003	9.121994e+000	9.121994e-001
2.000002561510304e-003	9.122001e+000	9.122000e-001
2.000002667090681e-003	9.121971e+000	9.121971e-001
2.000002763055161e-003	9.121892e+000	9.121892e-001
2.000002925761511e-003	9.121719e+000	9.121719e-001
2.000003088050614e-003	9.121568e+000	9.121568e-001
2.000003411323922e-003	9.121417e+000	9.121417e-001
2.000003795179093e-003	9.121534e+000	9.121535e-001
2.000004562889434e-003	9.122510e+000	9.122510e-001
2.000005560218483e-003	9.124657e+000	9.124658e-001
2.000006559640351e-003	9.127518e+000	9.127518e-001
2.000007462760300e-003	9.130530e+000	9.130530e-001
2.000008473451789e-003	9.134220e+000	9.134220e-001
2.000009725614566e-003	9.139183e+000	9.139183e-001
2.000012122752265e-003	9.149660e+000	9.149660e-001
2.000014522301670e-003	9.161715e+000	9.161715e-001
2.000018007079160e-003	9.182145e+000	9.182145e-001
2.000021293974034e-003	9.204289e+000	9.204289e-001
2.000026824691912e-003	9.245256e+000	9.245257e-001
2.000032989952383e-003	9.292255e+000	9.292256e-001
2.000039189651305e-003	9.338388e+000	9.338389e-001
2.000045354733694e-003	9.381157e+000	9.381157e-001
2.000051966090272e-003	9.422900e+000	9.422900e-001
2.000056448160952e-003	9.448073e+000	9.448073e-001
2.000062060462275e-003	9.475646e+000	9.475646e-001
2.000067247285356e-003	9.497603e+000	9.497604e-001
2.000073186671065e-003	9.518526e+000	9.518526e-001
2.000080058709221e-003	9.538271e+000	9.538271e-001
2.000086515721584e-003	9.552995e+000	9.552995e-001
2.000094863607535e-003	9.567682e+000	9.567682e-001
2.000106253452860e-003	9.582995e+000	9.582995e-001
2.000120414233020e-003	9.597942e+000	9.597942e-001
2.000132872659029e-003	9.609476e+000	9.609476e-001
2.000143876289176e-003	9.620284e+000	9.620284e-001
2.000154091004055e-003	9.633276e+000	9.633276e-001
2.000164285535030e-003	9.652766e+000	9.652766e-001
2.000176633179033e-003	9.690583e+000	9.690583e-001
2.000190503222789e-003	9.757408e+000	9.757408e-001
2.000204117824678e-003	9.850628e+000	9.850628e-001
2.000212051280564e-003	9.921235e+000	9.921235e-001
2.000220988030463e-003	1.001647e+001	1.001647e+000
2.000228365305264e-003	1.010432e+001	1.010432e+000
2.000232004107000e-003	1.015115e+001	1.015115e+000
2.000234702754673e-003	1.018753e+001	1.018753e+000
2.000237012286702e-003	1.021955e+001	1.021955e+000
2.000239134921983e-003	1.024968e+001	1.024968e+000
2.000241047697883e-003	1.027742e+001	1.027742e+000
2.000242954526102e-003	1.030563e+001	1.030563e+000
2.000244989709191e-003	1.033626e+001	1.033626e+000
2.000247190127919e-003	1.036989e+001	1.036989e+000
2.000249793433267e-003	1.041025e+001	1.041025e+000
2.000252720107708e-003	1.045627e+001	1.045627e+000
2.000256546215421e-003	1.051731e+001	1.051731e+000
2.000259504993466e-003	1.056528e+001	1.056528e+000
2.000263183520102e-003	1.062587e+001	1.062587e+000
2.000265606199250e-003	1.066628e+001	1.066628e+000
2.000267997985744e-003	1.070656e+001	1.070656e+000
2.000270170287040e-003	1.074336e+001	1.074336e+000
2.000272341349686e-003	1.078027e+001	1.078027e+000
2.000274589817023e-003	1.081856e+001	1.081856e+000
2.000276111895944e-003	1.084449e+001	1.084449e+000
2.000277936974458e-003	1.087558e+001	1.087558e+000
2.000279967443485e-003	1.091013e+001	1.091013e+000
2.000282292012864e-003	1.094961e+001	1.094962e+000
2.000284925841177e-003	1.099422e+001	1.099422e+000
2.000288264841990e-003	1.105047e+001	1.105047e+000
2.000293048273136e-003	1.113022e+001	1.113022e+000
2.000299908423702e-003	1.124257e+001	1.124257e+000
2.000306923126942e-003	1.135455e+001	1.135455e+000
2.000312325934521e-003	1.143824e+001	1.143824e+000
2.000316815172799e-003	1.150563e+001	1.150563e+000
2.000321676385449e-003	1.157628e+001	1.157628e+000
2.000327143576784e-003	1.165279e+001	1.165279e+000
2.000333032481655e-003	1.173043e+001	1.173043e+000
2.000344810291395e-003	1.186919e+001	1.186919e+000
2.000365877616638e-003	1.207244e+001	1.207244e+000
2.000390750699220e-003	1.224629e+001	1.224629e+000
2.000411192241014e-003	1.233058e+001	1.233058e+000
2.000432131293959e-003	1.236093e+001	1.236093e+000
2.000456285099675e-003	1.234553e+001	1.234553e+000
2.000475566100200e-003	1.230506e+001	1.230506e+000
2.000492915179689e-003	1.225541e+001	1.225541e+000
2.000510320117161e-003	1.220309e+001	1.220309e+000
2.000529277789291e-003	1.214788e+001	1.214788e+000
2.000546605942584e-003	1.209945e+001	1.209945e+000
2.000563881639337e-003	1.205294e+001	1.205294e+000
2.000583415774619e-003	1.200225e+001	1.200225e+000
2.000606984085304e-003	1.194343e+001	1.194343e+000
2.000631266519459e-003	1.188527e+001	1.188527e+000
2.000655171615660e-003	1.183042e+001	1.183042e+000
2.000681061094650e-003	1.177350e+001	1.177350e+000
2.000706773959025e-003	1.171941e+001	1.171941e+000
2.000736878946150e-003	1.165905e+001	1.165905e+000
2.000774196235353e-003	1.158892e+001	1.158892e+000
2.000823741571806e-003	1.150377e+001	1.150377e+000
2.000845984530573e-003	1.146896e+001	1.146896e+000
2.000874562455039e-003	1.142533e+001	1.142533e+000
2.000898579098675e-003	1.138802e+001	1.138802e+000
2.000924830280034e-003	1.134791e+001	1.134791e+000
2.000961803507390e-003	1.129340e+001	1.129340e+000
2.001003106586733e-003	1.123556e+001	1.123556e+000
2.001063897421092e-003	1.115523e+001	1.115523e+000
2.001121517547014e-003	1.108381e+001	1.108381e+000
2.001203817423985e-003	1.098973e+001	1.098974e+000
2.001315045821921e-003	1.087388e+001	1.087388e+000
2.001417736831614e-003	1.077729e+001	1.077729e+000
2.001527371774640e-003	1.068504e+001	1.068504e+000
2.001686348146626e-003	1.056558e+001	1.056558e+000
2.001845196266013e-003	1.046056e+001	1.046056e+000
2.002089198166920e-003	1.031832e+001	1.031832e+000
2.002220153932634e-003	1.024975e+001	1.024975e+000
2.002329364622227e-003	1.019759e+001	1.019758e+000
2.002402817191291e-003	1.016471e+001	1.016471e+000
2.002474627131483e-003	1.013435e+001	1.013435e+000
2.002549735028564e-003	1.010399e+001	1.010399e+000
2.002618691643331e-003	1.007705e+001	1.007705e+000
2.002689110787448e-003	1.005008e+001	1.005008e+000
2.002743468241453e-003	1.002943e+001	1.002943e+000
2.002795591971760e-003	1.000978e+001	1.000978e+000
2.002850701237239e-003	9.989312e+000	9.989312e-001
2.002882788828427e-003	9.977687e+000	9.977687e-001
2.002912579583349e-003	9.967294e+000	9.967294e-001
2.002951588966451e-003	9.954404e+000	9.954403e-001
2.002989629911538e-003	9.942927e+000	9.942927e-001
2.003024687017794e-003	9.934130e+000	9.934130e-001
2.003069464479548e-003	9.926263e+000	9.926262e-001
2.003110667824855e-003	9.923212e+000	9.923212e-001
2.003154921327899e-003	9.924604e+000	9.924605e-001
2.003182370633131e-003	9.927876e+000	9.927876e-001
2.003210633113309e-003	9.933043e+000	9.933043e-001
2.003240902394691e-003	9.939647e+000	9.939647e-001
2.003269529823199e-003	9.946384e+000	9.946385e-001
2.003304642856779e-003	9.954637e+000	9.954637e-001
2.003345081574278e-003	9.963558e+000	9.963558e-001
2.003385503839476e-003	9.971554e+000	9.971554e-001
2.003428514157509e-003	9.978972e+000	9.978973e-001
2.003475205861005e-003	9.986001e+000	9.986001e-001
2.003520264748353e-003	9.992037e+000	9.992037e-001
2.003568471975363e-003	9.997930e+000	9.997929e-001
2.003627568783759e-003	1.000464e+001	1.000463e+000
2.003692169891053e-003	1.001140e+001	1.001140e+000
2.003756876831387e-003	1.001745e+001	1.001745e+000
2.003825468589402e-003	1.002292e+001	1.002292e+000
2.003910061979768e-003	1.002848e+001	1.002848e+000
2.003994332427921e-003	1.003308e+001	1.003308e+000
2.004089314947937e-003	1.003758e+001	1.003758e+000
2.004182981930047e-003	1.004156e+001	1.004156e+000
2.004275980738049e-003	1.004500e+001	1.004500e+000
2.004380651639250e-003	1.004829e+001	1.004829e+000
2.004507431243326e-003	1.005174e+001	1.005175e+000
2.004633783333185e-003	1.005477e+001	1.005477e+000
2.004795182804767e-003	1.005808e+001	1.005808e+000
2.004945909856542e-003	1.006069e+001	1.006069e+000
2.005125797321468e-003	1.006334e+001	1.006334e+000
2.005316801605016e-003	1.006572e+001	1.006572e+000
2.005537214761914e-003	1.006796e+001	1.006796e+000
2.005809051091535e-003	1.007020e+001	1.007020e+000
2.006076829330288e-003	1.007194e+001	1.007194e+000
2.006420500108238e-003	1.007362e+001	1.007362e+000
2.006838448852087e-003	1.007508e+001	1.007508e+000
2.007378104674454e-003	1.007633e+001	1.007633e+000
2.007897975744187e-003	1.007704e+001	1.007704e+000
2.008604020978418e-003	1.007750e+001	1.007750e+000
2.009364767647028e-003	1.007765e+001	1.007764e+000
2.010328401040705e-003	1.007753e+001	1.007753e+000
2.011328401040706e-003	1.007724e+001	1.007724e+000
2.012328401040705e-003	1.007686e+001	1.007686e+000
2.013328401040705e-003	1.007644e+001	1.007644e+000
2.014328401040706e-003	1.007601e+001	1.007601e+000
2.015328401040706e-003	1.007557e+001	1.007557e+000
2.016328401040705e-003	1.007513e+001	1.007513e+000
2.017328401040706e-003	1.007470e+001	1.007470e+000
2.018328401040706e-003	1.007426e+001	1.007426e+000
2.019328401040705e-003	1.007382e+001	1.007382e+000
2.020328401040706e-003	1.007339e+001	1.007339e+000
2.021328401040706e-003	1.007296e+001	1.007296e+000
2.022328401040705e-003	1.007253e+001	1.007253e+000
2.023328401040705e-003	1.007211e+001	1.007211e+000
2.024328401040706e-003	1.007168e+001	1.007168e+000
2.025328401040705e-003	1.007126e+001	1.007126e+000
2.026328401040705e-003	1.007084e+001	1.007084e+000
2.027328401040706e-003	1.007042e+001	1.007042e+000
2.028328401040706e-003	1.007001e+001	1.007001e+000
2.029328401040705e-003	1.006959e+001	1.006959e+000
2.030328401040706e-003	1.006918e+001	1.006918e+000
2.031328401040706e-003	1.006877e+001	1.006877e+000
2.032328401040705e-003	1.006836e+001	1.006836e+000
2.033328401040706e-003	1.006796e+001	1.006796e+000
2.034328401040706e-003	1.006756e+001	1.006756e+000
2.035328401040705e-003	1.006715e+001	1.006716e+000
2.036328401040705e-003	1.006676e+001	1.006676e+000
2.037328401040706e-003	1.006636e+001	1.006636e+000
2.038328401040705e-003	1.006597e+001	1.006597e+000
2.039328401040705e-003	1.006557e+001	1.006557e+000
2.040328401040706e-003	1.006518e+001	1.006518e+000
2.041328401040706e-003	1.006480e+001	1.006480e+000
2.042328401040705e-003	1.006441e+001	1.006441e+000
2.043328401040706e-003	1.006403e+001	1.006403e+000
2.044328401040706e-003	1.006364e+001	1.006364e+000
2.045328401040705e-003	1.006326e+001	1.006326e+000
2.046328401040706e-003	1.006289e+001	1.006289e+000
2.047328401040706e-003	1.006251e+001	1.006251e+000
2.048328401040705e-003	1.006214e+001	1.006214e+000
2.049328401040705e-003	1.006177e+001	1.006177e+000
2.050328401040706e-003	1.006140e+001	1.006140e+000
2.051328401040705e-003	1.006103e+001	1.006103e+000
2.052328401040705e-003	1.006066e+001	1.006066e+000
2.053328401040706e-003	1.006030e+001	1.006030e+000
2.054328401040706e-003	1.005994e+001	1.005994e+000
2.055328401040705e-003	1.005958e+001	1.005958e+000
2.056328401040706e-003	1.005922e+001	1.005922e+000
2.057328401040706e-003	1.005887e+001	1.005887e+000
2.058328401040705e-003	1.005851e+001	1.005851e+000
2.059328401040705e-003	1.005816e+001	1.005816e+000
2.060328401040706e-003	1.005781e+001	1.005781e+000
2.061328401040705e-003	1.005746e+001	1.005746e+000
2.062328401040705e-003	1.005712e+001	1.005712e+000
2.063328401040706e-003	1.005677e+001	1.005677e+000
2.064328401040706e-003	1.005643e+001	1.005643e+000
2.065328401040705e-003	1.005609e+001	1.005609e+000
2.066328401040706e-003	1.005575e+001	1.005575e+000
2.067328401040706e-003	1.005542e+001	1.005542e+000
2.068328401040705e-003	1.005508e+001	1.005508e+000
2.069328401040706e-003	1.005475e+001	1.005475e+000
2.070328401040706e-003	1.005442e+001	1.005442e+000
2.071328401040705e-003	1.005409e+001	1.005409e+000
2.072328401040705e-003	1.005376e+001	1.005376e+000
2.073328401040706e-003	1.005344e+001	1.005344e+000
2.074328401040705e-003	1.005311e+001	1.005311e+000
2.076328401040706e-003	1.005247e+001	1.005247e+000
2.077328401040706e-003	1.005215e+001	1.005215e+000
2.078328401040705e-003	1.005184e+001	1.005184e+000
2.079328401040706e-003	1.005152e+001	1.005152e+000
2.080328401040706e-003	1.005121e+001	1.005121e+000
2.081328401040705e-003	1.005090e+001	1.005090e+000
2.082328401040706e-003	1.005059e+001	1.005059e+000
2.083328401040706e-003	1.005028e+001	1.005028e+000
2.084328401040705e-003	1.004997e+001	1.004997e+000
2.085328401040705e-003	1.004967e+001	1.004967e+000
2.086328401040706e-003	1.004936e+001	1.004936e+000
2.087328401040705e-003	1.004906e+001	1.004906e+000
2.088328401040705e-003	1.004876e+001	1.004876e+000
2.089328401040706e-003	1.004846e+001	1.004846e+000
2.090328401040706e-003	1.004817e+001	1.004817e+000
2.091328401040705e-003	1.004787e+001	1.004787e+000
2.092328401040706e-003	1.004758e+001	1.004758e+000
2.093328401040706e-003	1.004729e+001	1.004729e+000
2.094328401040705e-003	1.004700e+001	1.004700e+000
2.095328401040706e-003	1.004671e+001	1.004671e+000
2.096328401040706e-003	1.004642e+001	1.004642e+000
2.097328401040705e-003	1.004614e+001	1.004614e+000
2.098328401040705e-003	1.004585e+001	1.004585e+000
2.099328401040706e-003	1.004557e+001	1.004557e+000
2.100328401040705e-003	1.004529e+001	1.004529e+000
2.101328401040705e-003	1.004501e+001	1.004501e+000
2.102328401040706e-003	1.004473e+001	1.004473e+000
2.103328401040706e-003	1.004446e+001	1.004446e+000
2.104328401040705e-003	1.004418e+001	1.004418e+000
2.105328401040706e-003	1.004391e+001	1.004391e+000
2.106328401040706e-003	1.004364e+001	1.004364e+000
2.107328401040705e-003	1.004337e+001	1.004337e+000
2.108328401040705e-003	1.004310e+001	1.004310e+000
2.109328401040706e-003	1.004283e+001	1.004283e+000
2.110328401040705e-003	1.004257e+001	1.004257e+000
2.111328401040705e-003	1.004230e+001	1.004230e+000
2.112328401040706e-003	1.004204e+001	1.004204e+000
2.113328401040706e-003	1.004178e+001	1.004178e+000
2.114328401040705e-003	1.004152e+001	1.004152e+000
2.115328401040706e-003	1.004126e+001	1.004126e+000
2.116328401040706e-003	1.004101e+001	1.004101e+000
2.117328401040705e-003	1.004075e+001	1.004075e+000
2.118328401040706e-003	1.004050e+001	1.004050e+000
2.119328401040706e-003	1.004024e+001	1.004024e+000
2.120328401040705e-003	1.003999e+001	1.003999e+000
2.121328401040705e-003	1.003974e+001	1.003974e+000
2.122328401040706e-003	1.003949e+001	1.003949e+000
2.123328401040705e-003	1.003925e+001	1.003925e+000
2.124328401040705e-003	1.003900e+001	1.003900e+000
2.125328401040706e-003	1.003876e+001	1.003876e+000
2.126328401040706e-003	1.003851e+001	1.003851e+000
2.127328401040705e-003	1.003827e+001	1.003827e+000
2.128328401040706e-003	1.003803e+001	1.003803e+000
2.129328401040706e-003	1.003779e+001	1.003779e+000
2.130328401040705e-003	1.003755e+001	1.003755e+000
2.131328401040706e-003	1.003732e+001	1.003732e+000
2.132328401040706e-003	1.003708e+001	1.003708e+000
2.133328401040705e-003	1.003685e+001	1.003685e+000
2.134328401040705e-003	1.003662e+001	1.003662e+000
2.135328401040706e-003	1.003638e+001	1.003639e+000
2.136328401040705e-003	1.003615e+001	1.003615e+000
2.137328401040705e-003	1.003593e+001	1.003593e+000
2.138328401040706e-003	1.003570e+001	1.003570e+000
2.139328401040706e-003	1.003547e+001	1.003547e+000
2.140328401040705e-003	1.003525e+001	1.003525e+000
2.141328401040706e-003	1.003502e+001	1.003502e+000
2.142328401040706e-003	1.003480e+001	1.003480e+000
2.143328401040705e-003	1.003458e+001	1.003458e+000
2.144328401040706e-003	1.003436e+001	1.003436e+000
2.145328401040706e-003	1.003414e+001	1.003414e+000
2.146328401040705e-003	1.003392e+001	1.003392e+000
2.147328401040705e-003	1.003371e+001	1.003371e+000
2.148328401040706e-003	1.003349e+001	1.003349e+000
2.149328401040705e-003	1.003328e+001	1.003328e+000
2.150328401040705e-003	1.003306e+001	1.003306e+000
2.151328401040706e-003	1.003285e+001	1.003285e+000
2.152328401040706e-003	1.003264e+001	1.003264e+000
2.153328401040705e-003	1.003243e+001	1.003243e+000
2.154328401040706e-003	1.003222e+001	1.003222e+000
2.155328401040706e-003	1.003201e+001	1.003201e+000
2.156328401040705e-003	1.003181e+001	1.003181e+000
2.157328401040705e-003	1.003160e+001	1.003160e+000
2.158328401040706e-003	1.003140e+001	1.003140e+000
2.159328401040705e-003	1.003120e+001	1.003120e+000
2.161328401040706e-003	1.003080e+001	1.003080e+000
2.162328401040706e-003	1.003060e+001	1.003060e+000
2.163328401040705e-003	1.003040e+001	1.003040e+000
2.164328401040706e-003	1.003020e+001	1.003020e+000
2.165328401040706e-003	1.003000e+001	1.003000e+000
2.166328401040705e-003	1.002981e+001	1.002981e+000
2.167328401040706e-003	1.002962e+001	1.002962e+000
2.168328401040706e-003	1.002942e+001	1.002942e+000
2.169328401040705e-003	1.002923e+001	1.002923e+000
2.170328401040705e-003	1.002904e+001	1.002904e+000
2.171328401040706e-003	1.002885e+001	1.002885e+000
2.172328401040705e-003	1.002866e+001	1.002866e+000
2.173328401040705e-003	1.002847e+001	1.002847e+000
2.174328401040706e-003	1.002829e+001	1.002829e+000
2.175328401040706e-003	1.002810e+001	1.002810e+000
2.176328401040705e-003	1.002792e+001	1.002792e+000
2.177328401040706e-003	1.002773e+001	1.002773e+000
2.178328401040706e-003	1.002755e+001	1.002755e+000
2.179328401040705e-003	1.002737e+001	1.002737e+000
2.180328401040706e-003	1.002719e+001	1.002719e+000
2.181328401040706e-003	1.002701e+001	1.002701e+000
2.182328401040705e-003	1.002683e+001	1.002683e+000
2.183328401040705e-003	1.002665e+001	1.002665e+000
2.184328401040706e-003	1.002648e+001	1.002648e+000
2.185328401040705e-003	1.002630e+001	1.002630e+000
2.186328401040705e-003	1.002613e+001	1.002613e+000
2.187328401040706e-003	1.002595e+001	1.002595e+000
2.188328401040706e-003	1.002578e+001	1.002578e+000
2.189328401040705e-003	1.002561e+001	1.002561e+000
2.190328401040706e-003	1.002544e+001	1.002544e+000
2.191328401040706e-003	1.002527e+001	1.002527e+000
2.192328401040705e-003	1.002510e+001	1.002510e+000
2.193328401040705e-003	1.002493e+001	1.002493e+000
2.194328401040706e-003	1.002476e+001	1.002476e+000
2.195328401040705e-003	1.002460e+001	1.002460e+000
2.196328401040705e-003	1.002443e+001	1.002443e+000
2.197328401040706e-003	1.002427e+001	1.002427e+000
2.198328401040705e-003	1.002410e+001	1.002410e+000
2.199328401040705e-003	1.002394e+001	1.002394e+000
2.200328401040706e-003	1.002378e+001	1.002378e+000
2.201328401040706e-003	1.002362e+001	1.002362e+000
2.202328401040705e-003	1.002346e+001	1.002346e+000
2.203328401040706e-003	1.002330e+001	1.002330e+000
2.204328401040706e-003	1.002314e+001	1.002314e+000
2.205328401040705e-003	1.002298e+001	1.002298e+000
2.206328401040705e-003	1.002283e+001	1.002283e+000
2.207328401040706e-003	1.002267e+001	1.002267e+000
2.208328401040705e-003	1.002252e+001	1.002252e+000
2.209328401040705e-003	1.002236e+001	1.002236e+000
2.210328401040706e-003	1.002221e+001	1.002221e+000
2.211328401040706e-003	1.002206e+001	1.002206e+000
2.212328401040705e-003	1.002190e+001	1.002190e+000
2.213328401040706e-003	1.002175e+001	1.002175e+000
2.214328401040706e-003	1.002160e+001	1.002161e+000
2.215328401040705e-003	1.002146e+001	1.002146e+000
2.216328401040706e-003	1.002131e+001	1.002131e+000
2.217328401040706e-003	1.002116e+001	1.002116e+000
2.218328401040705e-003	1.002101e+001	1.002101e+000
2.219328401040705e-003	1.002087e+001	1.002087e+000
2.220328401040706e-003	1.002072e+001	1.002072e+000
2.221328401040705e-003	1.002058e+001	1.002058e+000
2.222328401040705e-003	1.002044e+001	1.002044e+000
2.223328401040706e-003	1.002029e+001	1.002029e+000
2.224328401040706e-003	1.002015e+001	1.002015e+000
2.225328401040705e-003	1.002001e+001	1.002001e+000
2.226328401040706e-003	1.001987e+001	1.001987e+000
2.227328401040706e-003	1.001973e+001	1.001973e+000
2.228328401040705e-003	1.001959e+001	1.001959e+000
2.229328401040706e-003	1.001945e+001	1.001945e+000
2.230328401040706e-003	1.001932e+001	1.001932e+000
