time	V(vout)	-I(Rl)
0.000000000000000e+000	9.996057e+000	1.009602e-009
2.000000000000000e-003	9.996057e+000	1.009602e-009
2.000005111815881e-003	9.449243e+000	6.117224e-001
2.000015335447642e-003	9.195947e+000	9.195947e-001
2.000018462475747e-003	9.212454e+000	9.212454e-001
2.000020973034816e-003	9.226994e+000	9.226994e-001
2.000022730493190e-003	9.237371e+000	9.237372e-001
2.000024585698531e-003	9.248499e+000	9.248499e-001
2.000026463650210e-003	9.258884e+000	9.258884e-001
2.000029401354890e-003	9.275705e+000	9.275705e-001
2.000032716676289e-003	9.293641e+000	9.293641e-001
2.000036179346658e-003	9.311721e+000	9.311721e-001
2.000040424064669e-003	9.332537e+000	9.332536e-001
2.000044917741820e-003	9.353220e+000	9.353220e-001
2.000050174045298e-003	9.375374e+000	9.375374e-001
2.000056239463485e-003	9.398540e+000	9.398541e-001
2.000063135895510e-003	9.421782e+000	9.421781e-001
2.000071097085855e-003	9.444908e+000	9.444908e-001
2.000080734143739e-003	9.468204e+000	9.468204e-001
2.000091895608572e-003	9.489947e+000	9.489948e-001
2.000104857177567e-003	9.509455e+000	9.509454e-001
2.000122281627508e-003	9.529532e+000	9.529532e-001
2.000140566381420e-003	9.546836e+000	9.546835e-001
2.000155068375717e-003	9.560699e+000	9.560700e-001
2.000170288556361e-003	9.580308e+000	9.580308e-001
2.000185398872421e-003	9.612471e+000	9.612470e-001
2.000202717558175e-003	9.674307e+000	9.674307e-001
2.000221040858226e-003	9.775965e+000	9.775964e-001
2.000244808742008e-003	9.950118e+000	9.950118e-001
2.000254213631890e-003	1.003034e+001	1.003034e+000
2.000263145889200e-003	1.011214e+001	1.011214e+000
2.000267624935583e-003	1.015354e+001	1.015354e+000
2.000271613651291e-003	1.019041e+001	1.019041e+000
2.000274965810809e-003	1.022119e+001	1.022119e+000
2.000277794803851e-003	1.024693e+001	1.024693e+000
2.000280826212156e-003	1.027424e+001	1.027424e+000
2.000284059314395e-003	1.030287e+001	1.030287e+000
2.000289020157083e-003	1.034589e+001	1.034589e+000
2.000294518815090e-003	1.039224e+001	1.039224e+000
2.000299607531969e-003	1.043366e+001	1.043366e+000
2.000305155103331e-003	1.047718e+001	1.047718e+000
2.000308822759846e-003	1.050486e+001	1.050486e+000
2.000312325006099e-003	1.053022e+001	1.053022e+000
2.000316325265849e-003	1.055811e+001	1.055811e+000
2.000319124014320e-003	1.057692e+001	1.057692e+000
2.000321628504756e-003	1.059311e+001	1.059311e+000
2.000324865635497e-003	1.061324e+001	1.061324e+000
2.000328007429329e-003	1.063193e+001	1.063192e+000
2.000332189120815e-003	1.065534e+001	1.065534e+000
2.000337716516648e-003	1.068423e+001	1.068424e+000
2.000341876895033e-003	1.070432e+001	1.070432e+000
2.000346083352625e-003	1.072294e+001	1.072294e+000
2.000350201757691e-003	1.073940e+001	1.073940e+000
2.000356867528228e-003	1.076221e+001	1.076221e+000
2.000367828950932e-003	1.079175e+001	1.079175e+000
2.000379305663762e-003	1.081127e+001	1.081127e+000
2.000398526315952e-003	1.082187e+001	1.082187e+000
2.000420648295937e-003	1.081251e+001	1.081251e+000
2.000440482535107e-003	1.079260e+001	1.079260e+000
2.000460410043500e-003	1.077015e+001	1.077015e+000
2.000479967816371e-003	1.074945e+001	1.074945e+000
2.000502534796035e-003	1.072677e+001	1.072677e+000
2.000526493066559e-003	1.070340e+001	1.070340e+000
2.000549462509418e-003	1.068155e+001	1.068156e+000
2.000574287247797e-003	1.065856e+001	1.065856e+000
2.000601966558772e-003	1.063377e+001	1.063377e+000
2.000629987851086e-003	1.061099e+001	1.061100e+000
2.000657869750918e-003	1.059130e+001	1.059129e+000
2.000687054835271e-003	1.057089e+001	1.057089e+000
2.000720194522185e-003	1.054576e+001	1.054576e+000
2.000755958232264e-003	1.051765e+001	1.051765e+000
2.000796061158397e-003	1.048639e+001	1.048639e+000
2.000838510074500e-003	1.045424e+001	1.045424e+000
2.000892626462905e-003	1.041476e+001	1.041476e+000
2.000945595638252e-003	1.037783e+001	1.037783e+000
2.001024658007358e-003	1.032552e+001	1.032552e+000
2.001108529809290e-003	1.027318e+001	1.027317e+000
2.001205805348582e-003	1.021647e+001	1.021647e+000
2.001326051329385e-003	1.015159e+001	1.015159e+000
2.001475403661620e-003	1.007734e+001	1.007734e+000
2.001596966032518e-003	1.002160e+001	1.002160e+000
2.001697616629045e-003	9.978445e+000	9.978445e-001
2.001756530260661e-003	9.954332e+000	9.954332e-001
2.001814479656851e-003	9.931440e+000	9.931441e-001
2.001877529301517e-003	9.907234e+000	9.907234e-001
2.001921265521122e-003	9.890881e+000	9.890880e-001
2.001958567385074e-003	9.877274e+000	9.877273e-001
2.002001422745107e-003	9.861987e+000	9.861987e-001
2.002048707715138e-003	9.845503e+000	9.845502e-001
2.002098994711293e-003	9.828413e+000	9.828413e-001
2.002157607560893e-003	9.809089e+000	9.809088e-001
2.002236957285790e-003	9.783864e+000	9.783863e-001
2.002315748892062e-003	9.760422e+000	9.760422e-001
2.002430776914636e-003	9.730647e+000	9.730647e-001
2.002514077558857e-003	9.716037e+000	9.716037e-001
2.002594962187136e-003	9.712428e+000	9.712428e-001
2.002670188698979e-003	9.718730e+000	9.718730e-001
2.002721889746820e-003	9.727693e+000	9.727693e-001
2.002780297183039e-003	9.740131e+000	9.740132e-001
2.002833061303624e-003	9.751554e+000	9.751554e-001
2.002884952750942e-003	9.762252e+000	9.762251e-001
2.002947907526140e-003	9.774400e+000	9.774399e-001
2.003008194199436e-003	9.785431e+000	9.785430e-001
2.003084108692790e-003	9.798958e+000	9.798958e-001
2.003174646923579e-003	9.815109e+000	9.815109e-001
2.003294953878049e-003	9.836790e+000	9.836791e-001
2.003431166994025e-003	9.861367e+000	9.861367e-001
2.003599844726402e-003	9.891247e+000	9.891247e-001
2.003760025253468e-003	9.918156e+000	9.918156e-001
2.003921528158641e-003	9.942071e+000	9.942070e-001
2.004099339014236e-003	9.962828e+000	9.962827e-001
2.004258156217066e-003	9.975656e+000	9.975655e-001
2.004396803141913e-003	9.982549e+000	9.982549e-001
2.004559789452049e-003	9.987370e+000	9.987370e-001
2.004737532750970e-003	9.990499e+000	9.990499e-001
2.004949191515142e-003	9.992568e+000	9.992567e-001
2.005150737452000e-003	9.993520e+000	9.993519e-001
2.005553829325718e-003	9.994257e+000	9.994257e-001
2.006056294406895e-003	9.994559e+000	9.994560e-001
2.006535281628143e-003	9.994609e+000	9.994609e-001
2.007493256070640e-003	9.994614e+000	9.994614e-001
2.009134171902712e-003	9.994611e+000	9.994611e-001
2.012071968588425e-003	9.994603e+000	9.994603e-001
2.017567159826428e-003	9.994592e+000	9.994591e-001
2.024403097326428e-003	9.994578e+000	9.994578e-001
2.031239034826428e-003	9.994566e+000	9.994565e-001
2.038074972326428e-003	9.994554e+000	9.994555e-001
2.044910909826428e-003	9.994543e+000	9.994544e-001
2.051746847326428e-003	9.994534e+000	9.994534e-001
2.058582784826428e-003	9.994526e+000	9.994526e-001
2.065418722326428e-003	9.994518e+000	9.994518e-001
2.072254659826428e-003	9.994511e+000	9.994511e-001
2.079090597326428e-003	9.994504e+000	9.994504e-001
2.085926534826428e-003	9.994498e+000	9.994498e-001
2.092762472326428e-003	9.994493e+000	9.994494e-001
2.099598409826428e-003	9.994489e+000	9.994489e-001
2.106434347326428e-003	9.994484e+000	9.994484e-001
2.113270284826428e-003	9.994480e+000	9.994481e-001
2.120106222326428e-003	9.994477e+000	9.994477e-001
2.126942159826428e-003	9.994473e+000	9.994473e-001
2.133778097326428e-003	9.994471e+000	9.994471e-001
2.140614034826428e-003	9.994469e+000	9.994469e-001
2.147449972326428e-003	9.994467e+000	9.994466e-001
2.154285909826428e-003	9.994465e+000	9.994465e-001
2.161121847326428e-003	9.994463e+000	9.994463e-001
2.167957784826428e-003	9.994461e+000	9.994461e-001
2.174793722326428e-003	9.994460e+000	9.994460e-001
2.181629659826428e-003	9.994459e+000	9.994459e-001
2.188465597326428e-003	9.994457e+000	9.994458e-001
2.195301534826428e-003	9.994457e+000	9.994457e-001
2.202137472326428e-003	9.994456e+000	9.994456e-001
2.208973409826428e-003	9.994455e+000	9.994456e-001
2.215809347326428e-003	9.994455e+000	9.994456e-001
2.222645284826428e-003	9.994455e+000	9.994455e-001
2.229481222326428e-003	9.994455e+000	9.994455e-001
2.236317159826428e-003	9.994454e+000	9.994454e-001
2.243153097326428e-003	9.994454e+000	9.994454e-001
2.249989034826428e-003	9.994454e+000	9.994454e-001
2.256824972326428e-003	9.994454e+000	9.994454e-001
2.263660909826428e-003	9.994455e+000	9.994455e-001
2.270496847326428e-003	9.994455e+000	9.994455e-001
2.277332784826428e-003	9.994455e+000	9.994456e-001
2.284168722326428e-003	9.994455e+000	9.994456e-001
2.291004659826428e-003	9.994455e+000	9.994456e-001
2.297840597326428e-003	9.994456e+000	9.994456e-001
2.304676534826428e-003	9.994456e+000	9.994456e-001
2.311512472326428e-003	9.994457e+000	9.994457e-001
2.318348409826428e-003	9.994457e+000	9.994457e-001
2.325184347326428e-003	9.994457e+000	9.994457e-001
2.332020284826428e-003	9.994458e+000	9.994458e-001
2.338856222326428e-003	9.994458e+000	9.994459e-001
2.345692159826428e-003	9.994459e+000	9.994459e-001
2.352528097326428e-003	9.994459e+000	9.994459e-001
2.359364034826428e-003	9.994459e+000	9.994460e-001
2.366199972326428e-003	9.994460e+000	9.994460e-001
2.373035909826428e-003	9.994460e+000	9.994461e-001
2.379871847326428e-003	9.994461e+000	9.994461e-001
2.386707784826428e-003	9.994461e+000	9.994462e-001
2.393543722326428e-003	9.994462e+000	9.994462e-001
2.400379659826428e-003	9.994462e+000	9.994463e-001
2.407215597326428e-003	9.994463e+000	9.994463e-001
2.414051534826428e-003	9.994463e+000	9.994463e-001
2.420887472326428e-003	9.994464e+000	9.994464e-001
2.427723409826428e-003	9.994464e+000	9.994465e-001
2.434559347326428e-003	9.994465e+000	9.994465e-001
2.441395284826428e-003	9.994465e+000	9.994465e-001
2.448231222326428e-003	9.994466e+000	9.994466e-001
2.455067159826428e-003	9.994466e+000	9.994466e-001
2.461903097326428e-003	9.994467e+000	9.994466e-001
2.468739034826428e-003	9.994467e+000	9.994467e-001
2.475574972326428e-003	9.994467e+000	9.994467e-001
2.482410909826428e-003	9.994468e+000	9.994467e-001
2.489246847326428e-003	9.994468e+000	9.994468e-001
2.496082784826428e-003	9.994469e+000	9.994468e-001
2.502918722326428e-003	9.994469e+000	9.994469e-001
2.509754659826428e-003	9.994469e+000	9.994469e-001
2.516590597326428e-003	9.994469e+000	9.994469e-001
2.530262472326428e-003	9.994470e+000	9.994470e-001
2.537098409826428e-003	9.994471e+000	9.994470e-001
2.543934347326428e-003	9.994471e+000	9.994470e-001
2.550770284826428e-003	9.994471e+000	9.994471e-001
2.557606222326428e-003	9.994472e+000	9.994471e-001
2.564442159826428e-003	9.994472e+000	9.994472e-001
2.571278097326428e-003	9.994472e+000	9.994472e-001
2.578114034826428e-003	9.994473e+000	9.994472e-001
2.584949972326428e-003	9.994473e+000	9.994472e-001
2.591785909826428e-003	9.994473e+000	9.994472e-001
2.598621847326428e-003	9.994473e+000	9.994473e-001
2.605457784826428e-003	9.994473e+000	9.994473e-001
2.619129659826428e-003	9.994473e+000	9.994473e-001
2.625965597326428e-003	9.994473e+000	9.994473e-001
2.632801534826428e-003	9.994473e+000	9.994474e-001
2.639637472326428e-003	9.994474e+000	9.994474e-001
2.646473409826428e-003	9.994474e+000	9.994475e-001
2.653309347326428e-003	9.994474e+000	9.994475e-001
2.660145284826428e-003	9.994474e+000	9.994475e-001
2.666981222326428e-003	9.994474e+000	9.994475e-001
2.673817159826428e-003	9.994474e+000	9.994475e-001
2.680653097326428e-003	9.994475e+000	9.994475e-001
2.687489034826428e-003	9.994475e+000	9.994476e-001
2.694324972326428e-003	9.994476e+000	9.994476e-001
2.707996847326428e-003	9.994476e+000	9.994476e-001
2.721668722326428e-003	9.994476e+000	9.994476e-001
2.728504659826428e-003	9.994476e+000	9.994476e-001
2.735340597326428e-003	9.994476e+000	9.994476e-001
2.742176534826428e-003	9.994476e+000	9.994476e-001
2.749012472326428e-003	9.994476e+000	9.994476e-001
2.755848409826428e-003	9.994476e+000	9.994477e-001
2.762684347326428e-003	9.994476e+000	9.994477e-001
2.769520284826428e-003	9.994476e+000	9.994477e-001
2.776356222326428e-003	9.994476e+000	9.994477e-001
2.783192159826428e-003	9.994477e+000	9.994477e-001
2.796864034826428e-003	9.994477e+000	9.994477e-001
2.810535909826428e-003	9.994478e+000	9.994478e-001
2.824207784826428e-003	9.994478e+000	9.994478e-001
2.831043722326428e-003	9.994478e+000	9.994478e-001
2.837879659826428e-003	9.994478e+000	9.994478e-001
2.844715597326428e-003	9.994478e+000	9.994478e-001
2.851551534826428e-003	9.994478e+000	9.994478e-001
2.858387472326428e-003	9.994478e+000	9.994478e-001
2.872059347326428e-003	9.994478e+000	9.994478e-001
2.885731222326428e-003	9.994478e+000	9.994478e-001
2.899403097326428e-003	9.994478e+000	9.994478e-001
2.913074972326428e-003	9.994478e+000	9.994478e-001
2.933582784826428e-003	9.994478e+000	9.994479e-001
2.947254659826428e-003	9.994478e+000	9.994479e-001
2.960926534826428e-003	9.994478e+000	9.994479e-001
2.974598409826428e-003	9.994479e+000	9.994479e-001
2.995106222326428e-003	9.994479e+000	9.994479e-001
3.029285909826428e-003	9.994480e+000	9.994479e-001
3.063465597326428e-003	9.994480e+000	9.994479e-001
3.097645284826428e-003	9.994480e+000	9.994479e-001
3.131824972326428e-003	9.994480e+000	9.994479e-001
3.166004659826428e-003	9.994480e+000	9.994479e-001
3.200184347326428e-003	9.994480e+000	9.994479e-001
3.234364034826428e-003	9.994480e+000	9.994479e-001
3.289051534826428e-003	9.994480e+000	9.994479e-001
3.343739034826428e-003	9.994480e+000	9.994479e-001
3.398426534826428e-003	9.994480e+000	9.994479e-001
3.453114034826428e-003	9.994480e+000	9.994479e-001
3.507801534826428e-003	9.994480e+000	9.994480e-001
3.562489034826429e-003	9.994480e+000	9.994480e-001
3.617176534826428e-003	9.994480e+000	9.994480e-001
3.986317159826428e-003	9.994480e+000	9.994480e-001
3.993153097326428e-003	9.994481e+000	9.994481e-001
3.993164062500000e-003	9.994480e+000	9.994481e-001
3.993185992847144e-003	9.994480e+000	9.994479e-001
3.993229853541431e-003	9.994480e+000	9.994480e-001
3.993272045851207e-003	9.994480e+000	9.994480e-001
3.993356430470758e-003	9.994480e+000	9.994480e-001
3.993525199709860e-003	9.994480e+000	9.994480e-001
3.993862738188064e-003	9.994480e+000	9.994480e-001
3.994537815144473e-003	9.994480e+000	9.994480e-001
3.995887969057290e-003	9.994480e+000	9.994480e-001
3.997299692174366e-003	9.994480e+000	9.994480e-001
4.000000000000000e-003	1.044967e+001	5.017724e-001
4.000011138823861e-003	1.060966e+001	3.331463e-001
4.000033416471583e-003	1.092832e+001	1.103760e-009
4.000039294850317e-003	1.092273e+001	1.103195e-009
4.000041269205242e-003	1.092115e+001	1.103036e-009
4.000043205361996e-003	1.092078e+001	1.102999e-009
4.000045388533296e-003	1.091978e+001	1.102898e-009
4.000047473002538e-003	1.091916e+001	1.102835e-009
4.000051096036955e-003	1.091754e+001	1.102672e-009
4.000055191751135e-003	1.091598e+001	1.102514e-009
4.000059676872356e-003	1.091421e+001	1.102335e-009
4.000064747313088e-003	1.091228e+001	1.102141e-009
4.000070883597273e-003	1.090990e+001	1.101900e-009
4.000077806176419e-003	1.090727e+001	1.101634e-009
4.000085663138535e-003	1.090427e+001	1.101331e-009
4.000094973605406e-003	1.090077e+001	1.100978e-009
4.000105615293935e-003	1.089678e+001	1.100575e-009
4.000118055398183e-003	1.089218e+001	1.100110e-009
4.000132574701944e-003	1.088694e+001	1.099580e-009
4.000149613959695e-003	1.088155e+001	1.099036e-009
4.000167310943507e-003	1.087757e+001	1.098635e-009
4.000186072584160e-003	1.087447e+001	1.098322e-009
4.000203519500847e-003	1.087113e+001	1.097984e-009
4.000220651038692e-003	1.086685e+001	1.097551e-009
4.000238423860496e-003	1.086163e+001	1.097024e-009
4.000259322342861e-003	1.085492e+001	1.096347e-009
4.000279697278735e-003	1.084809e+001	1.095657e-009
4.000301431077625e-003	1.084065e+001	1.094906e-009
4.000322518747628e-003	1.083340e+001	1.094174e-009
4.000346109131445e-003	1.082534e+001	1.093359e-009
4.000372645734288e-003	1.081636e+001	1.092452e-009
4.000410155042094e-003	1.080386e+001	1.091190e-009
4.000441449176800e-003	1.079361e+001	1.090155e-009
4.000475745530534e-003	1.078260e+001	1.089043e-009
4.000512228367039e-003	1.077114e+001	1.087885e-009
4.000567887217961e-003	1.075409e+001	1.086163e-009
4.000626025312850e-003	1.073683e+001	1.084420e-009
4.000704910021717e-003	1.071432e+001	1.082147e-009
4.000807175158809e-003	1.068659e+001	1.079345e-009
4.000956462531321e-003	1.064884e+001	1.075533e-009
4.001181814727411e-003	1.059749e+001	1.070347e-009
4.001577055440745e-003	1.052137e+001	1.062659e-009
4.002339215137938e-003	1.040395e+001	1.050799e-009
4.003053705858201e-003	1.031978e+001	1.042298e-009
4.003793437125023e-003	1.025659e+001	1.035915e-009
4.004717853908360e-003	1.019935e+001	1.030135e-009
4.005464403702994e-003	1.016660e+001	1.026827e-009
4.006354793174092e-003	1.014129e+001	1.024271e-009
4.007881175083579e-003	1.011534e+001	1.021649e-009
4.009394847835648e-003	1.010204e+001	1.020306e-009
4.011658503326015e-003	1.009387e+001	1.019481e-009
4.013783311825637e-003	1.009104e+001	1.019195e-009
4.017662153444954e-003	1.008962e+001	1.019051e-009
4.021496281601543e-003	1.008912e+001	1.019001e-009
4.028332219101543e-003	1.008862e+001	1.018951e-009
4.035168156601543e-003	1.008812e+001	1.018900e-009
4.042004094101544e-003	1.008761e+001	1.018849e-009
4.048840031601543e-003	1.008711e+001	1.018799e-009
4.055675969101543e-003	1.008663e+001	1.018749e-009
4.062511906601543e-003	1.008614e+001	1.018700e-009
4.069347844101543e-003	1.008566e+001	1.018651e-009
4.076183781601543e-003	1.008517e+001	1.018602e-009
4.083019719101543e-003	1.008469e+001	1.018554e-009
4.089855656601543e-003	1.008421e+001	1.018505e-009
4.096691594101544e-003	1.008373e+001	1.018457e-009
4.103527531601543e-003	1.008325e+001	1.018408e-009
4.110363469101543e-003	1.008277e+001	1.018360e-009
4.117199406601543e-003	1.008229e+001	1.018312e-009
4.124035344101543e-003	1.008182e+001	1.018263e-009
4.130871281601543e-003	1.008134e+001	1.018215e-009
4.137707219101543e-003	1.008086e+001	1.018167e-009
4.144213052820903e-003	1.008041e+001	1.018121e-009
4.151048990320903e-003	1.007994e+001	1.018074e-009
4.157779649505974e-003	1.007947e+001	1.018026e-009
4.164615587005973e-003	1.007899e+001	1.017978e-009
4.171451524505973e-003	1.007852e+001	1.017931e-009
4.178287462005974e-003	1.007805e+001	1.017883e-009
4.185123399505973e-003	1.007758e+001	1.017835e-009
4.191959337005974e-003	1.007711e+001	1.017788e-009
4.198795274505974e-003	1.007664e+001	1.017740e-009
4.205631212005973e-003	1.007617e+001	1.017693e-009
4.212467149505974e-003	1.007570e+001	1.017646e-009
4.219303087005973e-003	1.007523e+001	1.017598e-009
4.226139024505973e-003	1.007476e+001	1.017551e-009
4.232974962005974e-003	1.007430e+001	1.017504e-009
4.239810899505973e-003	1.007383e+001	1.017457e-009
4.246646837005974e-003	1.007336e+001	1.017409e-009
4.253482774505974e-003	1.007290e+001	1.017363e-009
4.260318712005973e-003	1.007243e+001	1.017316e-009
4.267154649505974e-003	1.007197e+001	1.017269e-009
4.273990587005973e-003	1.007150e+001	1.017222e-009
4.280826524505973e-003	1.007104e+001	1.017175e-009
4.287662462005974e-003	1.007058e+001	1.017128e-009
4.294498399505973e-003	1.007012e+001	1.017082e-009
4.301334337005973e-003	1.006965e+001	1.017035e-009
4.308170274505974e-003	1.006919e+001	1.016988e-009
4.315006212005973e-003	1.006873e+001	1.016942e-009
4.321842149505974e-003	1.006827e+001	1.016895e-009
4.328678087005974e-003	1.006781e+001	1.016849e-009
4.335514024505973e-003	1.006735e+001	1.016803e-009
4.342349962005974e-003	1.006690e+001	1.016757e-009
4.349185899505973e-003	1.006644e+001	1.016710e-009
4.356021837005973e-003	1.006598e+001	1.016664e-009
4.362857774505974e-003	1.006553e+001	1.016618e-009
4.369693712005973e-003	1.006507e+001	1.016572e-009
4.376529649505974e-003	1.006462e+001	1.016526e-009
4.383365587005974e-003	1.006416e+001	1.016480e-009
4.390201524505973e-003	1.006371e+001	1.016434e-009
4.397037462005974e-003	1.006325e+001	1.016389e-009
4.403873399505973e-003	1.006280e+001	1.016343e-009
4.410709337005973e-003	1.006235e+001	1.016297e-009
4.417545274505974e-003	1.006190e+001	1.016251e-009
4.424381212005973e-003	1.006144e+001	1.016206e-009
4.431217149505973e-003	1.006099e+001	1.016160e-009
4.438053087005974e-003	1.006054e+001	1.016115e-009
4.444889024505973e-003	1.006009e+001	1.016069e-009
