time	V(vout)	-I(Rl)
0.000000000000000e+000	9.996057e+000	1.009602e-009
9.999999960041972e-012	9.996057e+000	1.009602e-009
1.156249995379853e-011	9.996057e+000	1.009603e-009
2.011562499953799e-009	9.996057e+000	1.017932e-009
1.010024011562500e-003	9.996057e+000	1.009602e-009
2.000000000000000e-003	9.996057e+000	1.009602e-009
2.000001976380875e-003	9.451308e+000	6.119289e-001
2.000005929142627e-003	9.152914e+000	9.152914e-001
2.000006698698202e-003	9.159443e+000	9.159442e-001
2.000007295047103e-003	9.162403e+000	9.162403e-001
2.000007770289712e-003	9.162958e+000	9.162958e-001
2.000007967296079e-003	9.163812e+000	9.163812e-001
2.000008111628972e-003	9.163667e+000	9.163667e-001
2.000008272440115e-003	9.164113e+000	9.164114e-001
2.000008423372787e-003	9.164551e+000	9.164551e-001
2.000008725238131e-003	9.165506e+000	9.165506e-001
2.000009328968819e-003	9.167604e+000	9.167604e-001
2.000010536430195e-003	9.172436e+000	9.172435e-001
2.000012951352947e-003	9.183581e+000	9.183581e-001
2.000015266932614e-003	9.195614e+000	9.195614e-001
2.000018467017240e-003	9.213595e+000	9.213595e-001
2.000021851029432e-003	9.233156e+000	9.233156e-001
2.000026691550010e-003	9.260945e+000	9.260945e-001
2.000031821794982e-003	9.289290e+000	9.289291e-001
2.000037131009082e-003	9.316877e+000	9.316878e-001
2.000042503284152e-003	9.342686e+000	9.342685e-001
2.000048411334212e-003	9.368551e+000	9.368551e-001
2.000054758996867e-003	9.393613e+000	9.393613e-001
2.000060701426934e-003	9.414539e+000	9.414540e-001
2.000067053909088e-003	9.434285e+000	9.434285e-001
2.000073969494304e-003	9.453009e+000	9.453008e-001
2.000082054245407e-003	9.471585e+000	9.471586e-001
2.000092374672281e-003	9.491134e+000	9.491134e-001
2.000104015552027e-003	9.508740e+000	9.508741e-001
2.000118373747110e-003	9.525819e+000	9.525819e-001
2.000133481068968e-003	9.540529e+000	9.540529e-001
2.000146122567913e-003	9.551726e+000	9.551727e-001
2.000156686728222e-003	9.561901e+000	9.561901e-001
2.000169055145446e-003	9.577268e+000	9.577268e-001
2.000180489674212e-003	9.598148e+000	9.598148e-001
2.000193149968755e-003	9.633917e+000	9.633917e-001
2.000207700870697e-003	9.695161e+000	9.695161e-001
2.000222868566754e-003	9.784132e+000	9.784132e-001
2.000240947385770e-003	9.917649e+000	9.917650e-001
2.000253331440476e-003	1.002241e+001	1.002241e+000
2.000259633349202e-003	1.007938e+001	1.007938e+000
2.000263083022184e-003	1.011115e+001	1.011115e+000
2.000265608046232e-003	1.013447e+001	1.013447e+000
2.000268285069939e-003	1.015918e+001	1.015918e+000
2.000270885564627e-003	1.018311e+001	1.018311e+000
2.000273693100273e-003	1.020883e+001	1.020883e+000
2.000275876339864e-003	1.022872e+001	1.022872e+000
2.000277797221216e-003	1.024610e+001	1.024610e+000
2.000279838329086e-003	1.026442e+001	1.026442e+000
2.000282301081508e-003	1.028630e+001	1.028630e+000
2.000285769541232e-003	1.031667e+001	1.031667e+000
2.000289400719160e-003	1.034783e+001	1.034782e+000
2.000294340836497e-003	1.038918e+001	1.038918e+000
2.000298350702602e-003	1.042180e+001	1.042180e+000
2.000303266084634e-003	1.046056e+001	1.046056e+000
2.000306410329822e-003	1.048460e+001	1.048460e+000
2.000309271762762e-003	1.050578e+001	1.050578e+000
2.000312499701922e-003	1.052888e+001	1.052889e+000
2.000316121016226e-003	1.055402e+001	1.055402e+000
2.000317799753162e-003	1.056531e+001	1.056531e+000
2.000319788866338e-003	1.057831e+001	1.057831e+000
2.000322388278748e-003	1.059482e+001	1.059482e+000
2.000324843160629e-003	1.060991e+001	1.060991e+000
2.000327759179517e-003	1.062714e+001	1.062714e+000
2.000330922647464e-003	1.064495e+001	1.064495e+000
2.000335604045284e-003	1.066990e+001	1.066990e+000
2.000338592404671e-003	1.068493e+001	1.068493e+000
2.000341474276970e-003	1.069854e+001	1.069854e+000
2.000344643732714e-003	1.071263e+001	1.071263e+000
2.000348155546631e-003	1.072713e+001	1.072713e+000
2.000352682647034e-003	1.074393e+001	1.074393e+000
2.000360275713546e-003	1.076814e+001	1.076814e+000
2.000368298459845e-003	1.078835e+001	1.078835e+000
2.000378939159298e-003	1.080594e+001	1.080594e+000
2.000394787405828e-003	1.081712e+001	1.081712e+000
2.000411145008349e-003	1.081391e+001	1.081391e+000
2.000427031313529e-003	1.080025e+001	1.080025e+000
2.000441562930969e-003	1.078362e+001	1.078362e+000
2.000455540503559e-003	1.076746e+001	1.076746e+000
2.000469332558722e-003	1.075257e+001	1.075257e+000
2.000486746702540e-003	1.073477e+001	1.073477e+000
2.000503372159332e-003	1.071829e+001	1.071829e+000
2.000522058738517e-003	1.070016e+001	1.070017e+000
2.000539482855461e-003	1.068359e+001	1.068359e+000
2.000559478160687e-003	1.066496e+001	1.066496e+000
2.000580224487381e-003	1.064602e+001	1.064602e+000
2.000600451987588e-003	1.062802e+001	1.062802e+000
2.000622951786877e-003	1.060939e+001	1.060939e+000
2.000644491591006e-003	1.059392e+001	1.059392e+000
2.000667690293439e-003	1.057850e+001	1.057850e+000
2.000690230909710e-003	1.056248e+001	1.056248e+000
2.000717974531932e-003	1.054128e+001	1.054128e+000
2.000746333685778e-003	1.051905e+001	1.051905e+000
2.000776029283405e-003	1.049584e+001	1.049584e+000
2.000808889180829e-003	1.047062e+001	1.047062e+000
2.000845496063454e-003	1.044324e+001	1.044324e+000
2.000884679188427e-003	1.041483e+001	1.041483e+000
2.000932989926033e-003	1.038109e+001	1.038109e+000
2.000999321690964e-003	1.033670e+001	1.033669e+000
2.001062528175054e-003	1.029636e+001	1.029636e+000
2.001136077721178e-003	1.025205e+001	1.025205e+000
2.001250053885292e-003	1.018741e+001	1.018741e+000
2.001340615107070e-003	1.013924e+001	1.013924e+000
2.001438461948404e-003	1.009032e+001	1.009032e+000
2.001500047055559e-003	1.006103e+001	1.006103e+000
2.001546212808571e-003	1.003995e+001	1.003995e+000
2.001586462081878e-003	1.002212e+001	1.002212e+000
2.001627956093217e-003	1.000420e+001	1.000420e+000
2.001670218446207e-003	9.986392e+000	9.986392e-001
2.001720390568933e-003	9.965754e+000	9.965753e-001
2.001772132551671e-003	9.944983e+000	9.944983e-001
2.001824916543081e-003	9.924299e+000	9.924300e-001
2.001863898658434e-003	9.909360e+000	9.909360e-001
2.001893723039099e-003	9.898160e+000	9.898160e-001
2.001927312125172e-003	9.885777e+000	9.885777e-001
2.001964380544130e-003	9.872352e+000	9.872352e-001
2.001999910321958e-003	9.859726e+000	9.859726e-001
2.002038875378859e-003	9.846150e+000	9.846150e-001
2.002079597066286e-003	9.832261e+000	9.832261e-001
2.002130818239882e-003	9.815193e+000	9.815193e-001
2.002182663438260e-003	9.798399e+000	9.798399e-001
2.002254992142671e-003	9.775794e+000	9.775795e-001
2.002327342106065e-003	9.754588e+000	9.754589e-001
2.002423705483079e-003	9.729481e+000	9.729481e-001
2.002483721338778e-003	9.717300e+000	9.717300e-001
2.002534152749335e-003	9.711719e+000	9.711719e-001
2.002595369340022e-003	9.710938e+000	9.710939e-001
2.002631647789464e-003	9.713676e+000	9.713676e-001
2.002663871870042e-003	9.718344e+000	9.718344e-001
2.002699517950866e-003	9.724949e+000	9.724948e-001
2.002732401300071e-003	9.731819e+000	9.731819e-001
2.002773847367420e-003	9.740870e+000	9.740869e-001
2.002821957785855e-003	9.751267e+000	9.751267e-001
2.002865187656048e-003	9.760232e+000	9.760232e-001
2.002907142659404e-003	9.768483e+000	9.768484e-001
2.002948783641451e-003	9.776283e+000	9.776284e-001
2.003007226980878e-003	9.786860e+000	9.786859e-001
2.003067183477456e-003	9.797545e+000	9.797545e-001
2.003158627081955e-003	9.813869e+000	9.813868e-001
2.003266282513418e-003	9.833266e+000	9.833266e-001
2.003373396649264e-003	9.852651e+000	9.852651e-001
2.003499796501917e-003	9.875388e+000	9.875388e-001
2.003598113948027e-003	9.892785e+000	9.892785e-001
2.003693557360855e-003	9.909160e+000	9.909160e-001
2.003804308616190e-003	9.927155e+000	9.927155e-001
2.003911003388786e-003	9.942686e+000	9.942687e-001
2.004050278737858e-003	9.959586e+000	9.959586e-001
2.004165703001153e-003	9.970339e+000	9.970339e-001
2.004272725405017e-003	9.977412e+000	9.977412e-001
2.004382404780163e-003	9.982437e+000	9.982436e-001
2.004499428565295e-003	9.986094e+000	9.986094e-001
2.004646131968109e-003	9.989132e+000	9.989132e-001
2.004813595261030e-003	9.991330e+000	9.991330e-001
2.004975620546587e-003	9.992539e+000	9.992540e-001
2.005242396639209e-003	9.993526e+000	9.993527e-001
2.005578818502693e-003	9.994075e+000	9.994075e-001
2.005947727575926e-003	9.994274e+000	9.994274e-001
2.006415093971226e-003	9.994333e+000	9.994333e-001
2.007349826761826e-003	9.994350e+000	9.994350e-001
2.008349826761826e-003	9.994350e+000	9.994351e-001
2.009349826761826e-003	9.994349e+000	9.994349e-001
2.010349826761826e-003	9.994349e+000	9.994348e-001
2.011349826761826e-003	9.994348e+000	9.994348e-001
2.012349826761826e-003	9.994347e+000	9.994347e-001
2.013349826761826e-003	9.994346e+000	9.994346e-001
2.014349826761826e-003	9.994345e+000	9.994345e-001
2.015349826761826e-003	9.994345e+000	9.994344e-001
2.016349826761826e-003	9.994344e+000	9.994344e-001
2.017349826761826e-003	9.994343e+000	9.994343e-001
2.018349826761826e-003	9.994342e+000	9.994342e-001
2.019349826761826e-003	9.994341e+000	9.994341e-001
2.020349826761826e-003	9.994341e+000	9.994341e-001
2.021349826761826e-003	9.994340e+000	9.994340e-001
2.022349826761826e-003	9.994339e+000	9.994339e-001
2.023349826761826e-003	9.994339e+000	9.994339e-001
2.024349826761826e-003	9.994338e+000	9.994338e-001
2.025349826761826e-003	9.994338e+000	9.994338e-001
2.026349826761826e-003	9.994337e+000	9.994337e-001
2.027349826761826e-003	9.994337e+000	9.994336e-001
2.028349826761826e-003	9.994336e+000	9.994336e-001
2.029349826761826e-003	9.994335e+000	9.994335e-001
2.030349826761826e-003	9.994335e+000	9.994335e-001
2.031349826761826e-003	9.994334e+000	9.994334e-001
2.032349826761826e-003	9.994333e+000	9.994334e-001
2.033349826761826e-003	9.994333e+000	9.994333e-001
2.034349826761826e-003	9.994333e+000	9.994333e-001
2.035349826761826e-003	9.994333e+000	9.994333e-001
2.036349826761826e-003	9.994332e+000	9.994332e-001
2.037349826761826e-003	9.994332e+000	9.994332e-001
2.038349826761826e-003	9.994331e+000	9.994332e-001
2.039349826761826e-003	9.994331e+000	9.994331e-001
2.040349826761826e-003	9.994330e+000	9.994331e-001
2.041349826761826e-003	9.994330e+000	9.994330e-001
2.042349826761826e-003	9.994330e+000	9.994330e-001
2.043349826761826e-003	9.994330e+000	9.994330e-001
2.044349826761826e-003	9.994329e+000	9.994330e-001
2.045349826761826e-003	9.994329e+000	9.994329e-001
2.046349826761826e-003	9.994329e+000	9.994329e-001
2.047349826761826e-003	9.994329e+000	9.994329e-001
2.048349826761826e-003	9.994328e+000	9.994329e-001
2.049349826761826e-003	9.994328e+000	9.994329e-001
2.050349826761826e-003	9.994328e+000	9.994328e-001
2.051349826761826e-003	9.994328e+000	9.994328e-001
2.052349826761826e-003	9.994328e+000	9.994328e-001
2.053349826761826e-003	9.994328e+000	9.994328e-001
2.054349826761826e-003	9.994328e+000	9.994328e-001
2.055349826761826e-003	9.994328e+000	9.994327e-001
2.056349826761826e-003	9.994328e+000	9.994327e-001
2.057349826761826e-003	9.994328e+000	9.994327e-001
2.058349826761826e-003	9.994328e+000	9.994327e-001
2.059349826761826e-003	9.994328e+000	9.994327e-001
2.060349826761826e-003	9.994328e+000	9.994327e-001
2.061349826761826e-003	9.994328e+000	9.994327e-001
2.062349826761826e-003	9.994328e+000	9.994327e-001
2.063349826761826e-003	9.994328e+000	9.994327e-001
2.064349826761826e-003	9.994327e+000	9.994327e-001
2.065349826761826e-003	9.994327e+000	9.994327e-001
2.066349826761826e-003	9.994327e+000	9.994327e-001
2.067349826761826e-003	9.994327e+000	9.994327e-001
2.068349826761826e-003	9.994327e+000	9.994327e-001
2.069349826761826e-003	9.994327e+000	9.994327e-001
2.070349826761826e-003	9.994327e+000	9.994327e-001
2.071349826761826e-003	9.994327e+000	9.994327e-001
2.072349826761826e-003	9.994327e+000	9.994327e-001
2.073349826761826e-003	9.994328e+000	9.994327e-001
2.074349826761826e-003	9.994328e+000	9.994327e-001
2.075349826761826e-003	9.994328e+000	9.994327e-001
2.076349826761826e-003	9.994328e+000	9.994327e-001
2.077349826761826e-003	9.994328e+000	9.994327e-001
2.078349826761826e-003	9.994328e+000	9.994327e-001
2.079349826761826e-003	9.994328e+000	9.994327e-001
2.081349826761826e-003	9.994328e+000	9.994327e-001
2.082349826761826e-003	9.994328e+000	9.994327e-001
2.083349826761826e-003	9.994328e+000	9.994328e-001
2.084349826761826e-003	9.994328e+000	9.994328e-001
2.085349826761826e-003	9.994328e+000	9.994328e-001
2.086349826761826e-003	9.994328e+000	9.994328e-001
2.087349826761826e-003	9.994328e+000	9.994328e-001
2.088349826761826e-003	9.994328e+000	9.994328e-001
2.089349826761826e-003	9.994328e+000	9.994328e-001
2.090349826761826e-003	9.994328e+000	9.994329e-001
2.091349826761826e-003	9.994329e+000	9.994329e-001
2.092349826761826e-003	9.994329e+000	9.994329e-001
2.093349826761826e-003	9.994329e+000	9.994329e-001
2.094349826761826e-003	9.994329e+000	9.994329e-001
2.095349826761826e-003	9.994329e+000	9.994329e-001
2.096349826761826e-003	9.994329e+000	9.994330e-001
2.097349826761826e-003	9.994329e+000	9.994330e-001
2.098349826761826e-003	9.994329e+000	9.994330e-001
2.099349826761826e-003	9.994330e+000	9.994330e-001
2.100349826761826e-003	9.994330e+000	9.994330e-001
2.101349826761826e-003	9.994331e+000	9.994330e-001
2.102349826761826e-003	9.994331e+000	9.994331e-001
2.103349826761826e-003	9.994331e+000	9.994331e-001
2.104349826761826e-003	9.994331e+000	9.994332e-001
2.105349826761826e-003	9.994331e+000	9.994332e-001
2.106349826761826e-003	9.994331e+000	9.994332e-001
2.107349826761826e-003	9.994332e+000	9.994332e-001
2.108349826761826e-003	9.994332e+000	9.994332e-001
2.109349826761826e-003	9.994333e+000	9.994333e-001
2.110349826761826e-003	9.994333e+000	9.994333e-001
2.111349826761826e-003	9.994333e+000	9.994333e-001
2.112349826761826e-003	9.994333e+000	9.994333e-001
2.113349826761826e-003	9.994333e+000	9.994333e-001
2.114349826761826e-003	9.994333e+000	9.994334e-001
2.115349826761826e-003	9.994334e+000	9.994334e-001
2.116349826761826e-003	9.994334e+000	9.994335e-001
2.117349826761826e-003	9.994335e+000	9.994335e-001
2.118349826761826e-003	9.994335e+000	9.994335e-001
2.119349826761826e-003	9.994335e+000	9.994335e-001
2.120349826761826e-003	9.994335e+000	9.994336e-001
2.121349826761826e-003	9.994336e+000	9.994336e-001
2.122349826761826e-003	9.994336e+000	9.994336e-001
2.123349826761826e-003	9.994337e+000	9.994336e-001
2.124349826761826e-003	9.994337e+000	9.994337e-001
2.125349826761826e-003	9.994337e+000	9.994337e-001
2.126349826761826e-003	9.994337e+000	9.994338e-001
2.127349826761826e-003	9.994338e+000	9.994338e-001
2.128349826761826e-003	9.994338e+000	9.994338e-001
2.129349826761826e-003	9.994339e+000	9.994339e-001
2.130349826761826e-003	9.994339e+000	9.994339e-001
2.131349826761826e-003	9.994339e+000	9.994339e-001
2.132349826761826e-003	9.994339e+000	9.994339e-001
2.133349826761826e-003	9.994340e+000	9.994340e-001
2.134349826761826e-003	9.994340e+000	9.994340e-001
2.135349826761826e-003	9.994341e+000	9.994341e-001
2.136349826761826e-003	9.994341e+000	9.994341e-001
2.137349826761826e-003	9.994341e+000	9.994341e-001
2.138349826761826e-003	9.994341e+000	9.994342e-001
2.139349826761826e-003	9.994342e+000	9.994342e-001
2.140349826761826e-003	9.994342e+000	9.994342e-001
2.141349826761826e-003	9.994343e+000	9.994342e-001
2.142349826761826e-003	9.994343e+000	9.994343e-001
2.143349826761826e-003	9.994344e+000	9.994344e-001
2.144349826761826e-003	9.994344e+000	9.994344e-001
2.145349826761826e-003	9.994345e+000	9.994344e-001
2.146349826761826e-003	9.994345e+000	9.994345e-001
2.147349826761826e-003	9.994345e+000	9.994345e-001
2.148349826761826e-003	9.994345e+000	9.994345e-001
2.149349826761826e-003	9.994346e+000	9.994345e-001
2.150349826761826e-003	9.994346e+000	9.994346e-001
2.151349826761826e-003	9.994347e+000	9.994346e-001
2.152349826761826e-003	9.994347e+000	9.994346e-001
2.154349826761826e-003	9.994348e+000	9.994347e-001
2.155349826761826e-003	9.994348e+000	9.994348e-001
2.156349826761826e-003	9.994349e+000	9.994348e-001
2.157349826761826e-003	9.994349e+000	9.994348e-001
2.158349826761826e-003	9.994349e+000	9.994349e-001
2.159349826761826e-003	9.994349e+000	9.994349e-001
2.160349826761826e-003	9.994349e+000	9.994349e-001
2.161349826761826e-003	9.994350e+000	9.994350e-001
2.162349826761826e-003	9.994350e+000	9.994351e-001
2.163349826761826e-003	9.994350e+000	9.994351e-001
2.164349826761826e-003	9.994351e+000	9.994351e-001
2.166349826761826e-003	9.994352e+000	9.994352e-001
2.167349826761826e-003	9.994352e+000	9.994352e-001
2.168349826761826e-003	9.994352e+000	9.994353e-001
2.169349826761826e-003	9.994353e+000	9.994353e-001
2.170349826761826e-003	9.994353e+000	9.994354e-001
2.171349826761826e-003	9.994354e+000	9.994354e-001
2.172349826761826e-003	9.994354e+000	9.994354e-001
2.173349826761826e-003	9.994355e+000	9.994355e-001
2.174349826761826e-003	9.994355e+000	9.994355e-001
2.175349826761826e-003	9.994356e+000	9.994355e-001
2.176349826761826e-003	9.994356e+000	9.994356e-001
2.178349826761826e-003	9.994357e+000	9.994357e-001
2.179349826761826e-003	9.994357e+000	9.994357e-001
2.180349826761826e-003	9.994358e+000	9.994358e-001
2.181349826761826e-003	9.994358e+000	9.994358e-001
2.182349826761826e-003	9.994358e+000	9.994358e-001
2.183349826761826e-003	9.994359e+000	9.994359e-001
2.184349826761826e-003	9.994359e+000	9.994359e-001
2.185349826761826e-003	9.994360e+000	9.994360e-001
2.186349826761826e-003	9.994360e+000	9.994360e-001
2.187349826761826e-003	9.994361e+000	9.994360e-001
2.188349826761826e-003	9.994361e+000	9.994361e-001
2.189349826761826e-003	9.994362e+000	9.994361e-001
2.190349826761826e-003	9.994362e+000	9.994361e-001
2.191349826761826e-003	9.994362e+000	9.994362e-001
2.192349826761826e-003	9.994363e+000	9.994363e-001
2.193349826761826e-003	9.994363e+000	9.994363e-001
2.194349826761826e-003	9.994364e+000	9.994364e-001
2.195349826761826e-003	9.994364e+000	9.994364e-001
2.196349826761826e-003	9.994364e+000	9.994364e-001
2.197349826761826e-003	9.994365e+000	9.994364e-001
2.198349826761826e-003	9.994365e+000	9.994365e-001
2.199349826761826e-003	9.994366e+000	9.994365e-001
2.200349826761826e-003	9.994366e+000	9.994366e-001
2.201349826761826e-003	9.994366e+000	9.994366e-001
2.202349826761826e-003	9.994367e+000	9.994367e-001
2.203349826761826e-003	9.994367e+000	9.994367e-001
2.204349826761826e-003	9.994368e+000	9.994367e-001
2.205349826761826e-003	9.994368e+000	9.994367e-001
2.206349826761826e-003	9.994368e+000	9.994369e-001
2.207349826761826e-003	9.994369e+000	9.994369e-001
2.208349826761826e-003	9.994369e+000	9.994369e-001
2.209349826761826e-003	9.994370e+000	9.994369e-001
2.210349826761826e-003	9.994370e+000	9.994370e-001
2.211349826761826e-003	9.994370e+000	9.994370e-001
2.212349826761826e-003	9.994370e+000	9.994371e-001
2.213349826761826e-003	9.994371e+000	9.994371e-001
2.215349826761826e-003	9.994371e+000	9.994372e-001
2.216349826761826e-003	9.994372e+000	9.994372e-001
2.217349826761826e-003	9.994372e+000	9.994373e-001
2.218349826761826e-003	9.994373e+000	9.994373e-001
2.219349826761826e-003	9.994373e+000	9.994373e-001
2.220349826761826e-003	9.994373e+000	9.994374e-001
2.221349826761826e-003	9.994374e+000	9.994375e-001
2.222349826761826e-003	9.994374e+000	9.994375e-001
2.223349826761826e-003	9.994375e+000	9.994375e-001
2.224349826761826e-003	9.994375e+000	9.994376e-001
2.225349826761826e-003	9.994376e+000	9.994376e-001
2.227349826761826e-003	9.994377e+000	9.994377e-001
2.228349826761826e-003	9.994377e+000	9.994377e-001
2.229349826761826e-003	9.994377e+000	9.994377e-001
2.230349826761826e-003	9.994378e+000	9.994378e-001
2.231349826761826e-003	9.994378e+000	9.994378e-001
2.232349826761826e-003	9.994379e+000	9.994379e-001
2.233349826761826e-003	9.994379e+000	9.994379e-001
2.234349826761826e-003	9.994379e+000	9.994379e-001
2.235349826761826e-003	9.994380e+000	9.994380e-001
2.236349826761826e-003	9.994380e+000	9.994380e-001
2.237349826761826e-003	9.994381e+000	9.994380e-001
2.239349826761826e-003	9.994381e+000	9.994382e-001
2.240349826761826e-003	9.994382e+000	9.994382e-001
2.241349826761826e-003	9.994382e+000	9.994382e-001
