time	V(vout)	-I(Rl)
0.000000000000000e+000	1.027415e+000	1.037689e-010
6.835937371718615e-011	1.027415e+000	1.037689e-010
1.367187474343723e-010	1.027415e+000	1.037689e-010
2.734374948687446e-010	1.027415e+000	1.037689e-010
5.468749897374892e-010	1.027415e+000	1.037689e-010
1.093749979474978e-009	1.027415e+000	1.037689e-010
2.187499958949957e-009	1.027415e+000	1.037689e-010
4.374999917899913e-009	1.027415e+000	1.037689e-010
8.749999835799827e-009	1.027415e+000	1.037689e-010
1.749999967159965e-008	1.027415e+000	1.037689e-010
6.999999868639861e-008	1.027415e+000	1.037689e-010
1.399999973727972e-007	1.027415e+000	1.037689e-010
5.599999894911889e-007	1.027415e+000	1.037689e-010
1.119999978982378e-006	1.027415e+000	1.037689e-010
2.239999957964756e-006	1.027415e+000	1.037689e-010
4.479999915929511e-006	1.027415e+000	1.037689e-010
8.959999831859022e-006	1.027415e+000	1.037689e-010
1.579593733185902e-005	1.027415e+000	1.037689e-010
2.263187483185902e-005	1.027415e+000	1.037689e-010
2.946781233185902e-005	1.027415e+000	1.037689e-010
3.630374983185902e-005	1.027415e+000	1.037689e-010
4.313968733185903e-005	1.027415e+000	1.037689e-010
4.997562483185903e-005	1.027415e+000	1.037689e-010
5.681156233185902e-005	1.027415e+000	1.037689e-010
6.364749983185902e-005	1.027415e+000	1.037689e-010
7.048343733185902e-005	1.027415e+000	1.037689e-010
7.731937483185903e-005	1.027415e+000	1.037689e-010
8.415531233185902e-005	1.027415e+000	1.037689e-010
9.099124983185903e-005	1.027415e+000	1.037689e-010
9.782718733185902e-005	1.027415e+000	1.037689e-010
1.046631248318590e-004	1.027415e+000	1.037689e-010
1.114990623318590e-004	1.027415e+000	1.037689e-010
1.183349998318590e-004	1.027415e+000	1.037689e-010
1.251709373318590e-004	1.027415e+000	1.037689e-010
1.320068748318590e-004	1.027415e+000	1.037689e-010
1.456787498318590e-004	1.027415e+000	1.037689e-010
1.525146873318590e-004	1.027415e+000	1.037689e-010
1.593506248318590e-004	1.027415e+000	1.037689e-010
1.661865623318590e-004	1.027415e+000	1.037689e-010
1.730224998318590e-004	1.027415e+000	1.037689e-010
1.798584373318590e-004	1.027415e+000	1.037689e-010
1.866943748318590e-004	1.027415e+000	1.037689e-010
1.935303123318590e-004	1.027415e+000	1.037689e-010
2.003662498318590e-004	1.027415e+000	1.037689e-010
2.072021873318590e-004	1.027415e+000	1.037689e-010
2.140381248318590e-004	1.027415e+000	1.037689e-010
2.208740623318590e-004	1.027415e+000	1.037689e-010
2.345459373318590e-004	1.027415e+000	1.037689e-010
2.482178123318590e-004	1.027415e+000	1.037689e-010
2.550537498318590e-004	1.027415e+000	1.037689e-010
2.618896873318590e-004	1.027415e+000	1.037689e-010
2.687256248318590e-004	1.027415e+000	1.037689e-010
2.755615623318590e-004	1.027415e+000	1.037689e-010
2.823974998318591e-004	1.027415e+000	1.037689e-010
2.892334373318590e-004	1.027415e+000	1.037689e-010
2.960693748318590e-004	1.027415e+000	1.037689e-010
3.097412498318590e-004	1.027415e+000	1.037689e-010
3.234131248318590e-004	1.027415e+000	1.037689e-010
3.370849998318590e-004	1.027415e+000	1.037689e-010
3.507568748318590e-004	1.027415e+000	1.037689e-010
3.712646873318590e-004	1.027415e+000	1.037689e-010
3.849365623318590e-004	1.027415e+000	1.037689e-010
3.986084373318590e-004	1.027415e+000	1.037689e-010
4.122803123318590e-004	1.027415e+000	1.037689e-010
4.259521873318590e-004	1.027415e+000	1.037689e-010
4.464599998318590e-004	1.027415e+000	1.037689e-010
4.855224998318590e-004	1.027415e+000	1.037689e-010
5.245849998318591e-004	1.027415e+000	1.037689e-010
5.636474998318591e-004	1.027415e+000	1.037689e-010
6.027099998318591e-004	1.027415e+000	1.037689e-010
6.417724998318590e-004	1.027415e+000	1.037689e-010
6.808349998318591e-004	1.027415e+000	1.037689e-010
7.198974998318590e-004	1.027415e+000	1.037689e-010
7.404053123318590e-004	1.027415e+000	1.037689e-010
7.609131248318590e-004	1.027415e+000	1.037689e-010
7.814209373318591e-004	1.027415e+000	1.037689e-010
8.019287498318591e-004	1.027415e+000	1.037689e-010
8.224365623318590e-004	1.027415e+000	1.037689e-010
8.429443748318591e-004	1.027415e+000	1.037689e-010
8.634521873318590e-004	1.027415e+000	1.037689e-010
9.171631248318591e-004	1.027415e+000	1.037689e-010
9.708740623318591e-004	1.027415e+000	1.037689e-010
1.024584999831859e-003	1.027415e+000	1.037689e-010
1.078295937331859e-003	1.027415e+000	1.037689e-010
1.132006874831859e-003	1.027415e+000	1.037689e-010
1.185717812331859e-003	1.027415e+000	1.037689e-010
1.239428749831859e-003	1.027415e+000	1.037689e-010
1.274584999831859e-003	1.027415e+000	1.037689e-010
1.309741249831859e-003	1.027415e+000	1.037689e-010
1.344897499831859e-003	1.027415e+000	1.037689e-010
1.380053749831859e-003	1.027415e+000	1.037689e-010
1.415209999831859e-003	1.027415e+000	1.037689e-010
1.450366249831859e-003	1.027415e+000	1.037689e-010
1.485522499831859e-003	1.027415e+000	1.037689e-010
1.532397499831859e-003	1.027415e+000	1.037689e-010
1.579272499831859e-003	1.027415e+000	1.037689e-010
1.626147499831859e-003	1.027415e+000	1.037689e-010
1.673022499831859e-003	1.027415e+000	1.037689e-010
1.719897499831859e-003	1.027415e+000	1.037689e-010
1.766772499831859e-003	1.027415e+000	1.037689e-010
1.813647499831859e-003	1.027415e+000	1.037689e-010
1.839801919546777e-003	1.027415e+000	1.037689e-010
1.865956339261694e-003	1.027415e+000	1.037689e-010
1.892110758976612e-003	1.027415e+000	1.037689e-010
1.918265178691529e-003	1.027415e+000	1.037689e-010
1.944419598406447e-003	1.027415e+000	1.037689e-010
1.970574018121365e-003	1.027415e+000	1.037689e-010
1.996728437836282e-003	1.027415e+000	1.037689e-010
2.000000000000000e-003	1.027415e+000	1.037689e-010
2.000013249966635e-003	7.034557e-001	3.609839e-001
2.000039749899906e-003	5.612086e-001	5.612086e-001
2.000044135712811e-003	5.668783e-001	5.668783e-001
2.000047453590471e-003	5.715922e-001	5.715922e-001
2.000050940578911e-003	5.763298e-001	5.763298e-001
2.000054530066674e-003	5.811895e-001	5.811895e-001
2.000058470416228e-003	5.863647e-001	5.863647e-001
2.000062755287849e-003	5.918330e-001	5.918330e-001
2.000069013430688e-003	5.994145e-001	5.994145e-001
2.000076995783818e-003	6.084639e-001	6.084639e-001
2.000089269414922e-003	6.210013e-001	6.210013e-001
2.000105045712475e-003	6.351044e-001	6.351044e-001
2.000121984681669e-003	6.479096e-001	6.479096e-001
2.000142154379417e-003	6.606327e-001	6.606327e-001
2.000159382272982e-003	6.697398e-001	6.697398e-001
2.000174519346902e-003	6.764991e-001	6.764991e-001
2.000190661165716e-003	6.827090e-001	6.827090e-001
2.000208148917349e-003	6.885608e-001	6.885608e-001
2.000233495523265e-003	6.962680e-001	6.962680e-001
2.000257390732892e-003	7.040592e-001	7.040592e-001
2.000279666828397e-003	7.144670e-001	7.144670e-001
2.000302163704754e-003	7.331678e-001	7.331678e-001
2.000326423320936e-003	7.678690e-001	7.678690e-001
2.000349284600620e-003	8.159565e-001	8.159565e-001
2.000374028706420e-003	8.787825e-001	8.787825e-001
2.000396592945515e-003	9.370484e-001	9.370484e-001
2.000411056261362e-003	9.708104e-001	9.708104e-001
2.000424335600349e-003	9.968768e-001	9.968768e-001
2.000436815082764e-003	1.016574e+000	1.016574e+000
2.000447963616066e-003	1.029716e+000	1.029716e+000
2.000459776899666e-003	1.039030e+000	1.039030e+000
2.000471020517459e-003	1.043089e+000	1.043089e+000
2.000493507753045e-003	1.042482e+000	1.042482e+000
2.000517854627049e-003	1.036975e+000	1.036975e+000
2.000534559084884e-003	1.032995e+000	1.032995e+000
2.000550997000385e-003	1.030203e+000	1.030203e+000
2.000567071365391e-003	1.027959e+000	1.027959e+000
2.000580202747815e-003	1.026108e+000	1.026108e+000
2.000595423543431e-003	1.023806e+000	1.023806e+000
2.000613269972252e-003	1.020906e+000	1.020906e+000
2.000632376315187e-003	1.017595e+000	1.017595e+000
2.000653787888887e-003	1.013703e+000	1.013703e+000
2.000675667741194e-003	1.009597e+000	1.009597e+000
2.000699572635375e-003	1.005027e+000	1.005027e+000
2.000722173365590e-003	1.000672e+000	1.000672e+000
2.000747683208859e-003	9.957533e-001	9.957533e-001
2.000775845143408e-003	9.903556e-001	9.903556e-001
2.000821957238105e-003	9.816273e-001	9.816273e-001
2.000860585144238e-003	9.744549e-001	9.744549e-001
2.000902543024585e-003	9.668871e-001	9.668871e-001
2.000948516142619e-003	9.591243e-001	9.591243e-001
2.001040462378686e-003	9.458684e-001	9.458684e-001
2.001130896803354e-003	9.376448e-001	9.376448e-001
2.001229045370377e-003	9.368017e-001	9.368017e-001
2.001313696420656e-003	9.432107e-001	9.432107e-001
2.001378064186139e-003	9.519333e-001	9.519333e-001
2.001450291545765e-003	9.633763e-001	9.633763e-001
2.001517935882298e-003	9.737398e-001	9.737398e-001
2.001591991777998e-003	9.836922e-001	9.836922e-001
2.001670859524838e-003	9.924511e-001	9.924511e-001
2.001755290065596e-003	9.999478e-001	9.999478e-001
2.001844932693497e-003	1.006062e+000	1.006062e+000
2.001990974974306e-003	1.013301e+000	1.013301e+000
2.002161484284322e-003	1.019044e+000	1.019044e+000
2.002330010866381e-003	1.022382e+000	1.022382e+000
2.002602851398074e-003	1.025079e+000	1.025079e+000
2.002945330557082e-003	1.026533e+000	1.026533e+000
2.003330490063335e-003	1.027071e+000	1.027071e+000
2.003734068300786e-003	1.027210e+000	1.027210e+000
2.004472382728714e-003	1.027245e+000	1.027245e+000
2.005661244375475e-003	1.027244e+000	1.027244e+000
2.007934654682382e-003	1.027232e+000	1.027232e+000
2.012481475296195e-003	1.027215e+000	1.027215e+000
2.019317412796195e-003	1.027201e+000	1.027201e+000
2.026153350296195e-003	1.027194e+000	1.027194e+000
2.032989287796195e-003	1.027193e+000	1.027193e+000
2.039825225296195e-003	1.027193e+000	1.027193e+000
2.046661162796195e-003	1.027194e+000	1.027194e+000
2.053497100296195e-003	1.027195e+000	1.027195e+000
2.060333037796195e-003	1.027197e+000	1.027197e+000
2.067168975296195e-003	1.027199e+000	1.027199e+000
2.074004912796195e-003	1.027200e+000	1.027200e+000
2.080840850296195e-003	1.027202e+000	1.027202e+000
2.087676787796195e-003	1.027203e+000	1.027203e+000
2.094512725296195e-003	1.027204e+000	1.027204e+000
2.101348662796195e-003	1.027205e+000	1.027205e+000
2.108184600296195e-003	1.027206e+000	1.027206e+000
2.115020537796195e-003	1.027207e+000	1.027207e+000
2.121856475296195e-003	1.027208e+000	1.027208e+000
2.128692412796195e-003	1.027209e+000	1.027209e+000
2.135528350296195e-003	1.027210e+000	1.027210e+000
2.142364287796195e-003	1.027210e+000	1.027210e+000
2.149200225296195e-003	1.027211e+000	1.027211e+000
2.156036162796195e-003	1.027212e+000	1.027212e+000
2.162872100296195e-003	1.027212e+000	1.027212e+000
2.169708037796195e-003	1.027213e+000	1.027213e+000
2.176543975296195e-003	1.027213e+000	1.027213e+000
2.183379912796195e-003	1.027214e+000	1.027214e+000
2.190215850296195e-003	1.027214e+000	1.027214e+000
2.197051787796195e-003	1.027215e+000	1.027215e+000
2.203887725296195e-003	1.027215e+000	1.027215e+000
2.210723662796195e-003	1.027215e+000	1.027215e+000
2.217559600296195e-003	1.027216e+000	1.027216e+000
2.224395537796195e-003	1.027216e+000	1.027216e+000
2.231231475296195e-003	1.027216e+000	1.027216e+000
2.238067412796195e-003	1.027217e+000	1.027217e+000
2.244903350296195e-003	1.027217e+000	1.027217e+000
2.251739287796195e-003	1.027217e+000	1.027217e+000
2.258575225296195e-003	1.027217e+000	1.027217e+000
2.265411162796195e-003	1.027218e+000	1.027218e+000
2.272247100296195e-003	1.027218e+000	1.027218e+000
2.279083037796195e-003	1.027218e+000	1.027218e+000
2.285918975296195e-003	1.027218e+000	1.027218e+000
2.292754912796195e-003	1.027218e+000	1.027218e+000
2.299590850296195e-003	1.027218e+000	1.027218e+000
2.306426787796195e-003	1.027219e+000	1.027219e+000
2.313262725296195e-003	1.027219e+000	1.027219e+000
2.320098662796195e-003	1.027219e+000	1.027219e+000
2.326934600296195e-003	1.027219e+000	1.027219e+000
2.333770537796195e-003	1.027219e+000	1.027219e+000
2.340606475296195e-003	1.027219e+000	1.027219e+000
2.347442412796195e-003	1.027219e+000	1.027219e+000
2.354278350296195e-003	1.027219e+000	1.027219e+000
2.361114287796195e-003	1.027219e+000	1.027219e+000
2.367950225296195e-003	1.027220e+000	1.027220e+000
2.374786162796195e-003	1.027220e+000	1.027220e+000
2.381622100296195e-003	1.027220e+000	1.027220e+000
2.388458037796195e-003	1.027220e+000	1.027220e+000
2.395293975296195e-003	1.027220e+000	1.027220e+000
2.402129912796195e-003	1.027220e+000	1.027220e+000
2.408965850296195e-003	1.027220e+000	1.027220e+000
2.415801787796195e-003	1.027220e+000	1.027220e+000
2.422637725296195e-003	1.027220e+000	1.027220e+000
2.429473662796195e-003	1.027220e+000	1.027220e+000
2.436309600296195e-003	1.027220e+000	1.027220e+000
2.443145537796195e-003	1.027220e+000	1.027220e+000
2.449981475296195e-003	1.027220e+000	1.027220e+000
2.456817412796195e-003	1.027220e+000	1.027220e+000
2.463653350296195e-003	1.027220e+000	1.027220e+000
2.470489287796195e-003	1.027220e+000	1.027220e+000
2.477325225296195e-003	1.027220e+000	1.027220e+000
2.484161162796195e-003	1.027220e+000	1.027220e+000
2.490997100296195e-003	1.027220e+000	1.027220e+000
2.497833037796195e-003	1.027220e+000	1.027220e+000
2.504668975296195e-003	1.027220e+000	1.027220e+000
2.511504912796195e-003	1.027220e+000	1.027220e+000
2.518340850296195e-003	1.027220e+000	1.027220e+000
2.525176787796195e-003	1.027220e+000	1.027220e+000
2.532012725296195e-003	1.027220e+000	1.027220e+000
2.538848662796195e-003	1.027220e+000	1.027220e+000
2.545684600296195e-003	1.027220e+000	1.027220e+000
2.552520537796195e-003	1.027220e+000	1.027220e+000
2.559356475296195e-003	1.027220e+000	1.027220e+000
2.566192412796195e-003	1.027220e+000	1.027220e+000
2.573028350296195e-003	1.027220e+000	1.027220e+000
2.579864287796195e-003	1.027220e+000	1.027220e+000
2.586700225296195e-003	1.027220e+000	1.027220e+000
2.593536162796195e-003	1.027220e+000	1.027220e+000
2.600372100296195e-003	1.027220e+000	1.027220e+000
2.607208037796195e-003	1.027220e+000	1.027220e+000
2.620879912796195e-003	1.027220e+000	1.027220e+000
2.627715850296195e-003	1.027220e+000	1.027220e+000
2.634551787796195e-003	1.027220e+000	1.027220e+000
2.641387725296195e-003	1.027220e+000	1.027220e+000
2.648223662796195e-003	1.027220e+000	1.027220e+000
2.655059600296195e-003	1.027220e+000	1.027220e+000
2.661895537796195e-003	1.027220e+000	1.027220e+000
2.668731475296195e-003	1.027220e+000	1.027220e+000
2.675567412796195e-003	1.027220e+000	1.027220e+000
2.682403350296195e-003	1.027220e+000	1.027220e+000
2.689239287796195e-003	1.027220e+000	1.027220e+000
2.696075225296195e-003	1.027220e+000	1.027220e+000
2.709747100296195e-003	1.027220e+000	1.027220e+000
2.716583037796195e-003	1.027220e+000	1.027220e+000
2.723418975296195e-003	1.027220e+000	1.027220e+000
2.730254912796195e-003	1.027220e+000	1.027220e+000
2.737090850296195e-003	1.027221e+000	1.027221e+000
2.743926787796195e-003	1.027221e+000	1.027221e+000
2.750762725296195e-003	1.027220e+000	1.027220e+000
2.757598662796195e-003	1.027220e+000	1.027220e+000
2.764434600296195e-003	1.027220e+000	1.027220e+000
2.771270537796195e-003	1.027220e+000	1.027220e+000
2.778106475296195e-003	1.027221e+000	1.027221e+000
2.784942412796195e-003	1.027221e+000	1.027221e+000
2.798614287796195e-003	1.027220e+000	1.027220e+000
2.812286162796195e-003	1.027220e+000	1.027220e+000
2.819122100296195e-003	1.027221e+000	1.027221e+000
2.825958037796195e-003	1.027221e+000	1.027221e+000
2.832793975296195e-003	1.027220e+000	1.027220e+000
2.839629912796195e-003	1.027220e+000	1.027220e+000
2.846465850296195e-003	1.027220e+000	1.027220e+000
2.853301787796195e-003	1.027220e+000	1.027220e+000
2.860137725296195e-003	1.027221e+000	1.027221e+000
2.866973662796195e-003	1.027221e+000	1.027221e+000
2.873809600296195e-003	1.027221e+000	1.027221e+000
2.887481475296195e-003	1.027220e+000	1.027220e+000
2.901153350296195e-003	1.027221e+000	1.027221e+000
2.914825225296195e-003	1.027221e+000	1.027221e+000
2.928497100296195e-003	1.027220e+000	1.027220e+000
2.949004912796195e-003	1.027221e+000	1.027221e+000
2.962676787796195e-003	1.027221e+000	1.027221e+000
2.976348662796195e-003	1.027220e+000	1.027220e+000
2.990020537796195e-003	1.027221e+000	1.027221e+000
3.010528350296195e-003	1.027220e+000	1.027220e+000
3.024200225296195e-003	1.027221e+000	1.027221e+000
3.044708037796195e-003	1.027221e+000	1.027221e+000
3.981231475296195e-003	1.027221e+000	1.027221e+000
3.988067412796195e-003	1.027221e+000	1.027221e+000
3.993164062500000e-003	1.027221e+000	1.027221e+000
4.000000000000000e-003	1.504845e+000	5.154304e-001
4.000027771174771e-003	1.667482e+000	3.422341e-001
4.000083313524316e-003	1.982930e+000	2.002759e-010
4.000099330510036e-003	1.976883e+000	1.996652e-010
4.000106572471325e-003	1.974860e+000	1.994609e-010
4.000112684196588e-003	1.973720e+000	1.993457e-010
4.000117675610984e-003	1.972310e+000	1.992033e-010
4.000121800557626e-003	1.971220e+000	1.990932e-010
4.000126045814368e-003	1.970067e+000	1.989768e-010
4.000129903139327e-003	1.969046e+000	1.988736e-010
4.000134327183310e-003	1.967838e+000	1.987516e-010
4.000139618674595e-003	1.966468e+000	1.986133e-010
4.000146029231441e-003	1.964810e+000	1.984458e-010
4.000154902572360e-003	1.962863e+000	1.982492e-010
4.000166423723924e-003	1.961239e+000	1.980852e-010
4.000182864284370e-003	1.960169e+000	1.979771e-010
4.000199572635878e-003	1.959017e+000	1.978607e-010
4.000215875995163e-003	1.956999e+000	1.976569e-010
4.000232476139239e-003	1.954046e+000	1.973586e-010
4.000250477609820e-003	1.950173e+000	1.969674e-010
4.000271798309731e-003	1.945083e+000	1.964534e-010
4.000293353868856e-003	1.939661e+000	1.959057e-010
4.000313673691709e-003	1.934427e+000	1.953771e-010
4.000334831684982e-003	1.928939e+000	1.948228e-010
4.000356756390059e-003	1.923259e+000	1.942491e-010
4.000383795850908e-003	1.916302e+000	1.935465e-010
4.000410059855377e-003	1.909606e+000	1.928702e-010
4.000434871448682e-003	1.903348e+000	1.922381e-010
4.000464161668558e-003	1.896045e+000	1.915006e-010
4.000493906450965e-003	1.888735e+000	1.907623e-010
4.000539205864761e-003	1.877808e+000	1.896586e-010
4.000611926512920e-003	1.860673e+000	1.879279e-010
4.000678525061072e-003	1.845420e+000	1.863874e-010
4.000761972943854e-003	1.827017e+000	1.845287e-010
4.000898234651699e-003	1.798265e+000	1.816248e-010
4.001042318872165e-003	1.769770e+000	1.787467e-010
4.001330487313097e-003	1.718073e+000	1.735253e-010
4.001781259643929e-003	1.648452e+000	1.664937e-010
4.002566188765367e-003	1.554839e+000	1.570387e-010
4.004136047008244e-003	1.419499e+000	1.433694e-010
4.004986879156004e-003	1.368740e+000	1.382428e-010
4.005768381536179e-003	1.336954e+000	1.350324e-010
4.006127065402459e-003	1.325705e+000	1.338962e-010
4.006590634921432e-003	1.314158e+000	1.327300e-010
4.007082721003840e-003	1.304215e+000	1.317257e-010
4.007658245179659e-003	1.295433e+000	1.308387e-010
4.008637925798179e-003	1.284988e+000	1.297838e-010
4.009696445787713e-003	1.278147e+000	1.290929e-010
4.011681596801516e-003	1.272165e+000	1.284887e-010
4.014750253512991e-003	1.268903e+000	1.281592e-010
4.020396993038237e-003	1.267604e+000	1.280280e-010
4.027232930538237e-003	1.267257e+000	1.279930e-010
4.034068868038238e-003	1.267065e+000	1.279736e-010
4.040904805538237e-003	1.266879e+000	1.279548e-010
4.047740743038237e-003	1.266693e+000	1.279361e-010
4.054576680538238e-003	1.266508e+000	1.279173e-010
4.061412618038237e-003	1.266322e+000	1.278985e-010
4.068248555538237e-003	1.266136e+000	1.278798e-010
4.075084493038238e-003	1.265951e+000	1.278610e-010
4.081920430538237e-003	1.265765e+000	1.278423e-010
4.088756368038238e-003	1.265579e+000	1.278235e-010
4.095592305538237e-003	1.265394e+000	1.278048e-010
4.102428243038237e-003	1.265208e+000	1.277860e-010
4.109264180538238e-003	1.265023e+000	1.277673e-010
4.116100118038237e-003	1.264837e+000	1.277485e-010
4.122936055538237e-003	1.264652e+000	1.277298e-010
4.129771993038238e-003	1.264466e+000	1.277111e-010
4.136607930538237e-003	1.264281e+000	1.276923e-010
4.143443868038238e-003	1.264095e+000	1.276736e-010
4.150279805538238e-003	1.263910e+000	1.276549e-010
4.157115743038237e-003	1.263724e+000	1.276362e-010
4.163951680538238e-003	1.263539e+000	1.276174e-010
4.170787618038237e-003	1.263354e+000	1.275987e-010
