time	-I(Rl)	V(vout)
0.000000000000000e+00	1.010747e-09	9.996056e+00
6.835937149674010e-09	1.010747e-09	9.996056e+00
1.367187429934802e-08	1.010747e-09	9.996056e+00
2.734374859869604e-08	1.010747e-09	9.996056e+00
5.468749719739208e-08	1.010747e-09	9.996056e+00
1.093749943947842e-07	1.010747e-09	9.996056e+00
2.187499887895683e-07	1.010747e-09	9.996056e+00
1.749999910316546e-06	1.010747e-09	9.996056e+00
1.993164062500000e-03	1.010747e-09	9.996056e+00
2.000000000000000e-03	1.010747e-09	9.996056e+00
2.000000125244618e-03	1.077905e+01	4.452505e+00
2.000001125244618e-03	1.476230e+01	1.476230e-02
2.000002125244617e-03	1.255429e+01	1.255429e-02
2.000003125244617e-03	1.208741e+01	1.208741e-02
2.000004125244617e-03	1.184530e+01	1.184531e-02
2.000005125244617e-03	1.174440e+01	1.174440e-02
2.000006125244617e-03	1.172259e+01	1.172259e-02
2.000006125244687e-03	1.172272e+01	1.172272e-02
2.000006125244825e-03	1.172299e+01	1.172299e-02
2.000006125244884e-03	1.172299e+01	1.172299e-02
2.000006125244944e-03	1.172299e+01	1.172299e-02
2.000006125245003e-03	1.172299e+01	1.172299e-02
2.000006125245122e-03	1.172299e+01	1.172299e-02
2.000006125245599e-03	1.172299e+01	1.172299e-02
2.000006125245719e-03	1.172299e+01	1.172299e-02
2.000006125245957e-03	1.172299e+01	1.172299e-02
2.000006250246017e-03	1.172428e+01	1.172428e-02
2.000007250246016e-03	1.179574e+01	1.179574e-02
2.000008250246016e-03	1.188694e+01	1.188694e-02
2.000008265871016e-03	1.188858e+01	1.188858e-02
2.000009265871016e-03	1.199232e+01	1.199232e-02
2.000010265871016e-03	1.208460e+01	1.208460e-02
2.000011265871016e-03	1.216557e+01	1.216557e-02
2.000011266115157e-03	1.216583e+01	1.216583e-02
2.000011266116110e-03	1.216580e+01	1.216580e-02
2.000011266119925e-03	1.216569e+01	1.216569e-02
2.000011266120044e-03	1.216569e+01	1.216569e-02
2.000012266120044e-03	1.221843e+01	1.221843e-02
2.000013266120044e-03	1.226019e+01	1.226019e-02
2.000014266120044e-03	1.228984e+01	1.228985e-02
2.000015266120044e-03	1.231094e+01	1.231094e-02
2.000016266120044e-03	1.232701e+01	1.232701e-02
2.000016391120044e-03	1.232896e+01	1.232896e-02
2.000016391120163e-03	1.232901e+01	1.232901e-02
2.000016391120640e-03	1.232924e+01	1.232924e-02
2.000016391121117e-03	1.232924e+01	1.232924e-02
2.000016391121236e-03	1.232924e+01	1.232924e-02
2.000016391121266e-03	1.232924e+01	1.232924e-02
2.000016391121743e-03	1.232924e+01	1.232924e-02
2.000016391122220e-03	1.232924e+01	1.232924e-02
2.000016391122340e-03	1.232924e+01	1.232924e-02
2.000017391122340e-03	1.233871e+01	1.233871e-02
2.000018391122339e-03	1.234644e+01	1.234644e-02
2.000019391122339e-03	1.234971e+01	1.234971e-02
2.000020391122339e-03	1.234536e+01	1.234536e-02
2.000021391122339e-03	1.233523e+01	1.233523e-02
2.000022391122339e-03	1.232456e+01	1.232456e-02
2.000023391122339e-03	1.231595e+01	1.231595e-02
2.000024391122339e-03	1.230934e+01	1.230934e-02
2.000025391122339e-03	1.230437e+01	1.230437e-02
2.000026391122339e-03	1.230101e+01	1.230101e-02
2.000027391122339e-03	1.229900e+01	1.229901e-02
2.000027641122339e-03	1.229882e+01	1.229882e-02
2.000028641122338e-03	1.229929e+01	1.229929e-02
2.000029641122338e-03	1.230070e+01	1.230070e-02
2.000030641122338e-03	1.230299e+01	1.230299e-02
2.000031641122338e-03	1.230593e+01	1.230593e-02
2.000032641122338e-03	1.230934e+01	1.230934e-02
2.000033641122338e-03	1.231309e+01	1.231309e-02
2.000034641122338e-03	1.231704e+01	1.231704e-02
2.000034766122338e-03	1.231754e+01	1.231754e-02
2.000034891122338e-03	1.231806e+01	1.231806e-02
2.000035891122338e-03	1.232225e+01	1.232225e-02
2.000036891122338e-03	1.232650e+01	1.232650e-02
2.000037891122337e-03	1.233081e+01	1.233081e-02
2.000038891122337e-03	1.233514e+01	1.233514e-02
2.000039891122337e-03	1.233948e+01	1.233948e-02
2.000040891122337e-03	1.234382e+01	1.234382e-02
2.000041891122337e-03	1.234838e+01	1.234838e-02
2.000041891122695e-03	1.234860e+01	1.234860e-02
2.000042891122695e-03	1.235253e+01	1.235253e-02
2.000043016122695e-03	1.235305e+01	1.235305e-02
2.000044016122695e-03	1.235740e+01	1.235740e-02
2.000044141122695e-03	1.235795e+01	1.235795e-02
2.000044266122694e-03	1.235850e+01	1.235850e-02
2.000045266122694e-03	1.236288e+01	1.236288e-02
2.000046266122694e-03	1.236731e+01	1.236731e-02
2.000047266122694e-03	1.237178e+01	1.237179e-02
2.000047516122694e-03	1.237292e+01	1.237292e-02
2.000048516122694e-03	1.237754e+01	1.237754e-02
2.000049516122694e-03	1.238226e+01	1.238226e-02
2.000050516122694e-03	1.238730e+01	1.238730e-02
2.000050516123886e-03	1.238752e+01	1.238752e-02
2.000051516123886e-03	1.239228e+01	1.239228e-02
2.000052516123886e-03	1.239738e+01	1.239738e-02
2.000052641123886e-03	1.239806e+01	1.239806e-02
2.000053641123886e-03	1.240366e+01	1.240366e-02
2.000054641123886e-03	1.240950e+01	1.240950e-02
2.000055641123885e-03	1.241569e+01	1.241569e-02
2.000056641123885e-03	1.242239e+01	1.242239e-02
2.000058641123885e-03	1.243693e+01	1.243693e-02
2.000059641123885e-03	1.244484e+01	1.244484e-02
2.000060641123885e-03	1.245345e+01	1.245345e-02
2.000061641123885e-03	1.246270e+01	1.246270e-02
2.000062641123885e-03	1.247265e+01	1.247265e-02
2.000063641123885e-03	1.248333e+01	1.248334e-02
2.000064641123885e-03	1.249482e+01	1.249482e-02
2.000065641123885e-03	1.250714e+01	1.250714e-02
2.000066641123884e-03	1.252034e+01	1.252034e-02
2.000067641123884e-03	1.253446e+01	1.253446e-02
2.000068641124838e-03	1.254952e+01	1.254952e-02
2.000069641124838e-03	1.256574e+01	1.256574e-02
2.000070641124838e-03	1.258274e+01	1.258274e-02
2.000071641124838e-03	1.260090e+01	1.260090e-02
2.000072641124838e-03	1.262013e+01	1.262013e-02
2.000073641124837e-03	1.264045e+01	1.264046e-02
2.000074641124837e-03	1.266189e+01	1.266189e-02
2.000075641368978e-03	1.268437e+01	1.268438e-02
2.000076641368978e-03	1.270824e+01	1.270824e-02
2.000077641368978e-03	1.273296e+01	1.273296e-02
2.000078641368978e-03	1.275893e+01	1.275893e-02
2.000079641368978e-03	1.278604e+01	1.278604e-02
2.000080641369455e-03	1.281424e+01	1.281425e-02
2.000081641369454e-03	1.284384e+01	1.284385e-02
2.000082641369454e-03	1.287431e+01	1.287431e-02
2.000083641369454e-03	1.290632e+01	1.290632e-02
2.000085641369454e-03	1.297270e+01	1.297271e-02
2.000085766369454e-03	1.297701e+01	1.297701e-02
2.000086766369454e-03	1.301264e+01	1.301264e-02
2.000087766369454e-03	1.304919e+01	1.304919e-02
2.000088766369454e-03	1.308694e+01	1.308694e-02
2.000089766369454e-03	1.312564e+01	1.312564e-02
2.000089891369454e-03	1.313060e+01	1.313060e-02
2.000090891369453e-03	1.317125e+01	1.317125e-02
2.000091891369453e-03	1.321292e+01	1.321292e-02
2.000092891369453e-03	1.325594e+01	1.325594e-02
2.000093885866371e-03	1.330044e+01	1.330044e-02
2.000095874860206e-03	1.339555e+01	1.339555e-02
2.000099852847876e-03	1.360745e+01	1.360745e-02
2.000105424385813e-03	1.393728e+01	1.393728e-02
2.000106691434328e-03	1.401928e+01	1.401929e-02
2.000106691434478e-03	1.401936e+01	1.401936e-02
2.000106691434781e-03	1.401951e+01	1.401951e-02
2.000106691435258e-03	1.401951e+01	1.401951e-02
2.000107691435258e-03	1.408890e+01	1.408891e-02
2.000108691435258e-03	1.415944e+01	1.415944e-02
2.000108707060258e-03	1.416074e+01	1.416074e-02
2.000108707061212e-03	1.416086e+01	1.416086e-02
2.000109707061212e-03	1.423374e+01	1.423375e-02
2.000110707061211e-03	1.430801e+01	1.430801e-02
2.000111707061211e-03	1.438396e+01	1.438396e-02
2.000112707061211e-03	1.446145e+01	1.446145e-02
2.000113707061211e-03	1.454043e+01	1.454043e-02
2.000114707061211e-03	1.462080e+01	1.462080e-02
2.000115610856001e-03	1.469478e+01	1.469478e-02
2.000117418445581e-03	1.484656e+01	1.484656e-02
2.000121033624741e-03	1.515754e+01	1.515754e-02
2.000122033624741e-03	1.524537e+01	1.524537e-02
2.000122033624764e-03	1.524544e+01	1.524544e-02
2.000122033624809e-03	1.524558e+01	1.524558e-02
2.000123033624809e-03	1.532960e+01	1.532960e-02
2.000124033624809e-03	1.540950e+01	1.540950e-02
2.000125033624809e-03	1.548640e+01	1.548640e-02
2.000126033624809e-03	1.556247e+01	1.556247e-02
2.000127033624809e-03	1.563784e+01	1.563784e-02
2.000128033624809e-03	1.571178e+01	1.571178e-02
2.000129033624808e-03	1.578344e+01	1.578344e-02
2.000130033624808e-03	1.585169e+01	1.585169e-02
2.000131033624808e-03	1.591475e+01	1.591475e-02
2.000132033624808e-03	1.596966e+01	1.596966e-02
2.000133033624808e-03	1.601052e+01	1.601052e-02
2.000134033624808e-03	1.602358e+01	1.602358e-02
2.000135033624808e-03	1.597707e+01	1.597707e-02
2.000136033624808e-03	1.585311e+01	1.585311e-02
2.000137033624808e-03	1.571858e+01	1.571858e-02
2.000138033624808e-03	1.568685e+01	1.568685e-02
2.000139033624808e-03	1.577374e+01	1.577374e-02
2.000140033624807e-03	1.590037e+01	1.590037e-02
2.000141033624807e-03	1.601887e+01	1.601887e-02
2.000142033624807e-03	1.612596e+01	1.612596e-02
2.000143033624807e-03	1.622547e+01	1.622547e-02
2.000144033624807e-03	1.632282e+01	1.632282e-02
2.000144049249807e-03	1.632435e+01	1.632435e-02
2.000145049249807e-03	1.642264e+01	1.642264e-02
2.000146049249807e-03	1.652179e+01	1.652179e-02
2.000147049249807e-03	1.662219e+01	1.662219e-02
2.000148049249807e-03	1.672390e+01	1.672390e-02
2.000149049249807e-03	1.682695e+01	1.682695e-02
2.000150049249807e-03	1.693138e+01	1.693138e-02
2.000151049249806e-03	1.703720e+01	1.703720e-02
2.000152049249806e-03	1.714409e+01	1.714409e-02
2.000152174249806e-03	1.715753e+01	1.715753e-02
2.000152299249806e-03	1.717106e+01	1.717106e-02
2.000153299249806e-03	1.728029e+01	1.728029e-02
2.000154299249806e-03	1.739070e+01	1.739070e-02
2.000155299249806e-03	1.750251e+01	1.750251e-02
2.000156299249806e-03	1.761575e+01	1.761575e-02
2.000157299249806e-03	1.773045e+01	1.773045e-02
2.000158299249806e-03	1.784659e+01	1.784659e-02
2.000159299249806e-03	1.796416e+01	1.796416e-02
2.000160299249805e-03	1.808318e+01	1.808318e-02
2.000161299249805e-03	1.820366e+01	1.820366e-02
2.000162299249805e-03	1.832560e+01	1.832560e-02
2.000163299249805e-03	1.844901e+01	1.844901e-02
2.000164301202930e-03	1.857395e+01	1.857395e-02
2.000165301202930e-03	1.870057e+01	1.870057e-02
2.000166301202930e-03	1.882830e+01	1.882830e-02
2.000167295482016e-03	1.895705e+01	1.895705e-02
2.000169284040187e-03	1.921788e+01	1.921788e-02
2.000170284040187e-03	1.935107e+01	1.935107e-02
2.000171284040187e-03	1.948630e+01	1.948630e-02
2.000172284040187e-03	1.962303e+01	1.962303e-02
2.000173284040187e-03	1.976125e+01	1.976125e-02
2.000174284040187e-03	1.990085e+01	1.990085e-02
2.000175363589911e-03	2.005306e+01	2.005306e-02
2.000176363589911e-03	2.019573e+01	2.019573e-02
2.000177363589911e-03	2.033973e+01	2.033973e-02
2.000177502614964e-03	2.035991e+01	2.035991e-02
2.000178502614964e-03	2.050626e+01	2.050626e-02
2.000179502614963e-03	2.065382e+01	2.065383e-02
2.000180502614963e-03	2.080280e+01	2.080280e-02
2.000181648189685e-03	2.097548e+01	2.097549e-02
2.000183939339129e-03	2.132447e+01	2.132448e-02
2.000184064339129e-03	2.134369e+01	2.134370e-02
2.000184189339129e-03	2.136311e+01	2.136311e-02
2.000185189339129e-03	2.151953e+01	2.151953e-02
2.000186189339129e-03	2.167715e+01	2.167715e-02
2.000187189339129e-03	2.183593e+01	2.183593e-02
2.000187314339129e-03	2.185592e+01	2.185592e-02
2.000188314339128e-03	2.201703e+01	2.201703e-02
2.000189314339128e-03	2.217927e+01	2.217927e-02
2.000190552205916e-03	2.238140e+01	2.238140e-02
2.000190861672613e-03	2.243227e+01	2.243227e-02
2.000191480606007e-03	2.253477e+01	2.253478e-02
2.000192718472794e-03	2.274130e+01	2.274130e-02
2.000193718472794e-03	2.290986e+01	2.290986e-02
2.000194718472794e-03	2.307993e+01	2.307993e-02
2.000194880246579e-03	2.310776e+01	2.310776e-02
2.000194880247533e-03	2.310797e+01	2.310797e-02
2.000195880247533e-03	2.328005e+01	2.328005e-02
2.000196880247533e-03	2.345345e+01	2.345346e-02
2.000197880247532e-03	2.362836e+01	2.362837e-02
2.000198880247532e-03	2.380473e+01	2.380473e-02
2.000199880247532e-03	2.398264e+01	2.398265e-02
2.000200880247532e-03	2.416200e+01	2.416201e-02
2.000201880247532e-03	2.434275e+01	2.434275e-02
2.000202880247532e-03	2.452490e+01	2.452490e-02
2.000203850972086e-03	2.470276e+01	2.470277e-02
2.000204026003333e-03	2.473502e+01	2.473503e-02
2.000205026003333e-03	2.492014e+01	2.492014e-02
2.000205151003333e-03	2.494338e+01	2.494338e-02
2.000206151003333e-03	2.513040e+01	2.513041e-02
2.000207144096765e-03	2.531723e+01	2.531723e-02
2.000208144096765e-03	2.550673e+01	2.550673e-02
2.000209144096765e-03	2.569759e+01	2.569759e-02
2.000210144096765e-03	2.588981e+01	2.588981e-02
2.000211167592624e-03	2.608792e+01	2.608792e-02
2.000212167592624e-03	2.628269e+01	2.628269e-02
2.000213220673009e-03	2.648905e+01	2.648905e-02
2.000214220673526e-03	2.668636e+01	2.668636e-02
2.000215220673526e-03	2.688529e+01	2.688529e-02
2.000216282918819e-03	2.709752e+01	2.709752e-02
2.000217780999599e-03	2.739982e+01	2.739982e-02
2.000220777161159e-03	2.801054e+01	2.801054e-02
2.000221777161159e-03	2.821643e+01	2.821643e-02
2.000222840512039e-03	2.843729e+01	2.843730e-02
2.000223840512039e-03	2.864626e+01	2.864626e-02
2.000224840512039e-03	2.885645e+01	2.885646e-02
2.000225840512038e-03	2.906773e+01	2.906774e-02
2.000226840512038e-03	2.928004e+01	2.928004e-02
2.000227756761689e-03	2.947548e+01	2.947548e-02
2.000228756761689e-03	2.968978e+01	2.968978e-02
2.000229756761689e-03	2.990505e+01	2.990505e-02
2.000230756761688e-03	3.012129e+01	3.012129e-02
2.000231756761688e-03	3.033846e+01	3.033846e-02
2.000233756761688e-03	3.077550e+01	3.077551e-02
2.000235756761688e-03	3.121597e+01	3.121597e-02
2.000236756761688e-03	3.143723e+01	3.143723e-02
2.000236881761688e-03	3.146496e+01	3.146496e-02
2.000237881761688e-03	3.168742e+01	3.168742e-02
2.000238881761688e-03	3.191045e+01	3.191045e-02
2.000239881761688e-03	3.213420e+01	3.213420e-02
2.000240881761687e-03	3.235862e+01	3.235862e-02
2.000241881761687e-03	3.258368e+01	3.258368e-02
2.000242881761687e-03	3.280934e+01	3.280934e-02
2.000243881761687e-03	3.303558e+01	3.303558e-02
2.000244881761687e-03	3.326226e+01	3.326226e-02
2.000245131762164e-03	3.331921e+01	3.331921e-02
2.000246131762164e-03	3.354651e+01	3.354651e-02
2.000247131762164e-03	3.377415e+01	3.377415e-02
2.000248131762164e-03	3.400256e+01	3.400256e-02
2.000249131762164e-03	3.423151e+01	3.423152e-02
2.000251131762163e-03	3.469036e+01	3.469037e-02
2.000255131762164e-03	3.561015e+01	3.561015e-02
2.000263131762164e-03	3.744569e+01	3.744569e-02
2.000275731514048e-03	4.026596e+01	4.026596e-02
2.000296368404778e-03	4.455444e+01	4.455444e-02
2.000320217084961e-03	4.877983e+01	4.877983e-02
2.000346434186420e-03	5.229705e+01	5.229705e-02
2.000375198898804e-03	5.473573e+01	5.473574e-02
2.000422678888515e-03	5.687534e+01	5.687534e-02
2.000447570676677e-03	5.740083e+01	5.740083e-02
2.000447570685360e-03	5.740100e+01	5.740101e-02
2.000447695685360e-03	5.740171e+01	5.740172e-02
2.000447695715878e-03	5.740176e+01	5.740177e-02
2.000447695776912e-03	5.740185e+01	5.740185e-02
2.000447695898983e-03	5.740182e+01	5.740183e-02
2.000448695898983e-03	5.740596e+01	5.740596e-02
2.000449695898983e-03	5.741002e+01	5.741002e-02
2.000450918311839e-03	5.741450e+01	5.741451e-02
2.000453363137551e-03	5.742150e+01	5.742151e-02
2.000458252788977e-03	5.742926e+01	5.742927e-02
2.000466352777769e-03	5.742871e+01	5.742871e-02
2.000475072648333e-03	5.741106e+01	5.741107e-02
2.000486264953106e-03	5.736422e+01	5.736423e-02
2.000502497785495e-03	5.725989e+01	5.725990e-02
2.000525734575333e-03	5.706361e+01	5.706361e-02
2.000541811005398e-03	5.689952e+01	5.689953e-02
2.000560881737192e-03	5.667681e+01	5.667682e-02
2.000578597143607e-03	5.645337e+01	5.645337e-02
2.000581358562000e-03	5.641653e+01	5.641654e-02
2.000586881398787e-03	5.633978e+01	5.633979e-02
2.000597927072360e-03	5.617945e+01	5.617946e-02
2.000620018419505e-03	5.583287e+01	5.583288e-02
2.000653477326844e-03	5.524255e+01	5.524256e-02
2.000693489425311e-03	5.437243e+01	5.437244e-02
2.000764889279371e-03	5.211255e+01	5.211255e-02
2.000893454781624e-03	4.649101e+01	4.649102e-02
2.000961523934623e-03	4.293270e+01	4.293270e-02
2.000963053023562e-03	4.284817e+01	4.284818e-02
2.000966111201440e-03	4.268029e+01	4.268030e-02
2.000966875745910e-03	4.263823e+01	4.263824e-02
2.000968404834849e-03	4.255416e+01	4.255417e-02
2.000969404834849e-03	4.249928e+01	4.249929e-02
2.000969529834849e-03	4.249243e+01	4.249243e-02
2.000970529834849e-03	4.243744e+01	4.243744e-02
2.000970529838663e-03	4.243736e+01	4.243737e-02
2.000970529846293e-03	4.243722e+01	4.243722e-02
2.000970529846770e-03	4.243722e+01	4.243722e-02
2.000970545471770e-03	4.243654e+01	4.243654e-02
2.000971545471770e-03	4.238207e+01	4.238208e-02
2.000972545471769e-03	4.232744e+01	4.232744e-02
2.000974545471769e-03	4.221825e+01	4.221825e-02
2.000975545471769e-03	4.216374e+01	4.216374e-02
2.000977545471769e-03	4.205494e+01	4.205494e-02
2.000980770020988e-03	4.188009e+01	4.188009e-02
2.000987219119427e-03	4.153263e+01	4.153263e-02
2.001000117316304e-03	4.084637e+01	4.084638e-02
2.001025913710057e-03	3.950655e+01	3.950656e-02
2.001077506497564e-03	3.692355e+01	3.692355e-02
2.001147200557260e-03	3.359413e+01	3.359413e-02
2.001239164196344e-03	2.942993e+01	2.942993e-02
2.001339590730805e-03	2.526390e+01	2.526390e-02
2.001427516110973e-03	2.227427e+01	2.227427e-02
2.001529320494993e-03	1.966272e+01	1.966272e-02
2.001580902708889e-03	1.866855e+01	1.866855e-02
2.001657796513827e-03	1.750793e+01	1.750793e-02
2.001722395972660e-03	1.668522e+01	1.668522e-02
2.001783031972406e-03	1.602224e+01	1.602224e-02
2.001811068134309e-03	1.574880e+01	1.574880e-02
2.001845224868604e-03	1.543990e+01	1.543990e-02
2.001876047609779e-03	1.517514e+01	1.517514e-02
2.001911760602870e-03	1.489045e+01	1.489045e-02
2.001983186589054e-03	1.436912e+01	1.436912e-02
2.002052324047423e-03	1.392122e+01	1.392122e-02
2.002187679752829e-03	1.316554e+01	1.316554e-02
2.002328691244826e-03	1.249560e+01	1.249560e-02
2.002499168693395e-03	1.179420e+01	1.179420e-02
2.002523931909388e-03	1.170212e+01	1.170212e-02
2.002555371815809e-03	1.159302e+01	1.159302e-02
2.002591947657342e-03	1.146981e+01	1.146981e-02
2.002628195555964e-03	1.135155e+01	1.135155e-02
2.002666892469098e-03	1.122974e+01	1.122974e-02
2.002721165585022e-03	1.106546e+01	1.106547e-02
2.002781208141986e-03	1.089151e+01	1.089151e-02
2.002849531663173e-03	1.070325e+01	1.070325e-02
2.002933085666718e-03	1.048621e+01	1.048621e-02
2.003050916526853e-03	1.020086e+01	1.020086e-02
2.003195465247971e-03	9.876502e+00	9.876503e-03
2.003327995406086e-03	9.601398e+00	9.601399e-03
2.003460294411500e-03	9.349975e+00	9.349975e-03
2.003724892422329e-03	8.896419e+00	8.896420e-03
2.004089049450834e-03	8.341375e+00	8.341376e-03
2.004479066468472e-03	7.831048e+00	7.831049e-03
2.005259100503748e-03	6.988369e+00	6.988369e-03
2.006519978671862e-03	5.884157e+00	5.884158e-03
2.007773508205267e-03	5.080363e+00	5.080363e-03
2.008778968470053e-03	4.873352e+00	4.873353e-03
2.009455429305588e-03	5.158710e+00	5.158711e-03
2.010025577399638e-03	5.597315e+00	5.597316e-03
2.010290611568286e-03	5.785112e+00	5.785112e-03
2.010543814083038e-03	5.961126e+00	5.961127e-03
2.010841538568957e-03	6.170399e+00	6.170399e-03
2.011095325654054e-03	6.284515e+00	6.284516e-03
2.011407030381939e-03	6.309371e+00	6.309372e-03
2.011633109948761e-03	6.265700e+00	6.265701e-03
2.011898465731546e-03	6.188188e+00	6.188189e-03
2.011966852673340e-03	6.169679e+00	6.169680e-03
2.012017009058354e-03	6.156849e+00	6.156850e-03
2.012028910323661e-03	6.153682e+00	6.153683e-03
2.012043989127787e-03	6.149522e+00	6.149522e-03
2.012062142107007e-03	6.144372e+00	6.144373e-03
2.012085292393981e-03	6.137616e+00	6.137616e-03
2.012108482752325e-03	6.130656e+00	6.130657e-03
2.012136109283457e-03	6.122165e+00	6.122166e-03
2.012166471308034e-03	6.112684e+00	6.112684e-03
2.012207947430876e-03	6.099697e+00	6.099698e-03
2.012275886382119e-03	6.078764e+00	6.078765e-03
2.012347757770873e-03	6.057363e+00	6.057363e-03
2.012428824020935e-03	6.034152e+00	6.034152e-03
2.012531956640473e-03	6.005243e+00	6.005244e-03
2.012738221879547e-03	5.947625e+00	5.947625e-03
2.012990272296440e-03	5.877984e+00	5.877984e-03
2.013258352946710e-03	5.806138e+00	5.806138e-03
2.013657273305185e-03	5.702903e+00	5.702903e-03
2.014073699809910e-03	5.599551e+00	5.599551e-03
