time	-I(Rl)	V(vout)
0.000000000000000e+00	1.009601e-09	9.996057e+00
2.000000000000000e-03	1.009601e-09	9.996057e+00
2.000000079872123e-03	2.300728e+01	4.245485e-02
2.000000080184124e-03	2.294553e+01	2.294554e-02
2.000000080193874e-03	2.294216e+01	2.294216e-02
2.000001080193874e-03	1.552742e+01	1.552742e-02
2.000002080193874e-03	1.259156e+01	1.259156e-02
2.000003080193873e-03	1.209883e+01	1.209884e-02
2.000004080193874e-03	1.184642e+01	1.184642e-02
2.000005080193874e-03	1.171574e+01	1.171574e-02
2.000005184751474e-03	1.170681e+01	1.170681e-02
2.000005393866675e-03	1.169385e+01	1.169385e-02
2.000005812097078e-03	1.168380e+01	1.168380e-02
2.000006648557883e-03	1.170301e+01	1.170301e-02
2.000007490912826e-03	1.176118e+01	1.176118e-02
2.000008243393705e-03	1.183948e+01	1.183948e-02
2.000008936042898e-03	1.191748e+01	1.191749e-02
2.000009593758291e-03	1.198630e+01	1.198630e-02
2.000010242038038e-03	1.204782e+01	1.204782e-02
2.000010931682228e-03	1.210449e+01	1.210449e-02
2.000011981845287e-03	1.217185e+01	1.217186e-02
2.000013381470737e-03	1.223308e+01	1.223309e-02
2.000015091713288e-03	1.227665e+01	1.227665e-02
2.000017286473147e-03	1.230592e+01	1.230592e-02
2.000019286946537e-03	1.231588e+01	1.231588e-02
2.000020577829980e-03	1.231002e+01	1.231002e-02
2.000021989001878e-03	1.229532e+01	1.229532e-02
2.000023296768945e-03	1.228382e+01	1.228382e-02
2.000024978585506e-03	1.227550e+01	1.227550e-02
2.000026758582458e-03	1.227248e+01	1.227248e-02
2.000028751420456e-03	1.227394e+01	1.227394e-02
2.000030895554655e-03	1.227886e+01	1.227886e-02
2.000033845671034e-03	1.228871e+01	1.228871e-02
2.000036686088214e-03	1.229975e+01	1.229975e-02
2.000041116881452e-03	1.231766e+01	1.231766e-02
2.000047601406306e-03	1.234451e+01	1.234451e-02
2.000053418442128e-03	1.237206e+01	1.237206e-02
2.000058669761415e-03	1.240572e+01	1.240572e-02
2.000064572453292e-03	1.246161e+01	1.246161e-02
2.000070349296020e-03	1.254545e+01	1.254545e-02
2.000077930943674e-03	1.271034e+01	1.271034e-02
2.000086918819534e-03	1.297566e+01	1.297566e-02
2.000092170957170e-03	1.317083e+01	1.317083e-02
2.000096252672426e-03	1.335143e+01	1.335143e-02
2.000100044967167e-03	1.354408e+01	1.354409e-02
2.000104073498936e-03	1.377893e+01	1.377893e-02
2.000109032511100e-03	1.410618e+01	1.410618e-02
2.000112925036941e-03	1.439009e+01	1.439009e-02
2.000116374553892e-03	1.465566e+01	1.465566e-02
2.000118153597208e-03	1.478994e+01	1.478994e-02
2.000119144134443e-03	1.486153e+01	1.486153e-02
2.000120075228234e-03	1.492850e+01	1.492851e-02
2.000120861812590e-03	1.498531e+01	1.498531e-02
2.000121622682512e-03	1.503972e+01	1.503972e-02
2.000123131350394e-03	1.514579e+01	1.514579e-02
2.000124823267938e-03	1.525673e+01	1.525673e-02
2.000128207103026e-03	1.542344e+01	1.542344e-02
2.000131026080894e-03	1.539549e+01	1.539549e-02
2.000132862317140e-03	1.522874e+01	1.522875e-02
2.000134064170802e-03	1.515279e+01	1.515279e-02
2.000134723389310e-03	1.519278e+01	1.519279e-02
2.000135104195147e-03	1.523767e+01	1.523768e-02
2.000135491786766e-03	1.528176e+01	1.528176e-02
2.000135846784800e-03	1.532208e+01	1.532208e-02
2.000136294301496e-03	1.537204e+01	1.537204e-02
2.000136982703525e-03	1.544777e+01	1.544777e-02
2.000137646612042e-03	1.551848e+01	1.551848e-02
2.000138488992558e-03	1.560314e+01	1.560314e-02
2.000139472189485e-03	1.569615e+01	1.569615e-02
2.000140048690902e-03	1.574812e+01	1.574812e-02
2.000140787935033e-03	1.581329e+01	1.581329e-02
2.000141485066402e-03	1.587479e+01	1.587479e-02
2.000142345810155e-03	1.595159e+01	1.595159e-02
2.000143776997827e-03	1.608202e+01	1.608202e-02
2.000146386415292e-03	1.632855e+01	1.632855e-02
2.000150573761305e-03	1.674326e+01	1.674327e-02
2.000154477564511e-03	1.715659e+01	1.715660e-02
2.000161658713173e-03	1.797779e+01	1.797779e-02
2.000168342763696e-03	1.882348e+01	1.882348e-02
2.000181710864741e-03	2.074501e+01	2.074501e-02
2.000198383316201e-03	2.347622e+01	2.347622e-02
2.000213819135070e-03	2.635890e+01	2.635890e-02
2.000232115859205e-03	3.013845e+01	3.013846e-02
2.000243946772838e-03	3.274555e+01	3.274556e-02
2.000254725495213e-03	3.520925e+01	3.520925e-02
2.000265448164095e-03	3.766940e+01	3.766941e-02
2.000283507350572e-03	4.168176e+01	4.168176e-02
2.000303031938703e-03	4.565043e+01	4.565044e-02
2.000324514575646e-03	4.941951e+01	4.941951e-02
2.000339351885748e-03	5.155640e+01	5.155640e-02
2.000352868384867e-03	5.310358e+01	5.310358e-02
2.000366311650903e-03	5.428082e+01	5.428082e-02
2.000388754771327e-03	5.565055e+01	5.565055e-02
2.000416827049468e-03	5.674947e+01	5.674948e-02
2.000429739586209e-03	5.703919e+01	5.703919e-02
2.000435557462388e-03	5.711452e+01	5.711452e-02
2.000438390328978e-03	5.714163e+01	5.714164e-02
2.000441700373555e-03	5.716687e+01	5.716688e-02
2.000445486639450e-03	5.719068e+01	5.719069e-02
2.000449030859682e-03	5.720737e+01	5.720738e-02
2.000454786713456e-03	5.722493e+01	5.722494e-02
2.000460372692207e-03	5.723147e+01	5.723148e-02
2.000469044794810e-03	5.722274e+01	5.722275e-02
2.000480925727151e-03	5.718074e+01	5.718074e-02
2.000502058044343e-03	5.704039e+01	5.704039e-02
2.000537868656045e-03	5.670389e+01	5.670390e-02
2.000556772376710e-03	5.648480e+01	5.648481e-02
2.000570899175778e-03	5.629701e+01	5.629702e-02
2.000587328795138e-03	5.605961e+01	5.605961e-02
2.000605339522506e-03	5.577801e+01	5.577801e-02
2.000625805659440e-03	5.542876e+01	5.542877e-02
2.000649398413289e-03	5.498113e+01	5.498113e-02
2.000680075536157e-03	5.432825e+01	5.432826e-02
2.000702342139445e-03	5.379268e+01	5.379268e-02
2.000722864573752e-03	5.323250e+01	5.323251e-02
2.000745169444563e-03	5.254296e+01	5.254297e-02
2.000769283466191e-03	5.169614e+01	5.169614e-02
2.000792375621141e-03	5.077586e+01	5.077587e-02
2.000815675928495e-03	4.972512e+01	4.972512e-02
2.000849909358563e-03	4.800833e+01	4.800833e-02
2.000899471289309e-03	4.535483e+01	4.535484e-02
2.000953693266592e-03	4.241550e+01	4.241550e-02
2.001018956261602e-03	3.898885e+01	3.898885e-02
2.001086012951575e-03	3.565114e+01	3.565114e-02
2.001155408120664e-03	3.238360e+01	3.238361e-02
2.001236275439383e-03	2.876213e+01	2.876213e-02
2.001315676414499e-03	2.545271e+01	2.545272e-02
2.001388690655517e-03	2.287325e+01	2.287325e-02
2.001480815829880e-03	2.032352e+01	2.032352e-02
2.001533799746384e-03	1.918903e+01	1.918903e-02
2.001586437394213e-03	1.829036e+01	1.829036e-02
2.001642879165876e-03	1.746876e+01	1.746876e-02
2.001699643450634e-03	1.675646e+01	1.675646e-02
2.001759671601269e-03	1.609818e+01	1.609819e-02
2.001797201617700e-03	1.573131e+01	1.573131e-02
2.001832074831933e-03	1.541644e+01	1.541644e-02
2.001862414519043e-03	1.515759e+01	1.515759e-02
2.001899516500132e-03	1.486195e+01	1.486195e-02
2.001951088590199e-03	1.448151e+01	1.448151e-02
2.002011278662057e-03	1.407719e+01	1.407719e-02
2.002095444449557e-03	1.356932e+01	1.356932e-02
2.002183958613293e-03	1.309388e+01	1.309389e-02
2.002287594144618e-03	1.260239e+01	1.260239e-02
2.002403055402507e-03	1.211256e+01	1.211256e-02
2.002472313322234e-03	1.184396e+01	1.184397e-02
2.002506763260909e-03	1.171901e+01	1.171901e-02
2.002543296090973e-03	1.159228e+01	1.159228e-02
2.002587028027950e-03	1.144613e+01	1.144613e-02
2.002635435481450e-03	1.129068e+01	1.129068e-02
2.002686907987108e-03	1.113285e+01	1.113285e-02
2.002763147768444e-03	1.091077e+01	1.091077e-02
2.002842847676991e-03	1.069116e+01	1.069116e-02
2.002929523071691e-03	1.046658e+01	1.046658e-02
2.003028473682432e-03	1.022694e+01	1.022694e-02
2.003162583799203e-03	9.924900e+00	9.924902e-03
2.003300051506209e-03	9.641483e+00	9.641484e-03
2.003554261859522e-03	9.174706e+00	9.174705e-03
2.003963640198039e-03	8.523301e+00	8.523301e-03
2.004522177423618e-03	7.770014e+00	7.770015e-03
2.005109555389192e-03	7.096415e+00	7.096415e-03
2.005593755777848e-03	6.634084e+00	6.634085e-03
2.005968006200995e-03	6.424839e+00	6.424840e-03
2.006189220988394e-03	6.522833e+00	6.522833e-03
2.006398480708486e-03	6.861013e+00	6.861013e-03
2.006510948199358e-03	7.099397e+00	7.099397e-03
2.006636643904035e-03	7.346870e+00	7.346871e-03
2.006740305197262e-03	7.516965e+00	7.516965e-03
2.006854619288265e-03	7.687088e+00	7.687089e-03
2.006962716907474e-03	7.843537e+00	7.843538e-03
2.007066892069061e-03	7.966222e+00	7.966223e-03
2.007176116898292e-03	8.017996e+00	8.017997e-03
2.007289870048596e-03	7.981767e+00	7.981768e-03
2.007349420261609e-03	7.935069e+00	7.935070e-03
2.007413939829868e-03	7.882536e+00	7.882537e-03
2.007485163884711e-03	7.844076e+00	7.844076e-03
2.007571099551409e-03	7.822218e+00	7.822218e-03
2.007648925781174e-03	7.809500e+00	7.809501e-03
2.007732464525521e-03	7.783186e+00	7.783187e-03
2.007816120276724e-03	7.737078e+00	7.737079e-03
2.007886694834986e-03	7.690104e+00	7.690104e-03
2.007969639003270e-03	7.640494e+00	7.640495e-03
2.008047661710567e-03	7.607120e+00	7.607121e-03
2.008133792110462e-03	7.580685e+00	7.580685e-03
2.008234595428105e-03	7.547222e+00	7.547223e-03
2.008329882188723e-03	7.504274e+00	7.504275e-03
2.008421731287273e-03	7.455966e+00	7.455966e-03
2.008530972217810e-03	7.402993e+00	7.402993e-03
2.008633663950330e-03	7.362891e+00	7.362892e-03
2.008745811229690e-03	7.322913e+00	7.322914e-03
2.008872951209442e-03	7.271284e+00	7.271285e-03
2.009007567660960e-03	7.211229e+00	7.211230e-03
2.009149681034255e-03	7.152003e+00	7.152003e-03
2.009292440035216e-03	7.098821e+00	7.098821e-03
2.009447991170584e-03	7.039873e+00	7.039874e-03
2.009613472367558e-03	6.973574e+00	6.973575e-03
2.009791379126550e-03	6.905237e+00	6.905237e-03
2.009979205183731e-03	6.837466e+00	6.837467e-03
2.010211297979859e-03	6.752996e+00	6.752997e-03
2.010426864261644e-03	6.675112e+00	6.675113e-03
2.010683832446717e-03	6.586752e+00	6.586753e-03
2.010989320214106e-03	6.483824e+00	6.483824e-03
2.011281582485857e-03	6.387434e+00	6.387435e-03
2.011642705516502e-03	6.273576e+00	6.273576e-03
2.012065315875884e-03	6.144521e+00	6.144521e-03
2.012470001315765e-03	6.025913e+00	6.025914e-03
2.012949081391467e-03	5.892335e+00	5.892336e-03
2.013505688089604e-03	5.744729e+00	5.744730e-03
2.014230252536997e-03	5.564173e+00	5.564173e-03
2.014894360340857e-03	5.409624e+00	5.409624e-03
2.015739632702855e-03	5.227338e+00	5.227339e-03
2.016558197317889e-03	5.064468e+00	5.064468e-03
2.017462137775808e-03	4.899812e+00	4.899812e-03
2.018461980651964e-03	4.734772e+00	4.734772e-03
2.019690415216031e-03	4.554626e+00	4.554627e-03
2.021421276274792e-03	4.329474e+00	4.329475e-03
2.022241627675961e-03	4.233370e+00	4.233370e-03
2.022386874326532e-03	4.217454e+00	4.217455e-03
2.022677367627675e-03	4.186439e+00	4.186439e-03
2.022923351559935e-03	4.160561e+00	4.160561e-03
2.023154218932513e-03	4.136585e+00	4.136586e-03
2.023338516683773e-03	4.117796e+00	4.117796e-03
2.023340941847673e-03	4.117545e+00	4.117546e-03
2.023345792175473e-03	4.117027e+00	4.117028e-03
2.023355492831072e-03	4.115945e+00	4.115946e-03
2.023374894142271e-03	4.113598e+00	4.113598e-03
2.023393784823663e-03	4.110943e+00	4.110944e-03
2.023422864722109e-03	4.105841e+00	4.105841e-03
2.023458783344304e-03	4.097279e+00	4.097280e-03
2.023523832429270e-03	4.076229e+00	4.076229e-03
2.023596343123485e-03	4.046674e+00	4.046675e-03
2.023682380578580e-03	4.006826e+00	4.006827e-03
2.023769399655750e-03	3.965469e+00	3.965470e-03
2.023870176060465e-03	3.918067e+00	3.918068e-03
2.023982066426934e-03	3.863914e+00	3.863915e-03
2.024086790116665e-03	3.807418e+00	3.807418e-03
2.024202349159817e-03	3.734787e+00	3.734787e-03
2.024313730075476e-03	3.653770e+00	3.653771e-03
2.024435095611777e-03	3.554993e+00	3.554993e-03
2.024576851791876e-03	3.431756e+00	3.431756e-03
2.024748557775508e-03	3.280020e+00	3.280021e-03
2.024977064348522e-03	3.086298e+00	3.086299e-03
2.025265069344203e-03	2.865163e+00	2.865164e-03
2.025525960910926e-03	2.696465e+00	2.696465e-03
2.025888647569703e-03	2.510460e+00	2.510461e-03
2.026265028712268e-03	2.356880e+00	2.356880e-03
2.026637236355876e-03	2.226902e+00	2.226902e-03
2.027083399011439e-03	2.079875e+00	2.079875e-03
2.027451442046501e-03	1.966285e+00	1.966285e-03
2.027857583085235e-03	1.860413e+00	1.860413e-03
2.028345596807805e-03	1.763218e+00	1.763219e-03
2.028787571452808e-03	1.695130e+00	1.695130e-03
2.029289316217051e-03	1.623893e+00	1.623894e-03
2.029771282101691e-03	1.553518e+00	1.553518e-03
2.030331883536738e-03	1.478099e+00	1.478099e-03
2.030837343345147e-03	1.425555e+00	1.425555e-03
2.031299364536008e-03	1.389018e+00	1.389018e-03
2.031926005719334e-03	1.339990e+00	1.339991e-03
2.032548959491636e-03	1.286242e+00	1.286242e-03
2.033212100365123e-03	1.234042e+00	1.234042e-03
2.033860708601363e-03	1.195576e+00	1.195576e-03
2.034524730042769e-03	1.160896e+00	1.160896e-03
2.035240069962367e-03	1.118029e+00	1.118029e-03
2.035869775703242e-03	1.080037e+00	1.080037e-03
2.036612030137148e-03	1.044700e+00	1.044701e-03
2.037274487555026e-03	1.018408e+00	1.018408e-03
2.038072086126715e-03	9.828060e-01	9.828061e-04
2.038784805008525e-03	9.490968e-01	9.490969e-04
2.039661806471679e-03	9.151581e-01	9.151582e-04
2.040426147539320e-03	8.906252e-01	8.906253e-04
2.041355703856097e-03	8.575420e-01	8.575421e-04
2.042210574834232e-03	8.262339e-01	8.262339e-04
2.043222248526938e-03	7.966308e-01	7.966309e-04
2.044171426519926e-03	7.718582e-01	7.718583e-04
2.045234548355360e-03	7.409648e-01	7.409649e-04
2.046398779760465e-03	7.100387e-01	7.100388e-04
2.047602286906470e-03	6.842176e-01	6.842177e-04
2.049055466439497e-03	6.522481e-01	6.522482e-04
2.050414080678281e-03	6.234252e-01	6.234253e-04
2.051887786342201e-03	5.980913e-01	5.980914e-04
2.053721601899791e-03	5.673022e-01	5.673023e-04
2.055525809289372e-03	5.385947e-01	5.385947e-04
2.057256969668451e-03	5.160224e-01	5.160225e-04
2.059899441082444e-03	4.828236e-01	4.828237e-04
2.062155851740266e-03	4.578340e-01	4.578341e-04
2.064459521171600e-03	4.363535e-01	4.363536e-04
2.067145079880143e-03	4.123166e-01	4.123166e-04
2.070763751461555e-03	3.853754e-01	3.853755e-04
2.074142117143289e-03	3.630002e-01	3.630003e-04
2.077477193833210e-03	3.438009e-01	3.438009e-04
2.080989296257579e-03	3.272829e-01	3.272829e-04
2.085042448966868e-03	3.096857e-01	3.096858e-04
2.089620689217466e-03	2.937522e-01	2.937522e-04
2.094095112911784e-03	2.801338e-01	2.801339e-04
2.099157183152927e-03	2.674330e-01	2.674331e-04
2.103803528614306e-03	2.578230e-01	2.578231e-04
2.108972057900353e-03	2.483946e-01	2.483946e-04
2.114937144582078e-03	2.402897e-01	2.402897e-04
2.120908903948316e-03	2.330156e-01	2.330157e-04
2.126799585981001e-03	2.278134e-01	2.278134e-04
2.132814804322585e-03	2.231198e-01	2.231198e-04
2.139144477979839e-03	2.193634e-01	2.193634e-04
2.145473976937953e-03	2.163923e-01	2.163923e-04
2.152092884998865e-03	2.136654e-01	2.136654e-04
2.158928822498866e-03	2.118782e-01	2.118782e-04
2.165764759998865e-03	2.099694e-01	2.099694e-04
2.172600697498865e-03	2.090542e-01	2.090543e-04
2.179049622873566e-03	2.077710e-01	2.077711e-04
2.185417472696961e-03	2.072796e-01	2.072796e-04
2.191906081372328e-03	2.066244e-01	2.066244e-04
2.198708491835352e-03	2.060694e-01	2.060694e-04
2.205544429335352e-03	2.058392e-01	2.058392e-04
2.212380366835352e-03	2.052753e-01	2.052754e-04
2.219216304335352e-03	2.053849e-01	2.053850e-04
2.225313258071398e-03	2.048022e-01	2.048022e-04
2.231456834074440e-03	2.051661e-01	2.051661e-04
2.237017723018236e-03	2.047081e-01	2.047081e-04
2.242795289812901e-03	2.047280e-01	2.047281e-04
2.248425228500693e-03	2.047700e-01	2.047700e-04
2.254095710641618e-03	2.043479e-01	2.043479e-04
2.259831619484883e-03	2.048451e-01	2.048451e-04
2.264754181169891e-03	2.040258e-01	2.040258e-04
2.269131165767934e-03	2.047707e-01	2.047708e-04
2.273576996124093e-03	2.043766e-01	2.043766e-04
2.277957918738741e-03	2.042454e-01	2.042454e-04
2.282132736482756e-03	2.049360e-01	2.049360e-04
2.286106410857123e-03	2.035853e-01	2.035853e-04
2.289404481795806e-03	2.049365e-01	2.049365e-04
2.292774890700560e-03	2.043942e-01	2.043942e-04
2.296060880558181e-03	2.036537e-01	2.036537e-04
2.299232271105776e-03	2.058099e-01	2.058099e-04
2.301822981493654e-03	2.036838e-01	2.036838e-04
2.304520156568505e-03	2.038872e-01	2.038872e-04
2.307083347517263e-03	2.059720e-01	2.059720e-04
2.309717601267206e-03	2.028603e-01	2.028603e-04
2.312108390560964e-03	2.043744e-01	2.043744e-04
2.314266926859422e-03	2.064321e-01	2.064321e-04
2.316632320969254e-03	2.019455e-01	2.019455e-04
2.318489248813097e-03	2.033568e-01	2.033568e-04
2.320448689767328e-03	2.071473e-01	2.071473e-04
2.322452091445677e-03	2.027357e-01	2.027357e-04
2.324302728164324e-03	2.021237e-01	2.021237e-04
2.326124330813409e-03	2.081469e-01	2.081469e-04
2.327648073384809e-03	2.058403e-01	2.058403e-04
2.329297087928393e-03	1.998051e-01	1.998051e-04
2.330775077004856e-03	2.045010e-01	2.045010e-04
2.332275492196986e-03	2.093489e-01	2.093490e-04
2.333779981626344e-03	2.023631e-01	2.023631e-04
2.335144225220249e-03	1.987673e-01	1.987674e-04
2.336616619529836e-03	2.077060e-01	2.077060e-04
2.337852139057167e-03	2.108015e-01	2.108015e-04
2.339273866368534e-03	2.001016e-01	2.001016e-04
2.340349941330782e-03	1.963269e-01	1.963269e-04
2.341666271785845e-03	2.070334e-01	2.070334e-04
2.342796162875848e-03	2.130284e-01	2.130284e-04
2.344085372626135e-03	2.035883e-01	2.035884e-04
2.345373234946603e-03	1.950452e-01	1.950452e-04
2.346534677513572e-03	2.034738e-01	2.034738e-04
2.347764871162826e-03	2.145441e-01	2.145441e-04
2.348932147954144e-03	2.070770e-01	2.070770e-04
2.350038462004002e-03	1.927378e-01	1.927379e-04
2.350998397890205e-03	1.948318e-01	1.948318e-04
2.351993424926778e-03	2.124433e-01	2.124433e-04
2.352821409181100e-03	2.198302e-01	2.198302e-04
2.353812258311328e-03	2.072323e-01	2.072324e-04
2.354661100808897e-03	1.911999e-01	1.911999e-04
2.355569770294018e-03	1.894419e-01	1.894419e-04
2.356435409103633e-03	2.074478e-01	2.074479e-04
2.357158149798964e-03	2.226189e-01	2.226190e-04
2.357996095485040e-03	2.198631e-01	2.198632e-04
2.358782958616169e-03	2.004627e-01	2.004627e-04
2.359543736608994e-03	1.843176e-01	1.843177e-04
2.360397763804608e-03	1.885102e-01	1.885102e-04
2.361255180070724e-03	2.135008e-01	2.135008e-04
2.361954483569612e-03	2.292506e-01	2.292507e-04
2.362734608938321e-03	2.222263e-01	2.222263e-04
2.363378623304207e-03	2.012870e-01	2.012870e-04
2.364064184124385e-03	1.811517e-01	1.811517e-04
2.364860485865763e-03	1.804725e-01	1.804725e-04
2.365676911486678e-03	2.074725e-01	2.074725e-04
2.366282082954162e-03	2.320313e-01	2.320313e-04
2.366880020430546e-03	2.387459e-01	2.387459e-04
2.367405566659696e-03	2.246368e-01	2.246369e-04
2.367981427896191e-03	1.995730e-01	1.995731e-04
2.368741835615648e-03	1.742874e-01	1.742874e-04
2.369485265736041e-03	1.755947e-01	1.755947e-04
2.370314414210381e-03	2.109798e-01	2.109798e-04
2.370878808722627e-03	2.396851e-01	2.396851e-04
2.371417770498872e-03	2.485472e-01	2.485472e-04
2.371840123128486e-03	2.363862e-01	2.363862e-04
2.372328610071852e-03	2.111460e-01	2.111461e-04
2.372996789704649e-03	1.780640e-01	1.780640e-04
2.373613401709942e-03	1.619641e-01	1.619641e-04
2.374301563139607e-03	1.754958e-01	1.754958e-04
2.375043170603624e-03	2.231085e-01	2.231085e-04
2.375484311607313e-03	2.512763e-01	2.512764e-04
2.375979968676846e-03	2.601371e-01	2.601372e-04
2.376330852176875e-03	2.483840e-01	2.483840e-04
2.376740926168860e-03	2.235119e-01	2.235119e-04
2.377248117643491e-03	1.916357e-01	1.916357e-04
2.377789676796572e-03	1.647627e-01	1.647627e-04
2.378472791353673e-03	1.532200e-01	1.532200e-04
2.379123448318530e-03	1.791092e-01	1.791092e-04
2.379799474580821e-03	2.393324e-01	2.393324e-04
2.380179077895912e-03	2.675296e-01	2.675297e-04
2.380637217610742e-03	2.731684e-01	2.731684e-04
2.380928614958736e-03	2.604795e-01	2.604795e-04
2.381278953967517e-03	2.355359e-01	2.355360e-04
2.381682560205138e-03	2.056864e-01	2.056864e-04
2.382126069474990e-03	1.773403e-01	1.773403e-04
2.382921033018478e-03	1.453417e-01	1.453418e-04
2.383584934730686e-03	1.535967e-01	1.535967e-04
2.384223641719268e-03	2.091509e-01	2.091509e-04
2.384612800393043e-03	2.605545e-01	2.605545e-04
2.384891355140096e-03	2.885727e-01	2.885727e-04
2.385173656400918e-03	2.955561e-01	2.955561e-04
2.385390003750292e-03	2.877591e-01	2.877591e-04
