time	V(vout)	-I(Rl)
0.000000000000000e+000	9.996057e+000	-0.000000e+000
1.999999992008394e-011	9.996057e+000	-0.000000e+000
1.019999999920084e-009	9.996057e+000	-0.000000e+000
3.019999999920084e-009	9.996057e+000	-0.000000e+000
3.101999999992008e-008	9.996057e+000	-0.000000e+000
6.301999999992009e-008	9.996057e+000	-0.000000e+000
5.110199999999202e-007	9.996057e+000	-0.000000e+000
8.186987714285708e-005	9.996057e+000	-0.000000e+000
1.632287342857143e-004	9.996057e+000	-0.000000e+000
2.445875914285714e-004	9.996057e+000	-0.000000e+000
3.259464485714286e-004	9.996057e+000	-0.000000e+000
4.073053057142858e-004	9.996057e+000	-0.000000e+000
4.886641628571429e-004	9.996057e+000	-0.000000e+000
5.700230199999999e-004	9.996057e+000	-0.000000e+000
1.012023020000000e-003	9.996057e+000	-0.000000e+000
1.999023020000000e-003	9.996057e+000	-0.000000e+000
2.000000000000000e-003	9.996057e+000	-0.000000e+000
2.000000023852051e-003	3.332019e+000	1.975681e+001
2.000000071556153e-003	2.249618e-009	1.124809e+001
2.000000071742497e-003	2.257420e-009	1.128710e+001
2.000000071789083e-003	2.265295e-009	1.132648e+001
2.000000071905548e-003	2.281802e-009	1.140901e+001
2.000000072068599e-003	2.297721e-009	1.148860e+001
2.000000072127195e-003	2.302307e-009	1.151153e+001
2.000001072127195e-003	2.516600e-009	1.258300e+001
2.000002072127195e-003	2.512837e-009	1.256418e+001
2.000003072127195e-003	2.425158e-009	1.212579e+001
2.000004072127195e-003	2.374847e-009	1.187424e+001
2.000005072127195e-003	2.353395e-009	1.176698e+001
2.000006072127195e-003	2.351085e-009	1.175542e+001
2.000007072127195e-003	2.361187e-009	1.180593e+001
2.000008072127195e-003	2.378914e-009	1.189457e+001
2.000009072127195e-003	2.400196e-009	1.200098e+001
2.000009113184183e-003	2.401150e-009	1.200575e+001
2.000009195298157e-003	2.403029e-009	1.201515e+001
2.000009359526106e-003	2.406415e-009	1.203207e+001
2.000009551987710e-003	2.410117e-009	1.205058e+001
2.000009798383026e-003	2.414619e-009	1.207310e+001
2.000010081563287e-003	2.419521e-009	1.209761e+001
2.000010647923810e-003	2.428367e-009	1.214183e+001
2.000011780644856e-003	2.443013e-009	1.221507e+001
2.000013050303147e-003	2.454930e-009	1.227465e+001
2.000014625346684e-003	2.464424e-009	1.232212e+001
2.000016055692096e-003	2.469822e-009	1.234911e+001
2.000017402884317e-003	2.473044e-009	1.236522e+001
2.000018773470406e-003	2.475091e-009	1.237546e+001
2.000019649242942e-003	2.475280e-009	1.237640e+001
2.000020300357514e-003	2.474251e-009	1.237125e+001
2.000021085426083e-003	2.472162e-009	1.236081e+001
2.000021853925518e-003	2.470137e-009	1.235069e+001
2.000022604887475e-003	2.468418e-009	1.234209e+001
2.000023146177418e-003	2.467327e-009	1.233664e+001
2.000023913565872e-003	2.465969e-009	1.232984e+001
2.000024678453039e-003	2.464912e-009	1.232456e+001
2.000025599298921e-003	2.464107e-009	1.232053e+001
2.000026591739564e-003	2.463770e-009	1.231885e+001
2.000028394364994e-003	2.464067e-009	1.232034e+001
2.000030757991708e-003	2.465378e-009	1.232689e+001
2.000033261335802e-003	2.467431e-009	1.233715e+001
2.000037798773315e-003	2.471677e-009	1.235838e+001
2.000043549735679e-003	2.477189e-009	1.238594e+001
2.000048589621918e-003	2.482180e-009	1.241090e+001
2.000053173806142e-003	2.487317e-009	1.243659e+001
2.000058245348988e-003	2.494470e-009	1.247235e+001
2.000063009522981e-003	2.503625e-009	1.251812e+001
2.000068124072946e-003	2.517494e-009	1.258747e+001
2.000073972111318e-003	2.539875e-009	1.269937e+001
2.000081153372732e-003	2.577192e-009	1.288596e+001
2.000088013989452e-003	2.621849e-009	1.310924e+001
2.000090989915176e-003	2.644605e-009	1.322302e+001
2.000093055051453e-003	2.662204e-009	1.331102e+001
2.000094904979555e-003	2.679124e-009	1.339562e+001
2.000096645651753e-003	2.696146e-009	1.348073e+001
2.000098798229165e-003	2.718654e-009	1.359327e+001
2.000100881863954e-003	2.742209e-009	1.371104e+001
2.000104071848768e-003	2.782390e-009	1.391195e+001
2.000110451818397e-003	2.872647e-009	1.436323e+001
2.000116317662018e-003	2.965538e-009	1.482769e+001
2.000122393475797e-003	3.070536e-009	1.535268e+001
2.000125043987821e-003	3.118723e-009	1.559362e+001
2.000126920266080e-003	3.153415e-009	1.576707e+001
2.000127784913170e-003	3.168826e-009	1.584413e+001
2.000128265075890e-003	3.176794e-009	1.588397e+001
2.000128501458120e-003	3.180546e-009	1.590273e+001
2.000128839053583e-003	3.185912e-009	1.592956e+001
2.000129162008612e-003	3.191096e-009	1.595548e+001
2.000129516894939e-003	3.196812e-009	1.598406e+001
2.000129959196641e-003	3.203928e-009	1.601964e+001
2.000130526004806e-003	3.213004e-009	1.606502e+001
2.000131157041606e-003	3.222992e-009	1.611496e+001
2.000132290786092e-003	3.240490e-009	1.620245e+001
2.000133738624022e-003	3.261388e-009	1.630694e+001
2.000135850888111e-003	3.286622e-009	1.643311e+001
2.000137730773838e-003	3.296917e-009	1.648458e+001
2.000138963545276e-003	3.282749e-009	1.641375e+001
2.000139820905726e-003	3.251287e-009	1.625644e+001
2.000140419392616e-003	3.222816e-009	1.611408e+001
2.000140787089462e-003	3.212014e-009	1.606007e+001
2.000141104267281e-003	3.212110e-009	1.606055e+001
2.000141381969731e-003	3.217990e-009	1.608995e+001
2.000141608977823e-003	3.224632e-009	1.612316e+001
2.000141802020671e-003	3.230347e-009	1.615173e+001
2.000142008325433e-003	3.236360e-009	1.618180e+001
2.000142209288421e-003	3.242101e-009	1.621051e+001
2.000142553727219e-003	3.251581e-009	1.625790e+001
2.000142963685935e-003	3.262254e-009	1.631127e+001
2.000143597393386e-003	3.277676e-009	1.638838e+001
2.000144049964547e-003	3.288147e-009	1.644073e+001
2.000144603293350e-003	3.300516e-009	1.650258e+001
2.000145038461814e-003	3.309934e-009	1.654967e+001
2.000145496933611e-003	3.319579e-009	1.659790e+001
2.000145970143772e-003	3.329414e-009	1.664707e+001
2.000146482028658e-003	3.340011e-009	1.670006e+001
2.000147122130373e-003	3.353304e-009	1.676652e+001
2.000148093418053e-003	3.373682e-009	1.686841e+001
2.000150035993414e-003	3.415245e-009	1.707622e+001
2.000153176289397e-003	3.484421e-009	1.742210e+001
2.000156722689104e-003	3.565435e-009	1.782718e+001
2.000160133263121e-003	3.646742e-009	1.823371e+001
2.000164451064881e-003	3.755114e-009	1.877557e+001
2.000171052242750e-003	3.933099e-009	1.966549e+001
2.000182564866374e-003	4.277636e-009	2.138818e+001
2.000200563352937e-003	4.878238e-009	2.439119e+001
2.000211710294169e-003	5.291529e-009	2.645765e+001
2.000224409380254e-003	5.806883e-009	2.903441e+001
2.000237672766370e-003	6.377188e-009	3.188594e+001
2.000245445302619e-003	6.724656e-009	3.362328e+001
2.000252794479844e-003	7.060635e-009	3.530317e+001
2.000260123505155e-003	7.398226e-009	3.699113e+001
2.000269976524232e-003	7.848271e-009	3.924136e+001
2.000284765182596e-003	8.503957e-009	4.251978e+001
2.000297459143389e-003	9.029689e-009	4.514844e+001
2.000315029518575e-003	9.678444e-009	4.839222e+001
2.000331506770238e-003	1.020359e-008	5.101794e+001
2.000341155804871e-003	1.046242e-008	5.231209e+001
2.000350345081710e-003	1.067054e-008	5.335271e+001
2.000359439147591e-003	1.084413e-008	5.422064e+001
2.000372398559496e-003	1.104242e-008	5.521211e+001
2.000390388664884e-003	1.124250e-008	5.621250e+001
2.000418312572605e-003	1.144382e-008	5.721909e+001
2.000440477824486e-003	1.153805e-008	5.769025e+001
2.000451643919755e-003	1.156258e-008	5.781291e+001
2.000457122053551e-003	1.156817e-008	5.784084e+001
2.000462640180725e-003	1.157087e-008	5.785432e+001
2.000464396217436e-003	1.157134e-008	5.785671e+001
2.000467144161737e-003	1.157162e-008	5.785812e+001
2.000470037035626e-003	1.157140e-008	5.785699e+001
2.000475822783403e-003	1.156974e-008	5.784869e+001
2.000481352589061e-003	1.156684e-008	5.783421e+001
2.000488417242242e-003	1.156126e-008	5.780629e+001
2.000496809017041e-003	1.155228e-008	5.776139e+001
2.000509047999676e-003	1.153550e-008	5.767752e+001
2.000524097665755e-003	1.151065e-008	5.755326e+001
2.000536091379046e-003	1.148792e-008	5.743962e+001
2.000545620224687e-003	1.146809e-008	5.734042e+001
2.000553765351231e-003	1.145003e-008	5.725017e+001
2.000560969863734e-003	1.143328e-008	5.716642e+001
2.000567496721603e-003	1.141751e-008	5.708757e+001
2.000574443091890e-003	1.140016e-008	5.700078e+001
2.000581610084706e-003	1.138164e-008	5.690820e+001
2.000590189074901e-003	1.135870e-008	5.679352e+001
2.000599501566984e-003	1.133287e-008	5.666435e+001
2.000610196232965e-003	1.130199e-008	5.650998e+001
2.000621644297159e-003	1.126745e-008	5.633724e+001
2.000635218985480e-003	1.122430e-008	5.612151e+001
2.000650946899476e-003	1.117127e-008	5.585638e+001
2.000668594981194e-003	1.110808e-008	5.554038e+001
2.000681381694527e-003	1.105947e-008	5.529733e+001
2.000692269872404e-003	1.101565e-008	5.507825e+001
2.000703295116571e-003	1.096895e-008	5.484473e+001
2.000713713465932e-003	1.092223e-008	5.461113e+001
2.000728849408335e-003	1.084969e-008	5.424847e+001
2.000745155588202e-003	1.076470e-008	5.382348e+001
2.000766606819025e-003	1.064045e-008	5.320224e+001
2.000790514367511e-003	1.048210e-008	5.241050e+001
2.000823064228041e-003	1.022815e-008	5.114076e+001
2.000864610575551e-003	9.847843e-009	4.923921e+001
2.000907692960937e-003	9.403654e-009	4.701827e+001
2.000951543455282e-003	8.925503e-009	4.462751e+001
2.000999233218516e-003	8.406444e-009	4.203222e+001
2.001054039625681e-003	7.830256e-009	3.915128e+001
2.001107824746802e-003	7.290649e-009	3.645325e+001
2.001164520941082e-003	6.748336e-009	3.374168e+001
2.001231843208591e-003	6.130624e-009	3.065312e+001
2.001295960960896e-003	5.570425e-009	2.785212e+001
2.001386463355649e-003	4.845396e-009	2.422698e+001
2.001450734139722e-003	4.416807e-009	2.208404e+001
2.001521866594548e-003	4.043703e-009	2.021852e+001
2.001558681438815e-003	3.887583e-009	1.943792e+001
2.001609401571109e-003	3.707863e-009	1.853931e+001
2.001658074569522e-003	3.557050e-009	1.778525e+001
2.001703206566854e-003	3.434713e-009	1.717357e+001
2.001753632073078e-003	3.313999e-009	1.656999e+001
2.001804209909538e-003	3.205075e-009	1.602537e+001
2.001822585220170e-003	3.168927e-009	1.584464e+001
2.001847217762734e-003	3.123142e-009	1.561571e+001
2.001864912324271e-003	3.091232e-009	1.545616e+001
2.001888325463803e-003	3.050725e-009	1.525363e+001
2.001920809912855e-003	2.997177e-009	1.498589e+001
2.001955563228700e-003	2.943721e-009	1.471861e+001
2.002025069860389e-003	2.845628e-009	1.422814e+001
2.002095123371617e-003	2.757438e-009	1.378719e+001
2.002225586294763e-003	2.614497e-009	1.307248e+001
2.002349534275030e-003	2.496612e-009	1.248306e+001
2.002470276663452e-003	2.395391e-009	1.197695e+001
2.002507125377524e-003	2.367035e-009	1.183517e+001
2.002531472328747e-003	2.349356e-009	1.174678e+001
2.002571162811156e-003	2.321421e-009	1.160710e+001
2.002599512681581e-003	2.302049e-009	1.151024e+001
2.002634372435781e-003	2.278986e-009	1.139493e+001
2.002673728204721e-003	2.253785e-009	1.126892e+001
2.002721088930901e-003	2.224585e-009	1.112293e+001
2.002780078456269e-003	2.189727e-009	1.094864e+001
2.002845868526804e-003	2.152579e-009	1.076289e+001
2.002910458752568e-003	2.117878e-009	1.058939e+001
2.002989681248596e-003	2.077544e-009	1.038772e+001
2.003079107959174e-003	2.034489e-009	1.017245e+001
2.003170213655225e-003	1.993270e-009	9.966350e+000
2.003298480218166e-003	1.939068e-009	9.695342e+000
2.003451789482799e-003	1.879765e-009	9.398827e+000
2.003758408012066e-003	1.772878e-009	8.864390e+000
2.004039157113611e-003	1.685833e-009	8.429163e+000
2.004418603613114e-003	1.582544e-009	7.912719e+000
2.004841545772445e-003	1.481770e-009	7.408851e+000
2.005476762834002e-003	1.350309e-009	6.751544e+000
2.006116160423520e-003	1.235594e-009	6.177972e+000
2.006875163311883e-003	1.118077e-009	5.590383e+000
2.007684966456547e-003	1.008793e-009	5.043966e+000
2.008442093586877e-003	9.193971e-010	4.596985e+000
2.009233191375660e-003	8.373310e-010	4.186655e+000
2.010092373926815e-003	7.573970e-010	3.786985e+000
2.010471250437131e-003	7.253509e-010	3.626754e+000
2.010986997088204e-003	6.849907e-010	3.424954e+000
2.011347393558342e-003	6.583696e-010	3.291848e+000
2.011745214298317e-003	6.310011e-010	3.155006e+000
2.012540855778267e-003	5.803253e-010	2.901627e+000
2.013080904364160e-003	5.500109e-010	2.750054e+000
2.013577506604005e-003	5.289784e-010	2.644892e+000
2.013901663358985e-003	5.233082e-010	2.616541e+000
2.014106719495059e-003	5.283052e-010	2.641526e+000
2.014327401244942e-003	5.434837e-010	2.717418e+000
2.014492235651681e-003	5.594107e-010	2.797054e+000
2.014688890328349e-003	5.793741e-010	2.896871e+000
2.014865484170460e-003	5.952475e-010	2.976238e+000
2.015039379149711e-003	6.088571e-010	3.044286e+000
2.015221913901309e-003	6.221405e-010	3.110703e+000
2.015450012216082e-003	6.383432e-010	3.191716e+000
2.015707992371876e-003	6.565925e-010	3.282963e+000
2.016223952683464e-003	6.933161e-010	3.466581e+000
2.017084314219727e-003	7.551556e-010	3.775778e+000
2.017557785289593e-003	7.896248e-010	3.948123e+000
2.017770602953377e-003	8.053758e-010	4.026879e+000
2.017926788542411e-003	8.170418e-010	4.085209e+000
2.018023291572655e-003	8.242494e-010	4.121247e+000
2.018097733051666e-003	8.298041e-010	4.149020e+000
2.018152150026505e-003	8.338616e-010	4.169308e+000
2.018203610332942e-003	8.376940e-010	4.188470e+000
2.018261070884242e-003	8.419670e-010	4.209835e+000
2.018281939143822e-003	8.435161e-010	4.217580e+000
2.018302248854908e-003	8.450209e-010	4.225104e+000
2.018326713262179e-003	8.468304e-010	4.234152e+000
2.018348465504752e-003	8.484361e-010	4.242180e+000
2.018368772672201e-003	8.499315e-010	4.249658e+000
2.018393728232787e-003	8.517643e-010	4.258821e+000
2.018417076849738e-003	8.534733e-010	4.267366e+000
2.018443651009466e-003	8.554104e-010	4.277052e+000
2.018473708308566e-003	8.575893e-010	4.287947e+000
2.018511217323625e-003	8.602863e-010	4.301432e+000
2.018563912914881e-003	8.640208e-010	4.320104e+000
2.018646723059751e-003	8.697227e-010	4.348614e+000
2.018766128674780e-003	8.775021e-010	4.387511e+000
2.018899839514279e-003	8.850829e-010	4.425415e+000
2.019136621745533e-003	8.942630e-010	4.471315e+000
2.019535546428628e-003	9.006515e-010	4.503257e+000
2.019834890793811e-003	8.993525e-010	4.496763e+000
2.020160742327482e-003	8.938801e-010	4.469400e+000
2.020464708027093e-003	8.873673e-010	4.436836e+000
2.020795292503958e-003	8.796368e-010	4.398184e+000
2.021342149860939e-003	8.667861e-010	4.333930e+000
2.021882720863895e-003	8.544561e-010	4.272280e+000
2.022458618346563e-003	8.420509e-010	4.210255e+000
2.023445083755446e-003	8.223353e-010	4.111677e+000
2.024399034020072e-003	8.048501e-010	4.024251e+000
2.025399034020072e-003	7.882426e-010	3.941213e+000
2.026399034020071e-003	7.731961e-010	3.865980e+000
2.027399034020072e-003	7.595837e-010	3.797918e+000
2.028399034020072e-003	7.472669e-010	3.736334e+000
2.029399034020071e-003	7.361233e-010	3.680617e+000
2.030399034020072e-003	7.260411e-010	3.630205e+000
2.031399034020072e-003	7.169187e-010	3.584593e+000
2.032399034020071e-003	7.086656e-010	3.543328e+000
2.033399034020072e-003	7.011978e-010	3.505989e+000
2.034399034020072e-003	6.944418e-010	3.472209e+000
2.035399034020071e-003	6.883286e-010	3.441643e+000
2.036399034020071e-003	6.827981e-010	3.413990e+000
2.037399034020072e-003	6.777938e-010	3.388969e+000
2.038399034020072e-003	6.732664e-010	3.366332e+000
2.039399034020071e-003	6.691700e-010	3.345850e+000
2.040399034020072e-003	6.654637e-010	3.327319e+000
2.041399034020072e-003	6.621104e-010	3.310552e+000
2.042399034020071e-003	6.590762e-010	3.295381e+000
2.043399034020072e-003	6.563306e-010	3.281653e+000
2.044399034020072e-003	6.538454e-010	3.269227e+000
2.045399034020071e-003	6.515968e-010	3.257984e+000
2.046399034020071e-003	6.495626e-010	3.247813e+000
2.047399034020072e-003	6.477227e-010	3.238613e+000
2.048399034020071e-003	6.460578e-010	3.230289e+000
2.049399034020071e-003	6.445515e-010	3.222757e+000
2.050399034020072e-003	6.431884e-010	3.215942e+000
2.051399034020072e-003	6.419549e-010	3.209775e+000
2.052399034020071e-003	6.408388e-010	3.204194e+000
2.053399034020072e-003	6.398286e-010	3.199143e+000
2.054399034020072e-003	6.389142e-010	3.194571e+000
2.055399034020071e-003	6.380863e-010	3.190431e+000
2.056399034020072e-003	6.373363e-010	3.186681e+000
2.057399034020072e-003	6.366566e-010	3.183283e+000
2.058399034020071e-003	6.360389e-010	3.180195e+000
2.059399034020071e-003	6.354632e-010	3.177316e+000
2.059899222514083e-003	6.351772e-010	3.175886e+000
2.060214241430956e-003	6.349838e-010	3.174919e+000
2.060448413764370e-003	6.348230e-010	3.174115e+000
2.060641229089400e-003	6.346755e-010	3.173377e+000
2.060806596974029e-003	6.345354e-010	3.172677e+000
2.060931995889584e-003	6.344144e-010	3.172072e+000
2.061009052700895e-003	6.343119e-010	3.171560e+000
2.061044512921493e-003	6.342221e-010	3.171111e+000
2.061076243501272e-003	6.340746e-010	3.170373e+000
2.061109818773668e-003	6.338348e-010	3.169174e+000
2.061142027083538e-003	6.335081e-010	3.167541e+000
2.061206443703280e-003	6.326749e-010	3.163374e+000
2.061270988875532e-003	6.317261e-010	3.158630e+000
2.061372530820822e-003	6.301643e-010	3.150822e+000
2.061485704566674e-003	6.283520e-010	3.141760e+000
2.061633019752693e-003	6.256153e-010	3.128077e+000
2.061774689433978e-003	6.222066e-010	3.111033e+000
2.061947315280323e-003	6.167845e-010	3.083922e+000
2.062142732555217e-003	6.091597e-010	3.045799e+000
2.062344920068781e-003	5.994303e-010	2.997151e+000
2.062725199095050e-003	5.773946e-010	2.886973e+000
2.063083829968932e-003	5.529063e-010	2.764532e+000
2.063705096412526e-003	5.049320e-010	2.524660e+000
2.064288028978317e-003	4.571269e-010	2.285635e+000
2.065044895340875e-003	3.947039e-010	1.973519e+000
2.065934519212457e-003	3.257186e-010	1.628593e+000
2.066934519212457e-003	2.575723e-010	1.287862e+000
2.067934519212457e-003	2.017814e-010	1.008907e+000
2.068934519212457e-003	1.592056e-010	7.960280e-001
2.069934519212457e-003	1.289186e-010	6.445931e-001
2.070934519212456e-003	1.090645e-010	5.453223e-001
2.071934519212457e-003	9.709830e-011	4.854915e-001
2.072934519212457e-003	9.008219e-011	4.504110e-001
2.073934519212457e-003	8.538861e-011	4.269431e-001
2.074934519212457e-003	8.140226e-011	4.070113e-001
2.075934519212457e-003	7.761268e-011	3.880634e-001
2.076934519212457e-003	7.414175e-011	3.707088e-001
2.077934519212457e-003	7.122653e-011	3.561327e-001
2.078934519212457e-003	6.895744e-011	3.447872e-001
2.079934519212457e-003	6.724300e-011	3.362150e-001
2.080934519212456e-003	6.589457e-011	3.294729e-001
2.081934519212457e-003	6.473277e-011	3.236639e-001
2.082934519212457e-003	6.364898e-011	3.182449e-001
2.083934519212456e-003	6.260977e-011	3.130489e-001
2.084934519212457e-003	6.162655e-011	3.081327e-001
2.085934519212457e-003	6.071994e-011	3.035997e-001
2.086934519212457e-003	5.989786e-011	2.994893e-001
2.087934519212457e-003	5.915114e-011	2.957557e-001
2.088934519212457e-003	5.846084e-011	2.923042e-001
2.089934519212457e-003	5.780833e-011	2.890417e-001
2.090934519212457e-003	5.718171e-011	2.859086e-001
2.091934519212457e-003	5.657690e-011	2.828845e-001
2.092934519212457e-003	5.599481e-011	2.799740e-001
2.093934519212456e-003	5.543766e-011	2.771883e-001
2.094934519212457e-003	5.490631e-011	2.745315e-001
2.095934519212457e-003	5.439953e-011	2.719977e-001
2.096934519212457e-003	5.391470e-011	2.695735e-001
2.097934519212457e-003	5.344896e-011	2.672448e-001
2.098934519212457e-003	5.300018e-011	2.650009e-001
2.099934519212457e-003	5.256721e-011	2.628361e-001
2.100934519212457e-003	5.214968e-011	2.607484e-001
2.101934519212457e-003	5.174748e-011	2.587374e-001
2.102934519212457e-003	5.136040e-011	2.568020e-001
2.103934519212457e-003	5.098797e-011	2.549399e-001
2.104934519212457e-003	5.062948e-011	2.531474e-001
2.105934519212457e-003	5.028414e-011	2.514207e-001
2.106934519212456e-003	4.995124e-011	2.497562e-001
2.107934519212457e-003	4.963021e-011	2.481510e-001
2.108934519212457e-003	4.932060e-011	2.466030e-001
2.109934519212457e-003	4.902208e-011	2.451104e-001
2.110934519212457e-003	4.873430e-011	2.436715e-001
2.111934519212457e-003	4.845692e-011	2.422846e-001
2.112934519212457e-003	4.818953e-011	2.409477e-001
