time	V(vout)	-I(Rl)
0.000000000000000e+000	9.996057e+000	-0.000000e+000
6.165728083557448e-010	9.996056e+000	-0.000000e+000
1.233145616711490e-009	9.996056e+000	-0.000000e+000
1.849718425067235e-009	9.996056e+000	-0.000000e+000
2.466291233422979e-009	9.996056e+000	-0.000000e+000
3.082864041778724e-009	9.996055e+000	-0.000000e+000
3.699436850134469e-009	9.996056e+000	-0.000000e+000
4.316009658490213e-009	9.996056e+000	-0.000000e+000
8.707355869930371e-009	9.996057e+000	-0.000000e+000
3.505543313857132e-008	9.996057e+000	-0.000000e+000
7.018620283009258e-008	9.996057e+000	-0.000000e+000
5.620169785113903e-007	9.996057e+000	-0.000000e+000
1.124109293575730e-006	9.996057e+000	-0.000000e+000
1.026696643643288e-005	9.996057e+000	-0.000000e+000
1.940982357929002e-005	9.996057e+000	-0.000000e+000
2.855268072214717e-005	9.996057e+000	-0.000000e+000
3.769553786500431e-005	9.996057e+000	-0.000000e+000
4.683839500786146e-005	9.996057e+000	-0.000000e+000
5.598125215071860e-005	9.996057e+000	-0.000000e+000
6.512410929357573e-005	9.996057e+000	-0.000000e+000
1.010124109293576e-003	9.996057e+000	-0.000000e+000
2.000000000000000e-003	9.996057e+000	-0.000000e+000
2.000000024414062e-003	3.332019e+000	1.957446e+001
2.000000073242188e-003	2.203446e-009	1.101723e+001
2.000000073432923e-003	2.207771e-009	1.103886e+001
2.000000073814392e-003	2.256521e-009	1.128261e+001
2.000000073909759e-003	2.264515e-009	1.132258e+001
2.000000073981285e-003	2.268536e-009	1.134268e+001
2.000000074076652e-003	2.273779e-009	1.136890e+001
2.000000074100494e-003	2.274435e-009	1.137217e+001
2.000001074100494e-003	2.508949e-009	1.254475e+001
2.000002074100494e-003	2.512023e-009	1.256012e+001
2.000003074100495e-003	2.424478e-009	1.212239e+001
2.000004074100495e-003	2.374048e-009	1.187024e+001
2.000005074100494e-003	2.352428e-009	1.176214e+001
2.000006074100494e-003	2.349921e-009	1.174961e+001
2.000007074100494e-003	2.359785e-009	1.179893e+001
2.000008074100495e-003	2.377267e-009	1.188633e+001
2.000009074100495e-003	2.397798e-009	1.198899e+001
2.000010046418519e-003	2.416424e-009	1.208212e+001
2.000010913050052e-003	2.430363e-009	1.215181e+001
2.000011432521011e-003	2.437478e-009	1.218739e+001
2.000012028955205e-003	2.444358e-009	1.222179e+001
2.000012734868622e-003	2.450863e-009	1.225432e+001
2.000013650411596e-003	2.457312e-009	1.228656e+001
2.000014575137885e-003	2.462069e-009	1.231034e+001
2.000015649193329e-003	2.466001e-009	1.233001e+001
2.000016736167527e-003	2.468829e-009	1.234414e+001
2.000017985235905e-003	2.471042e-009	1.235521e+001
2.000019403992677e-003	2.472170e-009	1.236085e+001
2.000020163027414e-003	2.471490e-009	1.235745e+001
2.000020909053043e-003	2.469774e-009	1.234887e+001
2.000021689631004e-003	2.467801e-009	1.233900e+001
2.000022510241836e-003	2.465989e-009	1.232994e+001
2.000023375064355e-003	2.464475e-009	1.232237e+001
2.000024106607547e-003	2.463469e-009	1.231735e+001
2.000024960459867e-003	2.462534e-009	1.231267e+001
2.000025851374186e-003	2.461841e-009	1.230920e+001
2.000026758255252e-003	2.461495e-009	1.230748e+001
2.000027907968873e-003	2.461533e-009	1.230766e+001
2.000029809475125e-003	2.462266e-009	1.231133e+001
2.000031776951699e-003	2.463571e-009	1.231786e+001
2.000035711904844e-003	2.466855e-009	1.233428e+001
2.000039412421095e-003	2.470132e-009	1.235066e+001
2.000044757834342e-003	2.474917e-009	1.237459e+001
2.000049432173788e-003	2.479287e-009	1.239644e+001
2.000053965568142e-003	2.484212e-009	1.242106e+001
2.000058982430602e-003	2.491219e-009	1.245609e+001
2.000063578823440e-003	2.500074e-009	1.250037e+001
2.000068554493431e-003	2.513638e-009	1.256819e+001
2.000074311012495e-003	2.535784e-009	1.267892e+001
2.000081624097363e-003	2.573328e-009	1.286664e+001
2.000087028394997e-003	2.607862e-009	1.303931e+001
2.000090452145021e-003	2.633520e-009	1.316760e+001
2.000093031612022e-003	2.655039e-009	1.327519e+001
2.000095207940609e-003	2.674778e-009	1.337389e+001
2.000097503615361e-003	2.697357e-009	1.348678e+001
2.000100063979307e-003	2.724844e-009	1.362422e+001
2.000103131495440e-003	2.761398e-009	1.380699e+001
2.000107962525996e-003	2.825945e-009	1.412972e+001
2.000113345205414e-003	2.906708e-009	1.453354e+001
2.000119647731350e-003	3.010131e-009	1.505065e+001
2.000122094488148e-003	3.052293e-009	1.526147e+001
2.000123296177887e-003	3.072769e-009	1.536385e+001
2.000124590899809e-003	3.093503e-009	1.546752e+001
2.000125028931003e-003	3.100200e-009	1.550100e+001
2.000125456328504e-003	3.106721e-009	1.553360e+001
2.000125707274340e-003	3.110586e-009	1.555293e+001
2.000126017667208e-003	3.115356e-009	1.557678e+001
2.000126468724768e-003	3.122268e-009	1.561134e+001
2.000126902921018e-003	3.128878e-009	1.564439e+001
2.000127771313518e-003	3.141921e-009	1.570961e+001
2.000128896683321e-003	3.158194e-009	1.579097e+001
2.000131147422928e-003	3.187687e-009	1.593843e+001
2.000133231615544e-003	3.207842e-009	1.603921e+001
2.000134823445677e-003	3.207894e-009	1.603947e+001
2.000136018616862e-003	3.183985e-009	1.591992e+001
2.000136817750629e-003	3.151420e-009	1.575710e+001
2.000137299916513e-003	3.132801e-009	1.566401e+001
2.000137689613541e-003	3.127381e-009	1.563690e+001
2.000138007652771e-003	3.130973e-009	1.565486e+001
2.000138239349590e-003	3.136801e-009	1.568400e+001
2.000138474833752e-003	3.143350e-009	1.571675e+001
2.000138672229270e-003	3.148727e-009	1.574364e+001
2.000138886175350e-003	3.154521e-009	1.577260e+001
2.000139074961552e-003	3.159535e-009	1.579768e+001
2.000139257949513e-003	3.164305e-009	1.582153e+001
2.000139489831011e-003	3.170217e-009	1.585109e+001
2.000139773950223e-003	3.177248e-009	1.588624e+001
2.000140342188646e-003	3.190659e-009	1.595329e+001
2.000140931206559e-003	3.203793e-009	1.601896e+001
2.000141385025378e-003	3.213507e-009	1.606753e+001
2.000141850961558e-003	3.223194e-009	1.611597e+001
2.000142187831678e-003	3.229956e-009	1.614978e+001
2.000142695432962e-003	3.239888e-009	1.619944e+001
2.000143167241913e-003	3.249030e-009	1.624515e+001
2.000143749086099e-003	3.260274e-009	1.630137e+001
2.000144368278624e-003	3.272300e-009	1.636150e+001
2.000145502922719e-003	3.294621e-009	1.647310e+001
2.000147596313338e-003	3.336653e-009	1.668327e+001
2.000150087280065e-003	3.388203e-009	1.694102e+001
2.000153464893305e-003	3.460840e-009	1.730420e+001
2.000157168840202e-003	3.544077e-009	1.772038e+001
2.000161269252305e-003	3.641821e-009	1.820911e+001
2.000168989395988e-003	3.839391e-009	1.919696e+001
2.000177335667912e-003	4.076049e-009	2.038025e+001
2.000194028211761e-003	4.606976e-009	2.303488e+001
2.000207294673519e-003	5.076229e-009	2.538114e+001
2.000217916374861e-003	5.491636e-009	2.745818e+001
2.000232428355147e-003	6.101651e-009	3.050826e+001
2.000243238320957e-003	6.578285e-009	3.289143e+001
2.000250628017243e-003	6.914328e-009	3.457164e+001
2.000258154289977e-003	7.261214e-009	3.630607e+001
2.000265672914478e-003	7.607814e-009	3.803907e+001
2.000276039077554e-003	8.076703e-009	4.038352e+001
2.000291491639232e-003	8.747991e-009	4.373996e+001
2.000302389046838e-003	9.191634e-009	4.595817e+001
2.000311815223527e-003	9.543369e-009	4.771685e+001
2.000321346879415e-003	9.865665e-009	4.932833e+001
2.000330918272035e-003	1.015183e-008	5.075915e+001
2.000343533679802e-003	1.046862e-008	5.234312e+001
2.000362417687298e-003	1.083356e-008	5.416782e+001
2.000388790708867e-003	1.118347e-008	5.591735e+001
2.000415742600895e-003	1.140515e-008	5.702576e+001
2.000432562679669e-003	1.148545e-008	5.742724e+001
2.000439628231101e-003	1.150464e-008	5.752318e+001
2.000444155526158e-003	1.151245e-008	5.756227e+001
2.000446401905836e-003	1.151551e-008	5.757755e+001
2.000448472153779e-003	1.151791e-008	5.758957e+001
2.000450987204521e-003	1.152033e-008	5.760165e+001
2.000455121081382e-003	1.152335e-008	5.761677e+001
2.000459440604811e-003	1.152533e-008	5.762664e+001
2.000465433198867e-003	1.152621e-008	5.763103e+001
2.000471813920709e-003	1.152499e-008	5.762494e+001
2.000481006121016e-003	1.151987e-008	5.759937e+001
2.000491703201211e-003	1.150968e-008	5.754842e+001
2.000508570113523e-003	1.148692e-008	5.743461e+001
2.000524574522091e-003	1.145990e-008	5.729948e+001
2.000536247945348e-003	1.143679e-008	5.718396e+001
2.000549226690566e-003	1.140817e-008	5.704086e+001
2.000563011957944e-003	1.137510e-008	5.687550e+001
2.000578974207866e-003	1.133369e-008	5.666845e+001
2.000595782784640e-003	1.128675e-008	5.643377e+001
2.000612176554156e-003	1.123751e-008	5.618754e+001
2.000629985003546e-003	1.118004e-008	5.590020e+001
2.000646809414140e-003	1.112159e-008	5.560797e+001
2.000665117737814e-003	1.105281e-008	5.526403e+001
2.000683964236397e-003	1.097554e-008	5.487767e+001
2.000705818426215e-003	1.087619e-008	5.438097e+001
2.000730676723097e-003	1.074711e-008	5.373557e+001
2.000764829786658e-003	1.053106e-008	5.265529e+001
2.000821798736514e-003	1.007664e-008	5.038321e+001
2.000883272713781e-003	9.482194e-009	4.741097e+001
2.000932071610289e-003	8.958333e-009	4.479166e+001
2.000989571403962e-003	8.332558e-009	4.166279e+001
2.001043679760117e-003	7.764847e-009	3.882424e+001
2.001096297982167e-003	7.239388e-009	3.619694e+001
2.001155151830680e-003	6.678344e-009	3.339172e+001
2.001216523871069e-003	6.116305e-009	3.058153e+001
2.001280542016341e-003	5.553472e-009	2.776736e+001
2.001350839625151e-003	4.976159e-009	2.488080e+001
2.001409881390935e-003	4.560977e-009	2.280489e+001
2.001484093505196e-003	4.141575e-009	2.070787e+001
2.001528564156866e-003	3.939352e-009	1.969676e+001
2.001573204047189e-003	3.771996e-009	1.885998e+001
2.001621680430360e-003	3.614714e-009	1.807357e+001
2.001671544174421e-003	3.473448e-009	1.736724e+001
2.001721300092758e-003	3.348851e-009	1.674425e+001
2.001761731939352e-003	3.257555e-009	1.628777e+001
2.001784061506735e-003	3.211362e-009	1.605681e+001
2.001798221673375e-003	3.183862e-009	1.591931e+001
2.001815252837432e-003	3.151800e-009	1.575900e+001
2.001834415455874e-003	3.116548e-009	1.558274e+001
2.001854070860629e-003	3.081688e-009	1.540844e+001
2.001888569255234e-003	3.023364e-009	1.511682e+001
2.001924187306409e-003	2.967216e-009	1.483608e+001
2.001995423408759e-003	2.865087e-009	1.432544e+001
2.002081230748856e-003	2.755989e-009	1.377995e+001
2.002203795311911e-003	2.620858e-009	1.310429e+001
2.002324990329399e-003	2.506276e-009	1.253138e+001
2.002484062886510e-003	2.374073e-009	1.187037e+001
2.002506190904758e-003	2.357275e-009	1.178638e+001
2.002531555848733e-003	2.339203e-009	1.169602e+001
2.002562435469181e-003	2.317763e-009	1.158882e+001
2.002593514006957e-003	2.296758e-009	1.148379e+001
2.002622991237221e-003	2.277412e-009	1.138706e+001
2.002662453239480e-003	2.252314e-009	1.126157e+001
2.002706958709900e-003	2.224987e-009	1.112493e+001
2.002761171428402e-003	2.192895e-009	1.096448e+001
2.002803344250173e-003	2.168845e-009	1.084422e+001
2.002853029237504e-003	2.141545e-009	1.070772e+001
2.002904723538410e-003	2.114131e-009	1.057065e+001
2.002957003365654e-003	2.087385e-009	1.043693e+001
2.003004425648906e-003	2.063980e-009	1.031990e+001
2.003059330827124e-003	2.037806e-009	1.018903e+001
2.003110412734960e-003	2.014292e-009	1.007146e+001
2.003174164005876e-003	1.986026e-009	9.930132e+000
2.003246321458952e-003	1.955309e-009	9.776546e+000
2.003336863537984e-003	1.918590e-009	9.592952e+000
2.003459004852901e-003	1.872039e-009	9.360196e+000
2.003656812711937e-003	1.802500e-009	9.012500e+000
2.003931878324732e-003	1.715086e-009	8.575428e+000
2.004290042606830e-003	1.615537e-009	8.077685e+000
2.004948045743074e-003	1.460404e-009	7.302022e+000
2.005824108562449e-003	1.288472e-009	6.442358e+000
2.006824108562449e-003	1.126865e-009	5.634327e+000
2.007824108562450e-003	9.997251e-010	4.998625e+000
2.008633563855908e-003	9.456915e-010	4.728457e+000
2.009080672787866e-003	9.682559e-010	4.841280e+000
2.009477951975341e-003	1.029149e-009	5.145744e+000
2.009666125017906e-003	1.059642e-009	5.298210e+000
2.009923865439461e-003	1.095823e-009	5.479115e+000
2.010065186478360e-003	1.116070e-009	5.580351e+000
2.010219232906511e-003	1.139422e-009	5.697108e+000
2.010464925731717e-003	1.176668e-009	5.883338e+000
2.010712590898290e-003	1.212514e-009	6.062572e+000
2.010976705936912e-003	1.245710e-009	6.228549e+000
2.011183473211030e-003	1.262581e-009	6.312907e+000
2.011341979745139e-003	1.265512e-009	6.327559e+000
2.011472860524636e-003	1.261252e-009	6.306261e+000
2.011590068380025e-003	1.254984e-009	6.274922e+000
2.011699256176177e-003	1.249006e-009	6.245028e+000
2.011809733376454e-003	1.243202e-009	6.216009e+000
2.011845702526886e-003	1.241301e-009	6.206506e+000
2.011862575208296e-003	1.240381e-009	6.201904e+000
2.011879939300520e-003	1.239409e-009	6.197047e+000
2.011895733917564e-003	1.238509e-009	6.192546e+000
2.011911708425354e-003	1.237582e-009	6.187912e+000
2.011928725361310e-003	1.236579e-009	6.182895e+000
2.011947352495856e-003	1.235464e-009	6.177321e+000
2.011967908167597e-003	1.234218e-009	6.171091e+000
2.011991794750083e-003	1.232755e-009	6.163776e+000
2.012020321735868e-003	1.230997e-009	6.154987e+000
2.012058858355410e-003	1.228621e-009	6.143106e+000
2.012085533134959e-003	1.226984e-009	6.134919e+000
2.012108834283485e-003	1.225566e-009	6.127828e+000
2.012137029367277e-003	1.223867e-009	6.119337e+000
2.012164742630838e-003	1.222215e-009	6.111073e+000
2.012177884783877e-003	1.221438e-009	6.107190e+000
2.012190400751067e-003	1.220704e-009	6.103519e+000
2.012207595942451e-003	1.219701e-009	6.098504e+000
2.012223640454291e-003	1.218770e-009	6.093850e+000
2.012243179736555e-003	1.217643e-009	6.088213e+000
2.012262586787283e-003	1.216528e-009	6.082641e+000
2.012287252165334e-003	1.215117e-009	6.075583e+000
2.012315356822222e-003	1.213512e-009	6.067561e+000
2.012357708765893e-003	1.211095e-009	6.055473e+000
2.012411305318099e-003	1.208029e-009	6.040146e+000
2.012475483827495e-003	1.204349e-009	6.021747e+000
2.012536540475924e-003	1.200849e-009	6.004244e+000
2.012631055416155e-003	1.195474e-009	5.977370e+000
2.012804567970765e-003	1.185777e-009	5.928885e+000
2.013050864346958e-003	1.172325e-009	5.861628e+000
2.013376640449961e-003	1.155062e-009	5.775311e+000
2.013878081776477e-003	1.129622e-009	5.648111e+000
2.014585192974986e-003	1.095648e-009	5.478239e+000
2.015233981704013e-003	1.066378e-009	5.331888e+000
2.015908899949756e-003	1.037929e-009	5.189643e+000
2.016591015268035e-003	1.011170e-009	5.055852e+000
2.017476813683681e-003	9.791076e-010	4.895538e+000
2.018476813683681e-003	9.459794e-010	4.729897e+000
2.019476813683681e-003	9.159113e-010	4.579557e+000
2.020476813683681e-003	8.887073e-010	4.443537e+000
2.021476813683681e-003	8.640935e-010	4.320468e+000
2.022476813683681e-003	8.418243e-010	4.209122e+000
2.023476813683681e-003	8.216756e-010	4.108378e+000
2.024476813683681e-003	8.034459e-010	4.017230e+000
2.025476813683681e-003	7.869522e-010	3.934761e+000
2.026476813683681e-003	7.720293e-010	3.860146e+000
2.027476813683681e-003	7.585275e-010	3.792638e+000
2.028476813683681e-003	7.463115e-010	3.731558e+000
2.029476813683681e-003	7.352591e-010	3.676295e+000
2.030476813683681e-003	7.252590e-010	3.626295e+000
2.031476813683681e-003	7.162114e-010	3.581057e+000
2.032476813683681e-003	7.080252e-010	3.540126e+000
2.033476813683681e-003	7.006188e-010	3.503094e+000
2.034476813683681e-003	6.939176e-010	3.469588e+000
2.035476813683681e-003	6.878547e-010	3.439273e+000
2.036476813683681e-003	6.823691e-010	3.411845e+000
2.037476813683681e-003	6.774059e-010	3.387029e+000
2.038476813683681e-003	6.729153e-010	3.364577e+000
2.039476813683681e-003	6.688524e-010	3.344262e+000
2.040476813683681e-003	6.651764e-010	3.325882e+000
2.041476813683681e-003	6.618504e-010	3.309252e+000
2.042476813683681e-003	6.588413e-010	3.294206e+000
2.043476813683681e-003	6.561185e-010	3.280593e+000
2.044476813683681e-003	6.536552e-010	3.268276e+000
2.045476813683681e-003	6.514264e-010	3.257132e+000
2.046476813683681e-003	6.494098e-010	3.247049e+000
2.047476813683681e-003	6.475853e-010	3.237926e+000
2.048476813683681e-003	6.459345e-010	3.229672e+000
2.049476813683681e-003	6.444409e-010	3.222205e+000
2.050476813683681e-003	6.430895e-010	3.215448e+000
2.051476813683681e-003	6.418668e-010	3.209334e+000
2.052476813683681e-003	6.407606e-010	3.203803e+000
2.053476813683681e-003	6.397596e-010	3.198798e+000
2.054476813683681e-003	6.388540e-010	3.194270e+000
2.055476813683681e-003	6.380347e-010	3.190173e+000
2.056476813683681e-003	6.372933e-010	3.186466e+000
2.057476813683681e-003	6.366225e-010	3.183113e+000
2.058476813683681e-003	6.360156e-010	3.180078e+000
2.059476813683681e-003	6.354665e-010	3.177332e+000
2.060476813683681e-003	6.349696e-010	3.174848e+000
2.061476813683681e-003	6.345201e-010	3.172600e+000
2.062476813683681e-003	6.341133e-010	3.170567e+000
2.063476813683681e-003	6.337453e-010	3.168726e+000
2.064476813683681e-003	6.334124e-010	3.167062e+000
2.065476813683681e-003	6.331111e-010	3.165555e+000
2.066476813683681e-003	6.328384e-010	3.164192e+000
2.067476813683681e-003	6.325918e-010	3.162959e+000
2.068476813683681e-003	6.323686e-010	3.161843e+000
2.069476813683681e-003	6.321667e-010	3.160834e+000
2.070476813683681e-003	6.319840e-010	3.159920e+000
2.071476813683681e-003	6.318187e-010	3.159093e+000
2.072476813683681e-003	6.316691e-010	3.158346e+000
2.073476813683681e-003	6.315338e-010	3.157669e+000
2.074476813683681e-003	6.314113e-010	3.157057e+000
2.075476813683681e-003	6.313005e-010	3.156502e+000
2.076476813683681e-003	6.312002e-010	3.156001e+000
2.077476813683681e-003	6.311095e-010	3.155547e+000
2.078476813683681e-003	6.310274e-010	3.155137e+000
2.079476813683681e-003	6.309531e-010	3.154766e+000
2.080476813683681e-003	6.308859e-010	3.154429e+000
2.081476813683681e-003	6.308251e-010	3.154125e+000
2.082476813683681e-003	6.307700e-010	3.153850e+000
2.083476813683681e-003	6.307202e-010	3.153601e+000
2.084476813683681e-003	6.306751e-010	3.153376e+000
2.085476813683681e-003	6.306343e-010	3.153172e+000
2.086476813683681e-003	6.305975e-010	3.152987e+000
2.087476813683681e-003	6.305640e-010	3.152820e+000
2.088476813683681e-003	6.305338e-010	3.152669e+000
2.089476813683681e-003	6.305065e-010	3.152532e+000
2.090476813683681e-003	6.304817e-010	3.152409e+000
2.091476813683681e-003	6.304593e-010	3.152297e+000
2.092476813683681e-003	6.304390e-010	3.152195e+000
2.093476813683681e-003	6.304207e-010	3.152103e+000
2.094476813683681e-003	6.304041e-010	3.152020e+000
2.095476813683681e-003	6.303890e-010	3.151945e+000
2.096476813683681e-003	6.303754e-010	3.151877e+000
2.097476813683681e-003	6.303631e-010	3.151815e+000
2.098476813683681e-003	6.303519e-010	3.151760e+000
2.099476813683681e-003	6.303419e-010	3.151709e+000
2.100476813683681e-003	6.303327e-010	3.151664e+000
2.101476813683681e-003	6.303245e-010	3.151622e+000
2.102476813683681e-003	6.303170e-010	3.151585e+000
2.103476813683681e-003	6.303101e-010	3.151551e+000
2.104476813683681e-003	6.303040e-010	3.151520e+000
2.105476813683681e-003	6.302985e-010	3.151492e+000
2.106476813683681e-003	6.302934e-010	3.151467e+000
2.107476813683681e-003	6.302888e-010	3.151444e+000
2.108476813683681e-003	6.302847e-010	3.151423e+000
2.109476813683681e-003	6.302809e-010	3.151405e+000
2.110476813683681e-003	6.302776e-010	3.151388e+000
2.111476813683681e-003	6.302745e-010	3.151372e+000
2.112476813683681e-003	6.302717e-010	3.151359e+000
2.113476813683681e-003	6.302692e-010	3.151346e+000
2.114476813683681e-003	6.302669e-010	3.151335e+000
2.115476813683681e-003	6.302648e-010	3.151324e+000
2.116476813683681e-003	6.302630e-010	3.151315e+000
2.117476813683681e-003	6.302612e-010	3.151306e+000
2.118476813683681e-003	6.302597e-010	3.151299e+000
2.119476813683681e-003	6.302583e-010	3.151291e+000
2.120476813683681e-003	6.302570e-010	3.151285e+000
2.121476813683681e-003	6.302558e-010	3.151279e+000
2.122476813683681e-003	6.302548e-010	3.151274e+000
2.123476813683681e-003	6.302538e-010	3.151269e+000
2.124476813683681e-003	6.302530e-010	3.151265e+000
2.125476813683681e-003	6.302522e-010	3.151261e+000
2.126476813683681e-003	6.302515e-010	3.151257e+000
2.127476813683681e-003	6.302508e-010	3.151254e+000
2.128476813683681e-003	6.302502e-010	3.151251e+000
