Freq.	V(out)
1.00000000000000e-001	(-2.64486543628303e-001dB,-6.97816218695996e-008°)
1.00230523807790e-001	(-2.64486543628303e-001dB,-6.99424851214709e-008°)
1.00461579027840e-001	(-2.64486543628303e-001dB,-7.01037192014360e-008°)
1.00693166885180e-001	(-2.64486543628303e-001dB,-7.02653249643413e-008°)
1.00925288607668e-001	(-2.64486543628303e-001dB,-7.04273032670052e-008°)
1.01157945425990e-001	(-2.64486543628303e-001dB,-7.05896549682200e-008°)
1.01391138573668e-001	(-2.64486543628303e-001dB,-7.07523809287586e-008°)
1.01624869287070e-001	(-2.64486543628303e-001dB,-7.09154820113776e-008°)
1.01859138805412e-001	(-2.64486543628303e-001dB,-7.10789590808230e-008°)
1.02093948370768e-001	(-2.64486543628303e-001dB,-7.12428130038335e-008°)
1.02329299228075e-001	(-2.64486543628303e-001dB,-7.14070446491466e-008°)
1.02565192625141e-001	(-2.64486543628303e-001dB,-7.15716548875021e-008°)
1.02801629812647e-001	(-2.64486543628303e-001dB,-7.17366445916470e-008°)
1.03038612044162e-001	(-2.64486543628303e-001dB,-7.19020146363405e-008°)
1.03276140576140e-001	(-2.64486543628303e-001dB,-7.20677658983579e-008°)
1.03514216667934e-001	(-2.64486543628303e-001dB,-7.22338992564960e-008°)
1.03752841581801e-001	(-2.64486543628303e-001dB,-7.24004155915773e-008°)
1.03992016582906e-001	(-2.64486543628303e-001dB,-7.25673157864546e-008°)
1.04231742939330e-001	(-2.64486543628303e-001dB,-7.27346007260165e-008°)
1.04472021922080e-001	(-2.64486543628303e-001dB,-7.29022712971909e-008°)
1.04712854805090e-001	(-2.64486543628303e-001dB,-7.30703283889507e-008°)
1.04954242865232e-001	(-2.64486543628303e-001dB,-7.32387728923173e-008°)
1.05196187382322e-001	(-2.64486543628303e-001dB,-7.34076057003675e-008°)
1.05438689639126e-001	(-2.64486543628303e-001dB,-7.35768277082354e-008°)
1.05681750921366e-001	(-2.64486543628303e-001dB,-7.37464398131195e-008°)
1.05925372517729e-001	(-2.64486543628303e-001dB,-7.39164429142863e-008°)
1.06169555719872e-001	(-2.64486543628303e-001dB,-7.40868379130752e-008°)
1.06414301822431e-001	(-2.64486543628303e-001dB,-7.42576257129034e-008°)
1.06659612123026e-001	(-2.64486543628303e-001dB,-7.44288072192712e-008°)
1.06905487922266e-001	(-2.64486543628303e-001dB,-7.46003833397658e-008°)
1.07151930523760e-001	(-2.64486543628303e-001dB,-7.47723549840666e-008°)
1.07398941234124e-001	(-2.64486543628303e-001dB,-7.49447230639502e-008°)
1.07646521362983e-001	(-2.64486543628303e-001dB,-7.51174884932947e-008°)
1.07894672222983e-001	(-2.64486543628303e-001dB,-7.52906521880855e-008°)
1.08143395129794e-001	(-2.64486543628303e-001dB,-7.54642150664195e-008°)
1.08392691402120e-001	(-2.64486543628303e-001dB,-7.56381780485094e-008°)
1.08642562361706e-001	(-2.64486543628303e-001dB,-7.58125420566898e-008°)
1.08893009333343e-001	(-2.64486543628303e-001dB,-7.59873080154213e-008°)
1.09144033644875e-001	(-2.64486543628303e-001dB,-7.61624768512955e-008°)
1.09395636627209e-001	(-2.64486543628303e-001dB,-7.63380494930402e-008°)
1.09647819614318e-001	(-2.64486543628303e-001dB,-7.65140268715241e-008°)
1.09900583943252e-001	(-2.64486543628303e-001dB,-7.66904099197619e-008°)
1.10153930954141e-001	(-2.64486543628303e-001dB,-7.68671995729187e-008°)
1.10407861990207e-001	(-2.64486543628303e-001dB,-7.70443967683156e-008°)
1.10662378397766e-001	(-2.64486543628303e-001dB,-7.72220024454348e-008°)
1.10917481526240e-001	(-2.64486543628303e-001dB,-7.74000175459237e-008°)
1.11173172728159e-001	(-2.64486543628303e-001dB,-7.75784430136006e-008°)
1.11429453359173e-001	(-2.64486543628303e-001dB,-7.77572797944597e-008°)
1.11686324778056e-001	(-2.64486543628303e-001dB,-7.79365288366758e-008°)
1.11943788346715e-001	(-2.64486543628303e-001dB,-7.81161910906094e-008°)
1.12201845430196e-001	(-2.64486543628303e-001dB,-7.82962675088120e-008°)
1.12460497396692e-001	(-2.64486543628303e-001dB,-7.84767590460307e-008°)
1.12719745617551e-001	(-2.64486543628303e-001dB,-7.86576666592137e-008°)
1.12979591467279e-001	(-2.64486543628303e-001dB,-7.88389913075153e-008°)
1.13240036323555e-001	(-2.64486543628303e-001dB,-7.90207339523006e-008°)
1.13501081567231e-001	(-2.64486543628303e-001dB,-7.92028955571510e-008°)
1.13762728582343e-001	(-2.64486543628303e-001dB,-7.93854770878693e-008°)
1.14024978756117e-001	(-2.64486543628303e-001dB,-7.95684795124844e-008°)
1.14287833478977e-001	(-2.64486543628303e-001dB,-7.97519038012572e-008°)
1.14551294144553e-001	(-2.64486543628303e-001dB,-7.99357509266848e-008°)
1.14815362149688e-001	(-2.64486543628303e-001dB,-8.01200218635065e-008°)
1.15080038894443e-001	(-2.64486543628303e-001dB,-8.03047175887084e-008°)
1.15345325782109e-001	(-2.64486543628303e-001dB,-8.04898390815289e-008°)
1.15611224219209e-001	(-2.64486543628303e-001dB,-8.06753873234637e-008°)
1.15877735615512e-001	(-2.64486543628303e-001dB,-8.08613632982709e-008°)
1.16144861384034e-001	(-2.64486543628303e-001dB,-8.10477679919770e-008°)
1.16412602941049e-001	(-2.64486543628303e-001dB,-8.12346023928810e-008°)
1.16680961706096e-001	(-2.64486543628303e-001dB,-8.14218674915601e-008°)
1.16949939101987e-001	(-2.64486543628303e-001dB,-8.16095642808753e-008°)
1.17219536554813e-001	(-2.64486543628303e-001dB,-8.17976937559765e-008°)
1.17489755493952e-001	(-2.64486543628303e-001dB,-8.19862569143070e-008°)
1.17760597352080e-001	(-2.64486543628303e-001dB,-8.21752547556104e-008°)
1.18032063565172e-001	(-2.64486543628303e-001dB,-8.23646882819340e-008°)
1.18304155572516e-001	(-2.64486543628303e-001dB,-8.25545584976360e-008°)
1.18576874816716e-001	(-2.64486543628303e-001dB,-8.27448664093888e-008°)
1.18850222743701e-001	(-2.64486543628303e-001dB,-8.29356130261865e-008°)
1.19124200802737e-001	(-2.64486543628303e-001dB,-8.31267993593484e-008°)
1.19398810446427e-001	(-2.64486543628303e-001dB,-8.33184264225255e-008°)
1.19674053130724e-001	(-2.64486543628303e-001dB,-8.35104952317053e-008°)
1.19949930314937e-001	(-2.64486543628303e-001dB,-8.37030068052178e-008°)
1.20226443461741e-001	(-2.64486543628303e-001dB,-8.38959621637399e-008°)
1.20503594037179e-001	(-2.64486543628303e-001dB,-8.40893623303017e-008°)
1.20781383510677e-001	(-2.64486543628303e-001dB,-8.42832083302917e-008°)
1.21059813355048e-001	(-2.64486543628303e-001dB,-8.44775011914623e-008°)
1.21338885046497e-001	(-2.64486543628303e-001dB,-8.46722419439348e-008°)
1.21618600064636e-001	(-2.64486543628303e-001dB,-8.48674316202051e-008°)
1.21898959892486e-001	(-2.64486543628303e-001dB,-8.50630712551495e-008°)
1.22179966016487e-001	(-2.64486543628303e-001dB,-8.52591618860298e-008°)
1.22461619926504e-001	(-2.64486543628303e-001dB,-8.54557045524994e-008°)
1.22743923115840e-001	(-2.64486543628302e-001dB,-8.56527002966075e-008°)
1.23026877081238e-001	(-2.64486543628302e-001dB,-8.58501501628059e-008°)
1.23310483322890e-001	(-2.64486543628302e-001dB,-8.60480551979548e-008°)
1.23594743344450e-001	(-2.64486543628302e-001dB,-8.62464164513263e-008°)
1.23879658653036e-001	(-2.64486543628302e-001dB,-8.64452349746123e-008°)
1.24165230759240e-001	(-2.64486543628302e-001dB,-8.66445118219286e-008°)
1.24451461177138e-001	(-2.64486543628302e-001dB,-8.68442480498218e-008°)
1.24738351424294e-001	(-2.64486543628302e-001dB,-8.70444447172728e-008°)
1.25025903021771e-001	(-2.64486543628303e-001dB,-8.72451028857047e-008°)
1.25314117494141e-001	(-2.64486543628303e-001dB,-8.74462236189871e-008°)
1.25602996369487e-001	(-2.64486543628303e-001dB,-8.76478079834421e-008°)
1.25892541179416e-001	(-2.64486543628303e-001dB,-8.78498570478501e-008°)
1.26182753459066e-001	(-2.64486543628303e-001dB,-8.80523718834548e-008°)
1.26473634747114e-001	(-2.64486543628303e-001dB,-8.82553535639698e-008°)
1.26765186585784e-001	(-2.64486543628303e-001dB,-8.84588031655840e-008°)
1.27057410520853e-001	(-2.64486543628303e-001dB,-8.86627217669667e-008°)
1.27350308101665e-001	(-2.64486543628302e-001dB,-8.88671104492741e-008°)
1.27643880881134e-001	(-2.64486543628302e-001dB,-8.90719702961547e-008°)
1.27938130415752e-001	(-2.64486543628302e-001dB,-8.92773023937550e-008°)
1.28233058265601e-001	(-2.64486543628302e-001dB,-8.94831078307251e-008°)
1.28528665994361e-001	(-2.64486543628302e-001dB,-8.96893876982253e-008°)
1.28824955169313e-001	(-2.64486543628302e-001dB,-8.98961430899307e-008°)
1.29121927361353e-001	(-2.64486543628302e-001dB,-9.01033751020380e-008°)
1.29419584144998e-001	(-2.64486543628302e-001dB,-9.03110848332706e-008°)
1.29717927098395e-001	(-2.64486543628302e-001dB,-9.05192733848845e-008°)
1.30016957803328e-001	(-2.64486543628302e-001dB,-9.07279418606752e-008°)
1.30316677845229e-001	(-2.64486543628302e-001dB,-9.09370913669819e-008°)
1.30617088813183e-001	(-2.64486543628302e-001dB,-9.11467230126945e-008°)
1.30918192299940e-001	(-2.64486543628302e-001dB,-9.13568379092589e-008°)
1.31219989901919e-001	(-2.64486543628302e-001dB,-9.15674371706839e-008°)
1.31522483219223e-001	(-2.64486543628302e-001dB,-9.17785219135456e-008°)
1.31825673855640e-001	(-2.64486543628302e-001dB,-9.19900932569942e-008°)
1.32129563418657e-001	(-2.64486543628302e-001dB,-9.22021523227597e-008°)
1.32434153519466e-001	(-2.64486543628302e-001dB,-9.24147002351583e-008°)
1.32739445772973e-001	(-2.64486543628302e-001dB,-9.26277381210981e-008°)
1.33045441797808e-001	(-2.64486543628302e-001dB,-9.28412671100846e-008°)
1.33352143216331e-001	(-2.64486543628302e-001dB,-9.30552883342271e-008°)
1.33659551654643e-001	(-2.64486543628302e-001dB,-9.32698029282452e-008°)
1.33967668742593e-001	(-2.64486543628302e-001dB,-9.34848120294736e-008°)
1.34276496113785e-001	(-2.64486543628302e-001dB,-9.37003167778691e-008°)
1.34586035405594e-001	(-2.64486543628302e-001dB,-9.39163183160167e-008°)
1.34896288259164e-001	(-2.64486543628302e-001dB,-9.41328177891351e-008°)
1.35207256319427e-001	(-2.64486543628302e-001dB,-9.43498163450824e-008°)
1.35518941235103e-001	(-2.64486543628302e-001dB,-9.45673151343640e-008°)
1.35831344658714e-001	(-2.64486543628302e-001dB,-9.47853153101365e-008°)
1.36144468246594e-001	(-2.64486543628302e-001dB,-9.50038180282152e-008°)
1.36458313658891e-001	(-2.64486543628302e-001dB,-9.52228244470796e-008°)
1.36772882559584e-001	(-2.64486543628302e-001dB,-9.54423357278803e-008°)
1.37088176616484e-001	(-2.64486543628302e-001dB,-9.56623530344439e-008°)
1.37404197501250e-001	(-2.64486543628302e-001dB,-9.58828775332803e-008°)
1.37720946889394e-001	(-2.64486543628302e-001dB,-9.61039103935884e-008°)
1.38038426460287e-001	(-2.64486543628302e-001dB,-9.63254527872630e-008°)
1.38356637897177e-001	(-2.64486543628302e-001dB,-9.65475058888989e-008°)
1.38675582887188e-001	(-2.64486543628302e-001dB,-9.67700708758005e-008°)
1.38995263121334e-001	(-2.64486543628302e-001dB,-9.69931489279844e-008°)
1.39315680294529e-001	(-2.64486543628302e-001dB,-9.72167412281886e-008°)
1.39636836105593e-001	(-2.64486543628302e-001dB,-9.74408489618770e-008°)
1.39958732257261e-001	(-2.64486543628302e-001dB,-9.76654733172468e-008°)
1.40281370456195e-001	(-2.64486543628302e-001dB,-9.78906154852338e-008°)
1.40604752412990e-001	(-2.64486543628302e-001dB,-9.81162766595193e-008°)
1.40928879842186e-001	(-2.64486543628302e-001dB,-9.83424580365367e-008°)
1.41253754462274e-001	(-2.64486543628302e-001dB,-9.85691608154770e-008°)
1.41579377995707e-001	(-2.64486543628302e-001dB,-9.87963861982953e-008°)
1.41905752168908e-001	(-2.64486543628302e-001dB,-9.90241353897184e-008°)
1.42232878712281e-001	(-2.64486543628302e-001dB,-9.92524095972499e-008°)
1.42560759360218e-001	(-2.64486543628302e-001dB,-9.94812100311765e-008°)
1.42889395851109e-001	(-2.64486543628302e-001dB,-9.97105379045762e-008°)
1.43218789927353e-001	(-2.64486543628302e-001dB,-9.99403944333217e-008°)
1.43548943335364e-001	(-2.64486543628302e-001dB,-1.00170780836090e-007°)
1.43879857825583e-001	(-2.64486543628302e-001dB,-1.00401698334366e-007°)
1.44211535152486e-001	(-2.64486543628302e-001dB,-1.00633148152452e-007°)
1.44543977074591e-001	(-2.64486543628302e-001dB,-1.00865131517472e-007°)
1.44877185354475e-001	(-2.64486543628302e-001dB,-1.01097649659378e-007°)
1.45211161758773e-001	(-2.64486543628302e-001dB,-1.01330703810959e-007°)
1.45545908058195e-001	(-2.64486543628302e-001dB,-1.01564295207845e-007°)
1.45881426027534e-001	(-2.64486543628302e-001dB,-1.01798425088513e-007°)
1.46217717445671e-001	(-2.64486543628302e-001dB,-1.02033094694297e-007°)
1.46554784095590e-001	(-2.64486543628302e-001dB,-1.02268305269392e-007°)
1.46892627764385e-001	(-2.64486543628302e-001dB,-1.02504058060862e-007°)
1.47231250243271e-001	(-2.64486543628302e-001dB,-1.02740354318643e-007°)
1.47570653327588e-001	(-2.64486543628302e-001dB,-1.02977195295555e-007°)
1.47910838816819e-001	(-2.64486543628302e-001dB,-1.03214582247306e-007°)
1.48251808514594e-001	(-2.64486543628302e-001dB,-1.03452516432497e-007°)
1.48593564228699e-001	(-2.64486543628302e-001dB,-1.03690999112631e-007°)
1.48936107771090e-001	(-2.64486543628302e-001dB,-1.03930031552121e-007°)
1.49279440957898e-001	(-2.64486543628302e-001dB,-1.04169615018293e-007°)
1.49623565609442e-001	(-2.64486543628302e-001dB,-1.04409750781393e-007°)
1.49968483550236e-001	(-2.64486543628302e-001dB,-1.04650440114598e-007°)
1.50314196609001e-001	(-2.64486543628302e-001dB,-1.04891684294019e-007°)
1.50660706618673e-001	(-2.64486543628302e-001dB,-1.05133484598709e-007°)
1.51008015416413e-001	(-2.64486543628302e-001dB,-1.05375842310668e-007°)
1.51356124843619e-001	(-2.64486543628302e-001dB,-1.05618758714853e-007°)
1.51705036745932e-001	(-2.64486543628302e-001dB,-1.05862235099183e-007°)
1.52054752973248e-001	(-2.64486543628302e-001dB,-1.06106272754546e-007°)
1.52405275379728e-001	(-2.64486543628302e-001dB,-1.06350872974803e-007°)
1.52756605823806e-001	(-2.64486543628302e-001dB,-1.06596037056803e-007°)
1.53108746168202e-001	(-2.64486543628302e-001dB,-1.06841766300379e-007°)
1.53461698279928e-001	(-2.64486543628302e-001dB,-1.07088062008365e-007°)
1.53815464030302e-001	(-2.64486543628302e-001dB,-1.07334925486595e-007°)
1.54170045294954e-001	(-2.64486543628302e-001dB,-1.07582358043915e-007°)
1.54525443953840e-001	(-2.64486543628304e-001dB,-1.07830360992188e-007°)
1.54881661891247e-001	(-2.64486543628304e-001dB,-1.08078935646301e-007°)
1.55238700995807e-001	(-2.64486543628304e-001dB,-1.08328083324172e-007°)
1.55596563160506e-001	(-2.64486543628304e-001dB,-1.08577805346757e-007°)
1.55955250282694e-001	(-2.64486543628304e-001dB,-1.08828103038057e-007°)
1.56314764264094e-001	(-2.64486543628304e-001dB,-1.09078977725126e-007°)
1.56675107010813e-001	(-2.64486543628304e-001dB,-1.09330430738076e-007°)
1.57036280433354e-001	(-2.64486543628304e-001dB,-1.09582463410087e-007°)
1.57398286446620e-001	(-2.64486543628304e-001dB,-1.09835077077410e-007°)
1.57761126969933e-001	(-2.64486543628304e-001dB,-1.10088273079378e-007°)
1.58124803927037e-001	(-2.64486543628304e-001dB,-1.10342052758410e-007°)
1.58489319246110e-001	(-2.64486543628304e-001dB,-1.10596417460023e-007°)
1.58854674859776e-001	(-2.64486543628304e-001dB,-1.10851368532831e-007°)
1.59220872705115e-001	(-2.64486543628304e-001dB,-1.11106907328560e-007°)
1.59587914723672e-001	(-2.64486543628304e-001dB,-1.11363035202051e-007°)
1.59955802861465e-001	(-2.64486543628304e-001dB,-1.11619753511270e-007°)
1.60324539069002e-001	(-2.64486543628304e-001dB,-1.11877063617309e-007°)
1.60694125301286e-001	(-2.64486543628304e-001dB,-1.12134966884404e-007°)
1.61064563517825e-001	(-2.64486543628304e-001dB,-1.12393464679930e-007°)
1.61435855682647e-001	(-2.64486543628304e-001dB,-1.12652558374417e-007°)
1.61808003764305e-001	(-2.64486543628304e-001dB,-1.12912249341555e-007°)
1.62181009735891e-001	(-2.64486543628304e-001dB,-1.13172538958198e-007°)
1.62554875575047e-001	(-2.64486543628304e-001dB,-1.13433428604377e-007°)
1.62929603263970e-001	(-2.64486543628304e-001dB,-1.13694919663302e-007°)
1.63305194789432e-001	(-2.64486543628304e-001dB,-1.13957013521374e-007°)
1.63681652142779e-001	(-2.64486543628304e-001dB,-1.14219711568187e-007°)
1.64058977319952e-001	(-2.64486543628304e-001dB,-1.14483015196541e-007°)
1.64437172321491e-001	(-2.64486543628304e-001dB,-1.14746925802445e-007°)
1.64816239152549e-001	(-2.64486543628304e-001dB,-1.15011444785126e-007°)
1.65196179822900e-001	(-2.64486543628304e-001dB,-1.15276573547040e-007°)
1.65576996346951e-001	(-2.64486543628304e-001dB,-1.15542313493870e-007°)
1.65958690743754e-001	(-2.64486543628304e-001dB,-1.15808666034544e-007°)
1.66341265037015e-001	(-2.64486543628304e-001dB,-1.16075632581238e-007°)
1.66724721255104e-001	(-2.64486543628304e-001dB,-1.16343214549381e-007°)
1.67109061431069e-001	(-2.64486543628304e-001dB,-1.16611413357665e-007°)
1.67494287602642e-001	(-2.64486543628304e-001dB,-1.16880230428055e-007°)
1.67880401812254e-001	(-2.64486543628304e-001dB,-1.17149667185791e-007°)
1.68267406107045e-001	(-2.64486543628304e-001dB,-1.17419725059401e-007°)
1.68655302538872e-001	(-2.64486543628304e-001dB,-1.17690405480705e-007°)
1.69044093164324e-001	(-2.64486543628304e-001dB,-1.17961709884822e-007°)
1.69433780044731e-001	(-2.64486543628304e-001dB,-1.18233639710183e-007°)
1.69824365246172e-001	(-2.64486543628304e-001dB,-1.18506196398532e-007°)
1.70215850839493e-001	(-2.64486543628304e-001dB,-1.18779381394936e-007°)
1.70608238900310e-001	(-2.64486543628304e-001dB,-1.19053196147797e-007°)
1.71001531509027e-001	(-2.64486543628304e-001dB,-1.19327642108853e-007°)
1.71395730750840e-001	(-2.64486543628304e-001dB,-1.19602720733188e-007°)
1.71790838715757e-001	(-2.64486543628304e-001dB,-1.19878433479243e-007°)
1.72186857498599e-001	(-2.64486543628304e-001dB,-1.20154781808818e-007°)
1.72583789199018e-001	(-2.64486543628304e-001dB,-1.20431767187086e-007°)
1.72981635921508e-001	(-2.64486543628304e-001dB,-1.20709391082594e-007°)
1.73380399775412e-001	(-2.64486543628304e-001dB,-1.20987654967278e-007°)
1.73780082874935e-001	(-2.64486543628304e-001dB,-1.21266560316464e-007°)
1.74180687339159e-001	(-2.64486543628304e-001dB,-1.21546108608881e-007°)
1.74582215292048e-001	(-2.64486543628304e-001dB,-1.21826301326667e-007°)
1.74984668862463e-001	(-2.64486543628304e-001dB,-1.22107139955375e-007°)
1.75388050184174e-001	(-2.64486543628304e-001dB,-1.22388625983984e-007°)
1.75792361395867e-001	(-2.64486543628304e-001dB,-1.22670760904904e-007°)
1.76197604641161e-001	(-2.64486543628304e-001dB,-1.22953546213987e-007°)
1.76603782068614e-001	(-2.64486543628304e-001dB,-1.23236983410532e-007°)
1.77010895831740e-001	(-2.64486543628304e-001dB,-1.23521073997296e-007°)
1.77418948089014e-001	(-2.64486543628304e-001dB,-1.23805819480497e-007°)
1.77827941003890e-001	(-2.64486543628304e-001dB,-1.24091221369829e-007°)
1.78237876744807e-001	(-2.64486543628304e-001dB,-1.24377281178464e-007°)
1.78648757485203e-001	(-2.64486543628304e-001dB,-1.24664000423062e-007°)
1.79060585403527e-001	(-2.64486543628304e-001dB,-1.24951380623781e-007°)
1.79473362683250e-001	(-2.64486543628304e-001dB,-1.25239423304281e-007°)
1.79887091512876e-001	(-2.64486543628304e-001dB,-1.25528129991736e-007°)
1.80301774085954e-001	(-2.64486543628304e-001dB,-1.25817502216840e-007°)
1.80717412601090e-001	(-2.64486543628304e-001dB,-1.26107541513817e-007°)
1.81134009261958e-001	(-2.64486543628304e-001dB,-1.26398249420425e-007°)
1.81551566277311e-001	(-2.64486543628304e-001dB,-1.26689627477969e-007°)
1.81970085860996e-001	(-2.64486543628304e-001dB,-1.26981677231306e-007°)
1.82389570231961e-001	(-2.64486543628304e-001dB,-1.27274400228855e-007°)
1.82810021614272e-001	(-2.64486543628304e-001dB,-1.27567798022604e-007°)
1.83231442237119e-001	(-2.64486543628304e-001dB,-1.27861872168120e-007°)
1.83653834334832e-001	(-2.64486543628304e-001dB,-1.28156624224553e-007°)
1.84077200146893e-001	(-2.64486543628304e-001dB,-1.28452055754651e-007°)
1.84501541917945e-001	(-2.64486543628304e-001dB,-1.28748168324761e-007°)
1.84926861897805e-001	(-2.64486543628304e-001dB,-1.29044963504843e-007°)
1.85353162341479e-001	(-2.64486543628304e-001dB,-1.29342442868475e-007°)
1.85780445509167e-001	(-2.64486543628304e-001dB,-1.29640607992865e-007°)
1.86208713666284e-001	(-2.64486543628304e-001dB,-1.29939460458852e-007°)
1.86637969083464e-001	(-2.64486543628304e-001dB,-1.30239001850923e-007°)
1.87068214036577e-001	(-2.64486543628304e-001dB,-1.30539233757218e-007°)
