time	V(in1)	V(in2)	V(out)
0.000000000000000e+000	0.000000e+000	1.000000e+000	9.810694e-001
1.828571396483054e-012	0.000000e+000	1.000000e+000	9.810694e-001
3.657142792966109e-012	0.000000e+000	1.000000e+000	9.810694e-001
5.485714189449163e-012	0.000000e+000	1.000000e+000	9.810694e-001
7.314285585932218e-012	0.000000e+000	1.000000e+000	9.810694e-001
9.142856982415273e-012	0.000000e+000	1.000000e+000	9.810694e-001
1.097142837889833e-011	0.000000e+000	1.000000e+000	9.810694e-001
1.279999977538138e-011	0.000000e+000	1.000000e+000	9.810694e-001
9.471999833782223e-010	0.000000e+000	1.000000e+000	9.810698e-001
1.881599966981063e-009	0.000000e+000	1.000000e+000	9.810701e-001
2.815999950583904e-009	0.000000e+000	1.000000e+000	9.810703e-001
3.750399934186745e-009	0.000000e+000	1.000000e+000	9.810705e-001
4.684799917789586e-009	0.000000e+000	1.000000e+000	9.810705e-001
5.619199901392427e-009	0.000000e+000	1.000000e+000	9.810705e-001
6.553599884995265e-009	0.000000e+000	1.000000e+000	9.810704e-001
1.000000000000000e-003	0.000000e+000	1.000000e+000	9.810700e-001
1.000000000022921e-003	2.521251e-005	1.000000e+000	9.810811e-001
1.000000000068761e-003	7.563754e-005	1.000000e+000	9.811020e-001
1.000000000160443e-003	1.764876e-004	1.000000e+000	9.811391e-001
1.000000000343807e-003	3.781877e-004	1.000000e+000	9.811980e-001
1.000000000710535e-003	7.815880e-004	1.000000e+000	9.812816e-001
1.000000001443990e-003	1.588388e-003	1.000000e+000	9.814008e-001
1.000000002910899e-003	3.201989e-003	1.000000e+000	9.816403e-001
1.000000005844719e-003	6.429191e-003	1.000000e+000	9.823177e-001
1.000000011712359e-003	1.288360e-002	1.000000e+000	9.842727e-001
1.000000023447638e-003	2.579240e-002	1.000000e+000	9.892942e-001
1.000000046918197e-003	5.161002e-002	1.000000e+000	1.000594e+000
1.000000093859315e-003	1.032452e-001	1.000000e+000	1.023705e+000
1.000000187741550e-003	2.065157e-001	1.000000e+000	1.068801e+000
1.000000375506021e-003	4.130566e-001	1.000000e+000	1.154721e+000
1.000000624471059e-003	6.869181e-001	1.000000e+000	1.260049e+000
1.000001000000000e-003	1.100000e+000	1.000000e+000	1.407587e+000
1.000001037552894e-003	1.100000e+000	1.000000e+000	1.405148e+000
1.000001112658682e-003	1.100000e+000	1.000000e+000	1.396866e+000
1.000001262870259e-003	1.100000e+000	1.000000e+000	1.377814e+000
1.000001563293412e-003	1.100000e+000	1.000000e+000	1.344253e+000
1.000002164139718e-003	1.100000e+000	1.000000e+000	1.290152e+000
1.000002803685241e-003	1.100000e+000	1.000000e+000	1.246904e+000
1.000003561019092e-003	1.100000e+000	1.000000e+000	1.211024e+000
1.000004485776018e-003	1.100000e+000	1.000000e+000	1.181269e+000
1.000005688939355e-003	1.100000e+000	1.000000e+000	1.156022e+000
1.000007205191806e-003	1.100000e+000	1.000000e+000	1.135818e+000
1.000009252466324e-003	1.100000e+000	1.000000e+000	1.118433e+000
1.000011891256570e-003	1.100000e+000	1.000000e+000	1.102615e+000
1.000015700681240e-003	1.100000e+000	1.000000e+000	1.082279e+000
1.000020507057344e-003	1.100000e+000	1.000000e+000	1.059242e+000
1.000026569974194e-003	1.100000e+000	1.000000e+000	1.046870e+000
1.000034179069080e-003	1.100000e+000	1.000000e+000	1.057531e+000
1.000041093730501e-003	1.100000e+000	1.000000e+000	1.072620e+000
1.000049798696495e-003	1.100000e+000	1.000000e+000	1.080820e+000
1.000057887127898e-003	1.100000e+000	1.000000e+000	1.081563e+000
1.000074063990706e-003	1.100000e+000	1.000000e+000	1.080925e+000
1.000093086168669e-003	1.100000e+000	1.000000e+000	1.080762e+000
1.000131130524595e-003	1.100000e+000	1.000000e+000	1.080780e+000
1.000207219236448e-003	1.100000e+000	1.000000e+000	1.080780e+000
1.000359396660154e-003	1.100000e+000	1.000000e+000	1.080780e+000
1.991407250000000e-003	1.100000e+000	1.000000e+000	1.080780e+000
1.995257956140196e-003	1.100000e+000	1.000000e+000	1.080769e+000
1.995258956140195e-003	1.100000e+000	1.000000e+000	1.080772e+000
1.995260956140195e-003	1.100000e+000	1.000000e+000	1.080778e+000
1.995264956140195e-003	1.100000e+000	1.000000e+000	1.080778e+000
1.995272956140194e-003	1.100000e+000	1.000000e+000	1.080780e+000
1.995288956140193e-003	1.100000e+000	1.000000e+000	1.080779e+000
1.995320956140190e-003	1.100000e+000	1.000000e+000	1.080779e+000
1.995384956140184e-003	1.100000e+000	1.000000e+000	1.080779e+000
1.995512956140172e-003	1.100000e+000	1.000000e+000	1.080779e+000
1.997953000000190e-003	1.100000e+000	1.000000e+000	1.080779e+000
1.998704912279632e-003	1.100000e+000	1.000000e+000	1.080782e+000
1.998705912279632e-003	1.100000e+000	1.000000e+000	1.080781e+000
1.998707912279632e-003	1.100000e+000	1.000000e+000	1.080779e+000
1.998711912279631e-003	1.100000e+000	1.000000e+000	1.080780e+000
1.998719912279631e-003	1.100000e+000	1.000000e+000	1.080779e+000
1.998735912279629e-003	1.100000e+000	1.000000e+000	1.080779e+000
1.998767912279626e-003	1.100000e+000	1.000000e+000	1.080779e+000
1.998831912279620e-003	1.100000e+000	1.000000e+000	1.080779e+000
1.998959912279608e-003	1.100000e+000	1.000000e+000	1.080779e+000
1.999215912279585e-003	1.100000e+000	1.000000e+000	1.080779e+000
1.999489000000047e-003	1.100000e+000	1.000000e+000	1.080782e+000
1.999490000000047e-003	1.100000e+000	1.000000e+000	1.080781e+000
1.999492000000047e-003	1.100000e+000	1.000000e+000	1.080779e+000
1.999496000000047e-003	1.100000e+000	1.000000e+000	1.080780e+000
1.999504000000046e-003	1.100000e+000	1.000000e+000	1.080779e+000
1.999520000000045e-003	1.100000e+000	1.000000e+000	1.080779e+000
1.999552000000042e-003	1.100000e+000	1.000000e+000	1.080779e+000
1.999616000000036e-003	1.100000e+000	1.000000e+000	1.080779e+000
1.999744000000024e-003	1.100000e+000	1.000000e+000	1.080782e+000
1.999745000000024e-003	1.100000e+000	1.000000e+000	1.080781e+000
1.999747000000024e-003	1.100000e+000	1.000000e+000	1.080779e+000
1.999751000000023e-003	1.100000e+000	1.000000e+000	1.080780e+000
1.999759000000022e-003	1.100000e+000	1.000000e+000	1.080779e+000
1.999775000000021e-003	1.100000e+000	1.000000e+000	1.080780e+000
1.999807000000018e-003	1.100000e+000	1.000000e+000	1.080779e+000
1.999871000000012e-003	1.100000e+000	1.000000e+000	1.080778e+000
1.999873000000012e-003	1.100000e+000	1.000000e+000	1.080779e+000
1.999877000000011e-003	1.100000e+000	1.000000e+000	1.080780e+000
1.999885000000011e-003	1.100000e+000	1.000000e+000	1.080779e+000
1.999933000000006e-003	1.100000e+000	1.000000e+000	1.080780e+000
1.999945000000005e-003	1.100000e+000	1.000000e+000	1.080779e+000
1.999969000000003e-003	1.100000e+000	1.000000e+000	1.080779e+000
1.999985000000001e-003	1.100000e+000	1.000000e+000	1.080777e+000
1.999986000000001e-003	1.100000e+000	1.000000e+000	1.080778e+000
1.999988000000001e-003	1.100000e+000	1.000000e+000	1.080780e+000
1.999992000000001e-003	1.100000e+000	1.000000e+000	1.080781e+000
1.999995000000001e-003	1.100000e+000	1.000000e+000	1.080779e+000
1.999997000000000e-003	1.100000e+000	1.000000e+000	1.080778e+000
1.999998000000000e-003	1.100000e+000	1.000000e+000	1.080779e+000
1.999999000000000e-003	1.100000e+000	1.000000e+000	1.080779e+000
2.000000000000000e-003	1.100000e+000	1.000000e+000	1.080779e+000
2.000001000000000e-003	1.100000e+000	1.000000e+000	1.080680e+000
2.000001100000000e-003	9.900000e-001	1.000000e+000	1.032364e+000
2.000001300000000e-003	7.700000e-001	1.000000e+000	9.309760e-001
2.000001600000000e-003	4.400000e-001	1.000000e+000	7.728308e-001
2.000002000000000e-003	1.019427e-010	1.000000e+000	5.567468e-001
2.000002040000000e-003	3.398089e-011	1.000000e+000	5.526353e-001
2.000002120000000e-003	0.000000e+000	1.000000e+000	5.473881e-001
2.000002280000000e-003	0.000000e+000	1.000000e+000	5.400379e-001
2.000002600000000e-003	0.000000e+000	1.000000e+000	5.289469e-001
2.000003240000000e-003	0.000000e+000	1.000000e+000	5.212633e-001
2.000004081474801e-003	0.000000e+000	1.000000e+000	5.380703e-001
2.000005029211899e-003	0.000000e+000	1.000000e+000	5.879030e-001
2.000006250612779e-003	0.000000e+000	1.000000e+000	6.802259e-001
2.000007412824316e-003	0.000000e+000	1.000000e+000	7.789140e-001
2.000008639289291e-003	0.000000e+000	1.000000e+000	8.781173e-001
2.000009769082373e-003	0.000000e+000	1.000000e+000	9.513672e-001
2.000011041682896e-003	0.000000e+000	1.000000e+000	1.004846e+000
2.000012644435500e-003	0.000000e+000	1.000000e+000	1.037197e+000
2.000014464143552e-003	0.000000e+000	1.000000e+000	1.045687e+000
2.000016208196975e-003	0.000000e+000	1.000000e+000	1.039118e+000
2.000018193291204e-003	0.000000e+000	1.000000e+000	1.025962e+000
2.000020567371117e-003	0.000000e+000	1.000000e+000	1.011456e+000
2.000023982700877e-003	0.000000e+000	1.000000e+000	9.973692e-001
2.000029198242179e-003	0.000000e+000	1.000000e+000	9.873708e-001
2.000039629324784e-003	0.000000e+000	1.000000e+000	9.818484e-001
2.000050015699218e-003	0.000000e+000	1.000000e+000	9.810287e-001
2.000069089186588e-003	0.000000e+000	1.000000e+000	9.810772e-001
2.000102325931639e-003	0.000000e+000	1.000000e+000	9.810661e-001
2.000168799421743e-003	0.000000e+000	1.000000e+000	9.810718e-001
2.000301746401950e-003	0.000000e+000	1.000000e+000	9.810693e-001
2.000567640362363e-003	0.000000e+000	1.000000e+000	9.810705e-001
2.001099428283191e-003	0.000000e+000	1.000000e+000	9.810699e-001
2.004290155808157e-003	0.000000e+000	1.000000e+000	9.810700e-001
2.993481131816022e-003	0.000000e+000	1.000000e+000	9.810700e-001
2.995850236367957e-003	0.000000e+000	1.000000e+000	9.811024e-001
2.995851236367957e-003	0.000000e+000	1.000000e+000	9.810967e-001
2.995853236367957e-003	0.000000e+000	1.000000e+000	9.810827e-001
2.995857236367956e-003	0.000000e+000	1.000000e+000	9.810748e-001
2.995865236367956e-003	0.000000e+000	1.000000e+000	9.810694e-001
2.995881236367954e-003	0.000000e+000	1.000000e+000	9.810700e-001
2.995913236367951e-003	0.000000e+000	1.000000e+000	9.810700e-001
2.995977236367945e-003	0.000000e+000	1.000000e+000	9.810700e-001
2.996105236367933e-003	0.000000e+000	1.000000e+000	9.810700e-001
2.996361236367910e-003	0.000000e+000	1.000000e+000	9.810700e-001
2.997897236367767e-003	0.000000e+000	1.000000e+000	9.810700e-001
2.998061527265035e-003	0.000000e+000	1.000000e+000	9.810700e-001
2.998280581794726e-003	0.000000e+000	1.000000e+000	9.810700e-001
2.998718690854108e-003	0.000000e+000	1.000000e+000	9.810700e-001
2.999123781881237e-003	0.000000e+000	1.000000e+000	9.810700e-001
2.999321890074748e-003	0.000000e+000	1.000000e+000	9.810700e-001
2.999586034332764e-003	0.000000e+000	1.000000e+000	9.810655e-001
2.999587034332763e-003	0.000000e+000	1.000000e+000	9.810678e-001
2.999589034332763e-003	0.000000e+000	1.000000e+000	9.810712e-001
2.999593034332763e-003	0.000000e+000	1.000000e+000	9.810694e-001
2.999601034332762e-003	0.000000e+000	1.000000e+000	9.810703e-001
2.999617034332761e-003	0.000000e+000	1.000000e+000	9.810699e-001
2.999649034332758e-003	0.000000e+000	1.000000e+000	9.810700e-001
2.999713034332752e-003	0.000000e+000	1.000000e+000	9.810700e-001
2.999841034332740e-003	0.000000e+000	1.000000e+000	9.810657e-001
2.999842034332740e-003	0.000000e+000	1.000000e+000	9.810678e-001
2.999844034332740e-003	0.000000e+000	1.000000e+000	9.810711e-001
2.999848034332739e-003	0.000000e+000	1.000000e+000	9.810695e-001
2.999856034332738e-003	0.000000e+000	1.000000e+000	9.810703e-001
2.999872034332737e-003	0.000000e+000	1.000000e+000	9.810699e-001
2.999904034332734e-003	0.000000e+000	1.000000e+000	9.810700e-001
2.999936000000006e-003	0.000000e+000	1.000000e+000	9.811170e-001
2.999936068665456e-003	0.000000e+000	1.000000e+000	9.810963e-001
2.999936205996356e-003	0.000000e+000	1.000000e+000	9.810619e-001
2.999936480658156e-003	0.000000e+000	1.000000e+000	9.810731e-001
2.999937029981757e-003	0.000000e+000	1.000000e+000	9.810686e-001
2.999938128628958e-003	0.000000e+000	1.000000e+000	9.810706e-001
2.999940325923360e-003	0.000000e+000	1.000000e+000	9.810697e-001
2.999944720512164e-003	0.000000e+000	1.000000e+000	9.810702e-001
2.999953509689772e-003	0.000000e+000	1.000000e+000	9.810699e-001
2.999971088044988e-003	0.000000e+000	1.000000e+000	9.810687e-001
2.999972088044988e-003	0.000000e+000	1.000000e+000	9.810693e-001
2.999974088044987e-003	0.000000e+000	1.000000e+000	9.810703e-001
2.999986088044986e-003	0.000000e+000	1.000000e+000	9.810689e-001
2.999989088044986e-003	0.000000e+000	1.000000e+000	9.810703e-001
2.999993088044986e-003	0.000000e+000	1.000000e+000	9.810709e-001
2.999994088044986e-003	0.000000e+000	1.000000e+000	9.810706e-001
2.999996088044985e-003	0.000000e+000	1.000000e+000	9.810705e-001
2.999997088044985e-003	0.000000e+000	1.000000e+000	9.810699e-001
2.999998000000000e-003	0.000000e+000	1.000000e+000	9.810744e-001
2.999998176089970e-003	0.000000e+000	1.000000e+000	9.810728e-001
2.999998528269910e-003	0.000000e+000	1.000000e+000	9.810688e-001
2.999999232629789e-003	0.000000e+000	1.000000e+000	9.810701e-001
3.000000000000000e-003	0.000000e+000	1.000000e+000	9.811049e-001
3.000000076737021e-003	8.441073e-002	1.000000e+000	1.016227e+000
3.000000230211063e-003	2.532322e-001	1.000000e+000	1.087412e+000
3.000000537159148e-003	5.908751e-001	1.000000e+000	1.225967e+000
3.000000601829788e-003	6.620128e-001	1.000000e+000	1.253481e+000
3.000000741317437e-003	8.154492e-001	1.000000e+000	1.310059e+000
3.000000761610170e-003	8.377712e-001	1.000000e+000	1.317925e+000
3.000000883366572e-003	9.717032e-001	1.000000e+000	1.364060e+000
3.000001000000000e-003	1.100000e+000	1.000000e+000	1.406975e+000
3.000001011663343e-003	1.100000e+000	1.000000e+000	1.407410e+000
3.000001034990028e-003	1.100000e+000	1.000000e+000	1.406247e+000
3.000001081643400e-003	1.100000e+000	1.000000e+000	1.400626e+000
3.000001174950142e-003	1.100000e+000	1.000000e+000	1.388205e+000
3.000001361563626e-003	1.100000e+000	1.000000e+000	1.365446e+000
3.000001734790595e-003	1.100000e+000	1.000000e+000	1.326641e+000
3.000002364488574e-003	1.100000e+000	1.000000e+000	1.274713e+000
3.000003002661068e-003	1.100000e+000	1.000000e+000	1.235940e+000
3.000003842921867e-003	1.100000e+000	1.000000e+000	1.200569e+000
3.000004816333380e-003	1.100000e+000	1.000000e+000	1.173029e+000
3.000006144891802e-003	1.100000e+000	1.000000e+000	1.148887e+000
3.000007765925982e-003	1.100000e+000	1.000000e+000	1.130186e+000
3.000010016358085e-003	1.100000e+000	1.000000e+000	1.113405e+000
3.000012916686977e-003	1.100000e+000	1.000000e+000	1.097052e+000
3.000017167350765e-003	1.100000e+000	1.000000e+000	1.074459e+000
3.000022145692163e-003	1.100000e+000	1.000000e+000	1.053241e+000
3.000028478799118e-003	1.100000e+000	1.000000e+000	1.046800e+000
3.000035331797953e-003	1.100000e+000	1.000000e+000	1.059875e+000
3.000043383621182e-003	1.100000e+000	1.000000e+000	1.076196e+000
3.000050725636605e-003	1.100000e+000	1.000000e+000	1.081282e+000
3.000061242460402e-003	1.100000e+000	1.000000e+000	1.081338e+000
3.000076832538350e-003	1.100000e+000	1.000000e+000	1.080876e+000
3.000100122667536e-003	1.100000e+000	1.000000e+000	1.080767e+000
3.000146702925908e-003	1.100000e+000	1.000000e+000	1.080781e+000
3.000239863442651e-003	1.100000e+000	1.000000e+000	1.080779e+000
3.000426184476138e-003	1.100000e+000	1.000000e+000	1.080780e+000
3.000798826543111e-003	1.100000e+000	1.000000e+000	1.080779e+000
3.983071838552308e-003	1.100000e+000	1.000000e+000	1.080779e+000
3.991665588552308e-003	1.100000e+000	1.000000e+000	1.080780e+000
3.991666588552308e-003	1.100000e+000	1.000000e+000	1.080780e+000
3.991668588552309e-003	1.100000e+000	1.000000e+000	1.080781e+000
3.991672588552310e-003	1.100000e+000	1.000000e+000	1.080781e+000
3.991680588552313e-003	1.100000e+000	1.000000e+000	1.080780e+000
3.991696588552318e-003	1.100000e+000	1.000000e+000	1.080780e+000
3.996771468667997e-003	1.100000e+000	1.000000e+000	1.080779e+000
3.997926760227190e-003	1.100000e+000	1.000000e+000	1.080779e+000
3.997929760227191e-003	1.100000e+000	1.000000e+000	1.080779e+000
3.997933760227192e-003	1.100000e+000	1.000000e+000	1.080779e+000
3.997941760227195e-003	1.100000e+000	1.000000e+000	1.080779e+000
3.999720722404894e-003	1.100000e+000	1.000000e+000	1.080779e+000
3.999823218561502e-003	1.100000e+000	1.000000e+000	1.080779e+000
3.999826218561503e-003	1.100000e+000	1.000000e+000	1.080779e+000
3.999830218561504e-003	1.100000e+000	1.000000e+000	1.080779e+000
3.999838218561507e-003	1.100000e+000	1.000000e+000	1.080779e+000
3.999886218561523e-003	1.100000e+000	1.000000e+000	1.080779e+000
3.999936999999978e-003	1.100000e+000	1.000000e+000	1.080779e+000
3.999939999999979e-003	1.100000e+000	1.000000e+000	1.080779e+000
3.999943999999980e-003	1.100000e+000	1.000000e+000	1.080779e+000
3.999951999999983e-003	1.100000e+000	1.000000e+000	1.080779e+000
3.999967999999988e-003	1.100000e+000	1.000000e+000	1.080779e+000
3.999970999999990e-003	1.100000e+000	1.000000e+000	1.080779e+000
3.999974999999993e-003	1.100000e+000	1.000000e+000	1.080779e+000
3.999983000000000e-003	1.100000e+000	1.000000e+000	1.080779e+000
3.999988999999963e-003	1.100000e+000	1.000000e+000	1.080779e+000
3.999993000000047e-003	1.100000e+000	1.000000e+000	1.080779e+000
3.999994000000048e-003	1.100000e+000	1.000000e+000	1.080779e+000
3.999998999999899e-003	1.100000e+000	1.000000e+000	1.080779e+000
3.999999999999900e-003	1.100000e+000	1.000000e+000	1.080779e+000
4.000001000000000e-003	1.100000e+000	1.000000e+000	1.080784e+000
4.000001099999999e-003	9.900000e-001	1.000000e+000	1.032402e+000
4.000001299999999e-003	7.700000e-001	1.000000e+000	9.309763e-001
4.000001600000000e-003	4.400000e-001	1.000000e+000	7.728307e-001
4.000002000000000e-003	1.019427e-010	1.000000e+000	5.567425e-001
4.000002040000000e-003	3.398089e-011	1.000000e+000	5.526336e-001
4.000002119999999e-003	0.000000e+000	1.000000e+000	5.473881e-001
4.000002280000000e-003	0.000000e+000	1.000000e+000	5.400380e-001
4.000002600000000e-003	0.000000e+000	1.000000e+000	5.289468e-001
4.000003240000000e-003	0.000000e+000	1.000000e+000	5.212633e-001
4.000004081476186e-003	0.000000e+000	1.000000e+000	5.380704e-001
4.000005029211966e-003	0.000000e+000	1.000000e+000	5.879030e-001
4.000006250614362e-003	0.000000e+000	1.000000e+000	6.802260e-001
4.000007412824913e-003	0.000000e+000	1.000000e+000	7.789140e-001
4.000008639291092e-003	0.000000e+000	1.000000e+000	8.781174e-001
4.000009769084419e-003	0.000000e+000	1.000000e+000	9.513673e-001
4.000011041685268e-003	0.000000e+000	1.000000e+000	1.004846e+000
4.000012644438565e-003	0.000000e+000	1.000000e+000	1.037197e+000
4.000014464145651e-003	0.000000e+000	1.000000e+000	1.045687e+000
4.000016208200393e-003	0.000000e+000	1.000000e+000	1.039118e+000
4.000018193293309e-003	0.000000e+000	1.000000e+000	1.025962e+000
4.000020567376583e-003	0.000000e+000	1.000000e+000	1.011456e+000
4.000023982704160e-003	0.000000e+000	1.000000e+000	9.973692e-001
4.000029198257630e-003	0.000000e+000	1.000000e+000	9.873708e-001
4.000039629364570e-003	0.000000e+000	1.000000e+000	9.818484e-001
4.000050015740294e-003	0.000000e+000	1.000000e+000	9.810287e-001
4.000069089249124e-003	0.000000e+000	1.000000e+000	9.810772e-001
4.000102326115995e-003	0.000000e+000	1.000000e+000	9.810661e-001
4.000168799849735e-003	0.000000e+000	1.000000e+000	9.810718e-001
4.000301747317216e-003	0.000000e+000	1.000000e+000	9.810693e-001
4.000567642252179e-003	0.000000e+000	1.000000e+000	9.810705e-001
4.001099432122104e-003	0.000000e+000	1.000000e+000	9.810699e-001
4.004290171341653e-003	0.000000e+000	1.000000e+000	9.810700e-001
4.993481256439686e-003	0.000000e+000	1.000000e+000	9.810700e-001
4.995849987120629e-003	0.000000e+000	1.000000e+000	9.811023e-001
4.995850987120630e-003	0.000000e+000	1.000000e+000	9.810967e-001
4.995852987120630e-003	0.000000e+000	1.000000e+000	9.810827e-001
4.995856987120632e-003	0.000000e+000	1.000000e+000	9.810748e-001
4.995864987120634e-003	0.000000e+000	1.000000e+000	9.810694e-001
4.995880987120640e-003	0.000000e+000	1.000000e+000	9.810700e-001
4.995912987120651e-003	0.000000e+000	1.000000e+000	9.810700e-001
4.995976987120673e-003	0.000000e+000	1.000000e+000	9.810700e-001
4.996104987120716e-003	0.000000e+000	1.000000e+000	9.810700e-001
4.996360987120804e-003	0.000000e+000	1.000000e+000	9.810700e-001
4.997896987121327e-003	0.000000e+000	1.000000e+000	9.810700e-001
