Freq.	V(n002)/-I(V4)
1.00000000000000e-001	(1.10782622683952e+002dB,-1.65638929035284e-003°)
1.00230523807790e-001	(1.10782622683935e+002dB,-1.66020766201467e-003°)
1.00461579027840e-001	(1.10782622683919e+002dB,-1.66403483593222e-003°)
1.00693166885180e-001	(1.10782622683902e+002dB,-1.66787083239677e-003°)
1.00925288607668e-001	(1.10782622683885e+002dB,-1.67171567174648e-003°)
1.01157945425990e-001	(1.10782622683868e+002dB,-1.67556937436621e-003°)
1.01391138573668e-001	(1.10782622683850e+002dB,-1.67943196068798e-003°)
1.01624869287070e-001	(1.10782622683833e+002dB,-1.68330345119079e-003°)
1.01859138805412e-001	(1.10782622683858e+002dB,-1.68718386640898e-003°)
1.02093948370768e-001	(1.10782622683840e+002dB,-1.69107322689998e-003°)
1.02329299228075e-001	(1.10782622683823e+002dB,-1.69497155329289e-003°)
1.02565192625141e-001	(1.10782622683805e+002dB,-1.69887886625621e-003°)
1.02801629812647e-001	(1.10782622683788e+002dB,-1.70279518650615e-003°)
1.03038612044162e-001	(1.10782622683770e+002dB,-1.70672053480663e-003°)
1.03276140576140e-001	(1.10782622683752e+002dB,-1.71065493196946e-003°)
1.03514216667934e-001	(1.10782622683734e+002dB,-1.71459839885443e-003°)
1.03752841581801e-001	(1.10782622683675e+002dB,-1.71855095636119e-003°)
1.03992016582906e-001	(1.10782622683657e+002dB,-1.72251262546221e-003°)
1.04231742939330e-001	(1.10782622683639e+002dB,-1.72648342715370e-003°)
1.04472021922080e-001	(1.10782622683620e+002dB,-1.73046338248842e-003°)
1.04712854805090e-001	(1.10782622683602e+002dB,-1.73445251256771e-003°)
1.04954242865232e-001	(1.10782622683584e+002dB,-1.73845083854153e-003°)
1.05196187382322e-001	(1.10782622683565e+002dB,-1.74245838160864e-003°)
1.05438689639126e-001	(1.10782622683547e+002dB,-1.74647516301659e-003°)
1.05681750921366e-001	(1.10782622683528e+002dB,-1.75050120406197e-003°)
1.05925372517729e-001	(1.10782622683509e+002dB,-1.75453652609047e-003°)
1.06169555719872e-001	(1.10782622683491e+002dB,-1.75858115049694e-003°)
1.06414301822431e-001	(1.10782622683472e+002dB,-1.76263509872562e-003°)
1.06659612123026e-001	(1.10782622683453e+002dB,-1.76669839227007e-003°)
1.06905487922266e-001	(1.10782622683434e+002dB,-1.77077105267349e-003°)
1.07151930523760e-001	(1.10782622683415e+002dB,-1.77485310152875e-003°)
1.07398941234124e-001	(1.10782622683395e+002dB,-1.77894456047846e-003°)
1.07646521362983e-001	(1.10782622683376e+002dB,-1.78304545121509e-003°)
1.07894672222983e-001	(1.10782622683398e+002dB,-1.78715579548978e-003°)
1.08143395129794e-001	(1.10782622683379e+002dB,-1.79127561507803e-003°)
1.08392691402120e-001	(1.10782622683359e+002dB,-1.79540493183122e-003°)
1.08642562361706e-001	(1.10782622683340e+002dB,-1.79954376764260e-003°)
1.08893009333343e-001	(1.10782622683320e+002dB,-1.80369214445588e-003°)
1.09144033644875e-001	(1.10782622683300e+002dB,-1.80785008426535e-003°)
1.09395636627209e-001	(1.10782622683280e+002dB,-1.81201760911597e-003°)
1.09647819614318e-001	(1.10782622683218e+002dB,-1.81619474109482e-003°)
1.09900583943252e-001	(1.10782622683198e+002dB,-1.82038150236608e-003°)
1.10153930954141e-001	(1.10782622683178e+002dB,-1.82457791511878e-003°)
1.10407861990207e-001	(1.10782622683158e+002dB,-1.82878400160196e-003°)
1.10662378397766e-001	(1.10782622683137e+002dB,-1.83299978411585e-003°)
1.10917481526240e-001	(1.10782622683117e+002dB,-1.83722528501207e-003°)
1.11173172728159e-001	(1.10782622683096e+002dB,-1.84146052669385e-003°)
1.11429453359173e-001	(1.10782622683075e+002dB,-1.84570553161603e-003°)
1.11686324778056e-001	(1.10782622683055e+002dB,-1.84996032228513e-003°)
1.11943788346715e-001	(1.10782622683034e+002dB,-1.85422492125970e-003°)
1.12201845430196e-001	(1.10782622683013e+002dB,-1.85849935115020e-003°)
1.12460497396692e-001	(1.10782622682992e+002dB,-1.86278363461921e-003°)
1.12719745617551e-001	(1.10782622682970e+002dB,-1.86707779438160e-003°)
1.12979591467279e-001	(1.10782622682949e+002dB,-1.87138185320451e-003°)
1.13240036323555e-001	(1.10782622682928e+002dB,-1.87569583390777e-003°)
1.13501081567231e-001	(1.10782622682906e+002dB,-1.88001975936356e-003°)
1.13762728582343e-001	(1.10782622682926e+002dB,-1.88435365250597e-003°)
1.14024978756117e-001	(1.10782622682905e+002dB,-1.88869753629481e-003°)
1.14287833478977e-001	(1.10782622682883e+002dB,-1.89305143376995e-003°)
1.14551294144553e-001	(1.10782622682861e+002dB,-1.89741536801532e-003°)
1.14815362149688e-001	(1.10782622682839e+002dB,-1.90178936216805e-003°)
1.15080038894443e-001	(1.10782622682817e+002dB,-1.90617343941866e-003°)
1.15345325782109e-001	(1.10782622682753e+002dB,-1.91056762300187e-003°)
1.15611224219209e-001	(1.10782622682731e+002dB,-1.91497193623353e-003°)
1.15877735615512e-001	(1.10782622682708e+002dB,-1.91938640245574e-003°)
1.16144861384034e-001	(1.10782622682686e+002dB,-1.92381104507356e-003°)
1.16412602941049e-001	(1.10782622682705e+002dB,-1.92824588755527e-003°)
1.16680961706096e-001	(1.10782622682682e+002dB,-1.93269095339545e-003°)
1.16949939101987e-001	(1.10782622682660e+002dB,-1.93714626617063e-003°)
1.17219536554813e-001	(1.10782622682637e+002dB,-1.94161184950248e-003°)
1.17489755493952e-001	(1.10782622682614e+002dB,-1.94608772706701e-003°)
1.17760597352080e-001	(1.10782622682591e+002dB,-1.95057392259491e-003°)
1.18032063565172e-001	(1.10782622682567e+002dB,-1.95507045987156e-003°)
1.18304155572516e-001	(1.10782622682544e+002dB,-1.95957736273713e-003°)
1.18576874816716e-001	(1.10782622682521e+002dB,-1.96409465508677e-003°)
1.18850222743701e-001	(1.10782622682497e+002dB,-1.96862236087072e-003°)
1.19124200802737e-001	(1.10782622682515e+002dB,-1.97316050410392e-003°)
1.19398810446427e-001	(1.10782622682491e+002dB,-1.97770910882820e-003°)
1.19674053130724e-001	(1.10782622682467e+002dB,-1.98226819916922e-003°)
1.19949930314937e-001	(1.10782622682443e+002dB,-1.98683779929893e-003°)
1.20226443461741e-001	(1.10782622682419e+002dB,-1.99141793344476e-003°)
1.20503594037179e-001	(1.10782622682395e+002dB,-1.99600862589028e-003°)
1.20781383510677e-001	(1.10782622682371e+002dB,-2.00060990097477e-003°)
1.21059813355048e-001	(1.10782622682346e+002dB,-2.00522178309378e-003°)
1.21338885046497e-001	(1.10782622682322e+002dB,-2.00984429669900e-003°)
1.21618600064636e-001	(1.10782622682339e+002dB,-2.01447746630826e-003°)
1.21898959892486e-001	(1.10782622682314e+002dB,-2.01912131646681e-003°)
1.22179966016487e-001	(1.10782622682289e+002dB,-2.02377587180558e-003°)
1.22461619926504e-001	(1.10782622682264e+002dB,-2.02844115700255e-003°)
1.22743923115840e-001	(1.10782622682239e+002dB,-2.03311719679251e-003°)
1.23026877081238e-001	(1.10782622682214e+002dB,-2.03780401596748e-003°)
1.23310483322890e-001	(1.10782622682189e+002dB,-2.04250163937639e-003°)
1.23594743344450e-001	(1.10782622682163e+002dB,-2.04721009192564e-003°)
1.23879658653036e-001	(1.10782622682137e+002dB,-2.05192939857898e-003°)
1.24165230759240e-001	(1.10782622682154e+002dB,-2.05665958436759e-003°)
1.24451461177138e-001	(1.10782622682128e+002dB,-2.06140067435065e-003°)
1.24738351424294e-001	(1.10782622682102e+002dB,-2.06615269367487e-003°)
1.25025903021771e-001	(1.10782622682076e+002dB,-2.07091566753495e-003°)
1.25314117494141e-001	(1.10782622682050e+002dB,-2.07568962118373e-003°)
1.25602996369487e-001	(1.10782622682023e+002dB,-2.08047457993216e-003°)
1.25892541179416e-001	(1.10782622681913e+002dB,-2.08527056912970e-003°)
1.26182753459066e-001	(1.10782622681887e+002dB,-2.09007761424411e-003°)
1.26473634747114e-001	(1.10782622681860e+002dB,-2.09489574074197e-003°)
1.26765186585784e-001	(1.10782622681875e+002dB,-2.09972497417849e-003°)
1.27057410520853e-001	(1.10782622681848e+002dB,-2.10456534013777e-003°)
1.27350308101665e-001	(1.10782622681821e+002dB,-2.10941686429291e-003°)
1.27643880881134e-001	(1.10782622681794e+002dB,-2.11427957236623e-003°)
1.27938130415752e-001	(1.10782622681767e+002dB,-2.11915349013934e-003°)
1.28233058265601e-001	(1.10782622681739e+002dB,-2.12403864345327e-003°)
1.28528665994361e-001	(1.10782622681712e+002dB,-2.12893505820860e-003°)
1.28824955169313e-001	(1.10782622681684e+002dB,-2.13384276036565e-003°)
1.29121927361353e-001	(1.10782622681698e+002dB,-2.13876177595476e-003°)
1.29419584144998e-001	(1.10782622681670e+002dB,-2.14369213103568e-003°)
1.29717927098395e-001	(1.10782622681642e+002dB,-2.14863385175880e-003°)
1.30016957803328e-001	(1.10782622681614e+002dB,-2.15358696432470e-003°)
1.30316677845229e-001	(1.10782622681586e+002dB,-2.15855149499425e-003°)
1.30617088813183e-001	(1.10782622681474e+002dB,-2.16352747006814e-003°)
1.30918192299940e-001	(1.10782622681445e+002dB,-2.16851491596996e-003°)
1.31219989901919e-001	(1.10782622681416e+002dB,-2.17351385912197e-003°)
1.31522483219223e-001	(1.10782622681388e+002dB,-2.17852432602805e-003°)
1.31825673855640e-001	(1.10782622681400e+002dB,-2.18354634326366e-003°)
1.32129563418657e-001	(1.10782622681371e+002dB,-2.18857993743414e-003°)
1.32434153519466e-001	(1.10782622681342e+002dB,-2.19362513523755e-003°)
1.32739445772973e-001	(1.10782622681313e+002dB,-2.19868196342296e-003°)
1.33045441797808e-001	(1.10782622681283e+002dB,-2.20375044880127e-003°)
1.33352143216331e-001	(1.10782622681253e+002dB,-2.20883061824499e-003°)
1.33659551654643e-001	(1.10782622681224e+002dB,-2.21392249868876e-003°)
1.33967668742593e-001	(1.10782622681235e+002dB,-2.21902611713978e-003°)
1.34276496113785e-001	(1.10782622681205e+002dB,-2.22414150063575e-003°)
1.34586035405594e-001	(1.10782622681175e+002dB,-2.22926867630851e-003°)
1.34896288259164e-001	(1.10782622681145e+002dB,-2.23440767134180e-003°)
1.35207256319427e-001	(1.10782622681114e+002dB,-2.23955851298209e-003°)
1.35518941235103e-001	(1.10782622681084e+002dB,-2.24472122853862e-003°)
1.35831344658714e-001	(1.10782622681053e+002dB,-2.24989584538363e-003°)
1.36144468246594e-001	(1.10782622681022e+002dB,-2.25508239095239e-003°)
1.36458313658891e-001	(1.10782622681033e+002dB,-2.26028089275427e-003°)
1.36772882559584e-001	(1.10782622681002e+002dB,-2.26549137832960e-003°)
1.37088176616484e-001	(1.10782622680970e+002dB,-2.27071387531463e-003°)
1.37404197501250e-001	(1.10782622680939e+002dB,-2.27594841139853e-003°)
1.37720946889394e-001	(1.10782622680907e+002dB,-2.28119501433429e-003°)
1.38038426460287e-001	(1.10782622680875e+002dB,-2.28645371193886e-003°)
1.38356637897177e-001	(1.10782622680843e+002dB,-2.29172453209336e-003°)
1.38675582887188e-001	(1.10782622680811e+002dB,-2.29700750274315e-003°)
1.38995263121334e-001	(1.10782622680779e+002dB,-2.30230265189799e-003°)
1.39315680294529e-001	(1.10782622680747e+002dB,-2.30761000763228e-003°)
1.39636836105593e-001	(1.10782622680714e+002dB,-2.31292959808507e-003°)
1.39958732257261e-001	(1.10782622680682e+002dB,-2.31826145146025e-003°)
1.40281370456195e-001	(1.10782622680649e+002dB,-2.32360559602685e-003°)
1.40604752412990e-001	(1.10782622680616e+002dB,-2.32896206011894e-003°)
1.40928879842186e-001	(1.10782622680583e+002dB,-2.33433087213601e-003°)
1.41253754462274e-001	(1.10782622680550e+002dB,-2.33971206054292e-003°)
1.41579377995707e-001	(1.10782622680516e+002dB,-2.34510565387016e-003°)
1.41905752168908e-001	(1.10782622680483e+002dB,-2.35051168071413e-003°)
1.42232878712281e-001	(1.10782622680449e+002dB,-2.35593016973696e-003°)
1.42560759360218e-001	(1.10782622680415e+002dB,-2.36136114966697e-003°)
1.42889395851109e-001	(1.10782622680381e+002dB,-2.36680464929870e-003°)
1.43218789927353e-001	(1.10782622680388e+002dB,-2.37226069750438e-003°)
1.43548943335364e-001	(1.10782622680354e+002dB,-2.37772932318871e-003°)
1.43879857825583e-001	(1.10782622680320e+002dB,-2.38321055535715e-003°)
1.44211535152486e-001	(1.10782622680285e+002dB,-2.38870442307069e-003°)
1.44543977074591e-001	(1.10782622680208e+002dB,-2.39421095544574e-003°)
1.44877185354475e-001	(1.10782622680173e+002dB,-2.39973018170030e-003°)
1.45211161758773e-001	(1.10782622680138e+002dB,-2.40526213108534e-003°)
1.45545908058195e-001	(1.10782622680103e+002dB,-2.41080683293074e-003°)
1.45881426027534e-001	(1.10782622680067e+002dB,-2.41636431663386e-003°)
1.46217717445671e-001	(1.10782622680032e+002dB,-2.42193461166005e-003°)
1.46554784095590e-001	(1.10782622679996e+002dB,-2.42751774754235e-003°)
1.46892627764385e-001	(1.10782622679960e+002dB,-2.43311375388207e-003°)
1.47231250243271e-001	(1.10782622679924e+002dB,-2.43872266034861e-003°)
1.47570653327588e-001	(1.10782622679929e+002dB,-2.44434449669165e-003°)
1.47910838816819e-001	(1.10782622679893e+002dB,-2.44997929269403e-003°)
1.48251808514594e-001	(1.10782622679856e+002dB,-2.45562707824275e-003°)
1.48593564228699e-001	(1.10782622679819e+002dB,-2.46128788328170e-003°)
1.48936107771090e-001	(1.10782622679782e+002dB,-2.46696173782391e-003°)
1.49279440957898e-001	(1.10782622679745e+002dB,-2.47264867195162e-003°)
1.49623565609442e-001	(1.10782622679750e+002dB,-2.47834871582829e-003°)
1.49968483550236e-001	(1.10782622679712e+002dB,-2.48406189965117e-003°)
1.50314196609001e-001	(1.10782622679674e+002dB,-2.48978825372290e-003°)
1.50660706618673e-001	(1.10782622679637e+002dB,-2.49552780840409e-003°)
1.51008015416413e-001	(1.10782622679599e+002dB,-2.50128059412516e-003°)
1.51356124843619e-001	(1.10782622679560e+002dB,-2.50704664138691e-003°)
1.51705036745932e-001	(1.10782622679564e+002dB,-2.51282598077240e-003°)
1.52054752973248e-001	(1.10782622679525e+002dB,-2.51861864289896e-003°)
1.52405275379728e-001	(1.10782622679486e+002dB,-2.52442465849077e-003°)
1.52756605823806e-001	(1.10782622679448e+002dB,-2.53024405833078e-003°)
1.53108746168202e-001	(1.10782622679325e+002dB,-2.53607687324847e-003°)
1.53461698279928e-001	(1.10782622679286e+002dB,-2.54192313421755e-003°)
1.53815464030302e-001	(1.10782622679288e+002dB,-2.54778287222216e-003°)
1.54170045294954e-001	(1.10782622679248e+002dB,-2.55365611830567e-003°)
1.54525443953840e-001	(1.10782622679209e+002dB,-2.55954290361967e-003°)
1.54881661891247e-001	(1.10782622679169e+002dB,-2.56544325937523e-003°)
1.55238700995807e-001	(1.10782622679128e+002dB,-2.57135721685549e-003°)
1.55596563160506e-001	(1.10782622679088e+002dB,-2.57728480741569e-003°)
1.55955250282694e-001	(1.10782622679089e+002dB,-2.58322606249573e-003°)
1.56314764264094e-001	(1.10782622679049e+002dB,-2.58918101357072e-003°)
1.56675107010813e-001	(1.10782622679008e+002dB,-2.59514969222567e-003°)
1.57036280433354e-001	(1.10782622678925e+002dB,-2.60113213009333e-003°)
1.57398286446620e-001	(1.10782622678884e+002dB,-2.60712835891702e-003°)
1.57761126969933e-001	(1.10782622678842e+002dB,-2.61313841047562e-003°)
1.58124803927037e-001	(1.10782622678842e+002dB,-2.61916231664651e-003°)
1.58489319246110e-001	(1.10782622678800e+002dB,-2.62520010934263e-003°)
1.58854674859776e-001	(1.10782622678758e+002dB,-2.63125182058827e-003°)
1.59220872705115e-001	(1.10782622678716e+002dB,-2.63731748246909e-003°)
1.59587914723672e-001	(1.10782622678673e+002dB,-2.64339712714459e-003°)
1.59955802861465e-001	(1.10782622678672e+002dB,-2.64949078686116e-003°)
1.60324539069002e-001	(1.10782622678630e+002dB,-2.65559849390136e-003°)
1.60694125301286e-001	(1.10782622678587e+002dB,-2.66172028066032e-003°)
1.61064563517825e-001	(1.10782622678460e+002dB,-2.66785617956953e-003°)
1.61435855682647e-001	(1.10782622678416e+002dB,-2.67400622321215e-003°)
1.61808003764305e-001	(1.10782622678373e+002dB,-2.68017044416949e-003°)
1.62181009735891e-001	(1.10782622678371e+002dB,-2.68634887513651e-003°)
1.62554875575047e-001	(1.10782622678327e+002dB,-2.69254154884490e-003°)
1.62929603263970e-001	(1.10782622678282e+002dB,-2.69874849814047e-003°)
1.63305194789432e-001	(1.10782622678238e+002dB,-2.70496975593183e-003°)
1.63681652142779e-001	(1.10782622678193e+002dB,-2.71120535520348e-003°)
1.64058977319952e-001	(1.10782622678190e+002dB,-2.71745532902904e-003°)
1.64437172321491e-001	(1.10782622678145e+002dB,-2.72371971051906e-003°)
1.64816239152549e-001	(1.10782622678100e+002dB,-2.72999853289981e-003°)
1.65196179822900e-001	(1.10782622678054e+002dB,-2.73629182946090e-003°)
1.65576996346951e-001	(1.10782622678009e+002dB,-2.74259963356881e-003°)
1.65958690743754e-001	(1.10782622678004e+002dB,-2.74892197868008e-003°)
1.66341265037015e-001	(1.10782622677958e+002dB,-2.75525889828874e-003°)
1.66724721255104e-001	(1.10782622677912e+002dB,-2.76161042600574e-003°)
1.67109061431069e-001	(1.10782622677865e+002dB,-2.76797659550621e-003°)
1.67494287602642e-001	(1.10782622677860e+002dB,-2.77435744055630e-003°)
1.67880401812254e-001	(1.10782622677813e+002dB,-2.78075299495995e-003°)
1.68267406107045e-001	(1.10782622677766e+002dB,-2.78716329263906e-003°)
1.68655302538872e-001	(1.10782622677635e+002dB,-2.79358836755363e-003°)
1.69044093164324e-001	(1.10782622677588e+002dB,-2.80002825382231e-003°)
1.69433780044731e-001	(1.10782622677540e+002dB,-2.80648298556186e-003°)
1.69824365246172e-001	(1.10782622677533e+002dB,-2.81295259700832e-003°)
1.70215850839493e-001	(1.10782622677485e+002dB,-2.81943712243586e-003°)
1.70608238900310e-001	(1.10782622677437e+002dB,-2.82593659623818e-003°)
1.71001531509027e-001	(1.10782622677388e+002dB,-2.83245105287501e-003°)
1.71395730750840e-001	(1.10782622677381e+002dB,-2.83898052689883e-003°)
1.71790838715757e-001	(1.10782622677331e+002dB,-2.84552505290110e-003°)
1.72186857498599e-001	(1.10782622677282e+002dB,-2.85208466559388e-003°)
1.72583789199018e-001	(1.10782622677191e+002dB,-2.85865939974181e-003°)
1.72981635921508e-001	(1.10782622677141e+002dB,-2.86524929023089e-003°)
1.73380399775412e-001	(1.10782622677132e+002dB,-2.87185437200015e-003°)
1.73780082874935e-001	(1.10782622677082e+002dB,-2.87847468004155e-003°)
1.74180687339159e-001	(1.10782622677031e+002dB,-2.88511024946908e-003°)
1.74582215292048e-001	(1.10782622676981e+002dB,-2.89176111546383e-003°)
1.74984668862463e-001	(1.10782622676929e+002dB,-2.89842731328802e-003°)
1.75388050184174e-001	(1.10782622676878e+002dB,-2.90510887828523e-003°)
1.75792361395867e-001	(1.10782622676827e+002dB,-2.91180584588040e-003°)
1.76197604641161e-001	(1.10782622676775e+002dB,-2.91851825158021e-003°)
1.76603782068614e-001	(1.10782622676723e+002dB,-2.92524613097313e-003°)
1.77010895831740e-001	(1.10782622676712e+002dB,-2.93198951974379e-003°)
1.77418948089014e-001	(1.10782622676660e+002dB,-2.93874845361688e-003°)
1.77827941003890e-001	(1.10782622676607e+002dB,-2.94552296844163e-003°)
1.78237876744807e-001	(1.10782622676554e+002dB,-2.95231310013584e-003°)
1.78648757485203e-001	(1.10782622676543e+002dB,-2.95911888471428e-003°)
1.79060585403527e-001	(1.10782622676489e+002dB,-2.96594035823222e-003°)
1.79473362683250e-001	(1.10782622676436e+002dB,-2.97277755687054e-003°)
1.79887091512876e-001	(1.10782622676298e+002dB,-2.97963051685086e-003°)
1.80301774085954e-001	(1.10782622676244e+002dB,-2.98649927456395e-003°)
1.80717412601090e-001	(1.10782622676231e+002dB,-2.99338386641320e-003°)
1.81134009261958e-001	(1.10782622676177e+002dB,-3.00028432887125e-003°)
1.81551566277311e-001	(1.10782622676122e+002dB,-3.00720069853800e-003°)
1.81970085860996e-001	(1.10782622676066e+002dB,-3.01413301208342e-003°)
1.82389570231961e-001	(1.10782622676053e+002dB,-3.02108130627636e-003°)
1.82810021614272e-001	(1.10782622675997e+002dB,-3.02804561792711e-003°)
1.83231442237119e-001	(1.10782622675858e+002dB,-3.03502598394503e-003°)
1.83653834334832e-001	(1.10782622675801e+002dB,-3.04202244139749e-003°)
1.84077200146893e-001	(1.10782622675787e+002dB,-3.04903502736466e-003°)
1.84501541917945e-001	(1.10782622675730e+002dB,-3.05606377899733e-003°)
1.84926861897805e-001	(1.10782622675673e+002dB,-3.06310873357575e-003°)
1.85353162341479e-001	(1.10782622675616e+002dB,-3.07016992845166e-003°)
1.85780445509167e-001	(1.10782622675600e+002dB,-3.07724740107756e-003°)
1.86208713666284e-001	(1.10782622675542e+002dB,-3.08434118894797e-003°)
1.86637969083464e-001	(1.10782622675484e+002dB,-3.09145132968817e-003°)
1.87068214036577e-001	(1.10782622675426e+002dB,-3.09857786099551e-003°)
1.87499450806739e-001	(1.10782622675409e+002dB,-3.10572082066896e-003°)
1.87931681680324e-001	(1.10782622675350e+002dB,-3.11288024655005e-003°)
1.88364908948977e-001	(1.10782622675291e+002dB,-3.12005617661221e-003°)
1.88799134909627e-001	(1.10782622675231e+002dB,-3.12724864890148e-003°)
