Freq.	V(n010)/V(n011)
1.00000000000000e-001	(-2.35824253856860e-002dB,-6.62349705828459e-005°)
1.00230523807790e-001	(-2.35824253853553e-002dB,-6.63876578789813e-005°)
1.00461579027840e-001	(-2.35824253854646e-002dB,-6.65406971551302e-005°)
1.00693166885180e-001	(-2.35824253852335e-002dB,-6.66940892254525e-005°)
1.00925288607668e-001	(-2.35824253850372e-002dB,-6.68478349132083e-005°)
1.01157945425990e-001	(-2.35824253848544e-002dB,-6.70019349983248e-005°)
1.01391138573668e-001	(-2.35824253845914e-002dB,-6.71563903430604e-005°)
1.01624869287070e-001	(-2.35824253841601e-002dB,-6.73112017278260e-005°)
1.01859138805412e-001	(-2.35824253840538e-002dB,-6.74663700013796e-005°)
1.02093948370768e-001	(-2.35824253839803e-002dB,-6.76218959597463e-005°)
1.02329299228075e-001	(-2.35824253835084e-002dB,-6.77777804570196e-005°)
1.02565192625141e-001	(-2.35824253834755e-002dB,-6.79340242993115e-005°)
1.02801629812647e-001	(-2.35824253831120e-002dB,-6.80906283229840e-005°)
1.03038612044162e-001	(-2.35824253828345e-002dB,-6.82475933647635e-005°)
1.03276140576140e-001	(-2.35824253827600e-002dB,-6.84049202332714e-005°)
1.03514216667934e-001	(-2.35824253824757e-002dB,-6.85626097769391e-005°)
1.03752841581801e-001	(-2.35824253822079e-002dB,-6.87206628481934e-005°)
1.03992016582906e-001	(-2.35824253819159e-002dB,-6.88790802664589e-005°)
1.04231742939330e-001	(-2.35824253817070e-002dB,-6.90378628692758e-005°)
1.04472021922080e-001	(-2.35824253815745e-002dB,-6.91970114935494e-005°)
1.04712854805090e-001	(-2.35824253813038e-002dB,-6.93565270098341e-005°)
1.04954242865232e-001	(-2.35824253811084e-002dB,-6.95164102420592e-005°)
1.05196187382322e-001	(-2.35824253810630e-002dB,-6.96766620400329e-005°)
1.05438689639126e-001	(-2.35824253805641e-002dB,-6.98372832672079e-005°)
1.05681750921366e-001	(-2.35824253805051e-002dB,-6.99982747508535e-005°)
1.05925372517729e-001	(-2.35824253801164e-002dB,-7.01596373727676e-005°)
1.06169555719872e-001	(-2.35824253800622e-002dB,-7.03213719592009e-005°)
1.06414301822431e-001	(-2.35824253796716e-002dB,-7.04834793941121e-005°)
1.06659612123026e-001	(-2.35824253794202e-002dB,-7.06459605156431e-005°)
1.06905487922266e-001	(-2.35824253794453e-002dB,-7.08088162040053e-005°)
1.07151930523760e-001	(-2.35824253791871e-002dB,-7.09720473030446e-005°)
1.07398941234124e-001	(-2.35824253789048e-002dB,-7.11356547068568e-005°)
1.07646521362983e-001	(-2.35824253787056e-002dB,-7.12996392530695e-005°)
1.07894672222983e-001	(-2.35824253781805e-002dB,-7.14640018112637e-005°)
1.08143395129794e-001	(-2.35824253779243e-002dB,-7.16287432792082e-005°)
1.08392691402120e-001	(-2.35824253778643e-002dB,-7.17938645159224e-005°)
1.08642562361706e-001	(-2.35824253777203e-002dB,-7.19593663991135e-005°)
1.08893009333343e-001	(-2.35824253773006e-002dB,-7.21252497923500e-005°)
1.09144033644875e-001	(-2.35824253772697e-002dB,-7.22915156028361e-005°)
1.09395636627209e-001	(-2.35824253768510e-002dB,-7.24581646666754e-005°)
1.09647819614318e-001	(-2.35824253765764e-002dB,-7.26251979241337e-005°)
1.09900583943252e-001	(-2.35824253765125e-002dB,-7.27926162307537e-005°)
1.10153930954141e-001	(-2.35824253762370e-002dB,-7.29604204679697e-005°)
1.10407861990207e-001	(-2.35824253759266e-002dB,-7.31286115260925e-005°)
1.10662378397766e-001	(-2.35824253757129e-002dB,-7.32971903247263e-005°)
1.10917481526240e-001	(-2.35824253751656e-002dB,-7.34661577259014e-005°)
1.11173172728159e-001	(-2.35824253749461e-002dB,-7.36355146406928e-005°)
1.11429453359173e-001	(-2.35824253747624e-002dB,-7.38052619631913e-005°)
1.11686324778056e-001	(-2.35824253746541e-002dB,-7.39754005899133e-005°)
1.11943788346715e-001	(-2.35824253741754e-002dB,-7.41459314316852e-005°)
1.12201845430196e-001	(-2.35824253741261e-002dB,-7.43168553829150e-005°)
1.12460497396692e-001	(-2.35824253737036e-002dB,-7.44881733564493e-005°)
1.12719745617551e-001	(-2.35824253734164e-002dB,-7.46598862615819e-005°)
1.12979591467279e-001	(-2.35824253733516e-002dB,-7.48319950039160e-005°)
1.13240036323555e-001	(-2.35824253730683e-002dB,-7.50045005031952e-005°)
1.13501081567231e-001	(-2.35824253727588e-002dB,-7.51774036700902e-005°)
1.13762728582343e-001	(-2.35824253725442e-002dB,-7.53507054063831e-005°)
1.14024978756117e-001	(-2.35824253723518e-002dB,-7.55244066552245e-005°)
1.14287833478977e-001	(-2.35824253720839e-002dB,-7.56985083313198e-005°)
1.14551294144553e-001	(-2.35824253715386e-002dB,-7.58730113417400e-005°)
1.14815362149688e-001	(-2.35824253714380e-002dB,-7.60479166365270e-005°)
1.15080038894443e-001	(-2.35824253710183e-002dB,-7.62232251138239e-005°)
1.15345325782109e-001	(-2.35824253709294e-002dB,-7.63989377165419e-005°)
1.15611224219209e-001	(-2.35824253705107e-002dB,-7.65750554031159e-005°)
1.15877735615512e-001	(-2.35824253702370e-002dB,-7.67515790524666e-005°)
1.16144861384034e-001	(-2.35824253698290e-002dB,-7.69285096552985e-005°)
1.16412602941049e-001	(-2.35824253695611e-002dB,-7.71058481160635e-005°)
1.16680961706096e-001	(-2.35824253692720e-002dB,-7.72835953875230e-005°)
1.16949939101987e-001	(-2.35824253690168e-002dB,-7.74617524126410e-005°)
1.17219536554813e-001	(-2.35824253687876e-002dB,-7.76403201125088e-005°)
1.17489755493952e-001	(-2.35824253685990e-002dB,-7.78192994803196e-005°)
1.17760597352080e-001	(-2.35824253684395e-002dB,-7.79986914149134e-005°)
1.18032063565172e-001	(-2.35824253680111e-002dB,-7.81784969058974e-005°)
1.18304155572516e-001	(-2.35824253676176e-002dB,-7.83587168886836e-005°)
1.18576874816716e-001	(-2.35824253675547e-002dB,-7.85393523223674e-005°)
1.18850222743701e-001	(-2.35824253671708e-002dB,-7.87204041586957e-005°)
1.19124200802737e-001	(-2.35824253668150e-002dB,-7.89018733669955e-005°)
1.19398810446427e-001	(-2.35824253664998e-002dB,-7.90837608965192e-005°)
1.19674053130724e-001	(-2.35824253662184e-002dB,-7.92660677370421e-005°)
1.19949930314937e-001	(-2.35824253660743e-002dB,-7.94487948205989e-005°)
1.20226443461741e-001	(-2.35824253658026e-002dB,-7.96319431444197e-005°)
1.20503594037179e-001	(-2.35824253652698e-002dB,-7.98155136774043e-005°)
1.20781383510677e-001	(-2.35824253651209e-002dB,-7.99995073754388e-005°)
1.21059813355048e-001	(-2.35824253647080e-002dB,-8.01839252173593e-005°)
1.21338885046497e-001	(-2.35824253642710e-002dB,-8.03687681988146e-005°)
1.21618600064636e-001	(-2.35824253642729e-002dB,-8.05540372631115e-005°)
1.21898959892486e-001	(-2.35824253638552e-002dB,-8.07397334447362e-005°)
1.22179966016487e-001	(-2.35824253635767e-002dB,-8.09258576753826e-005°)
1.22461619926504e-001	(-2.35824253633350e-002dB,-8.11124109813439e-005°)
1.22743923115840e-001	(-2.35824253627219e-002dB,-8.12993943383134e-005°)
1.23026877081238e-001	(-2.35824253624405e-002dB,-8.14868087415693e-005°)
1.23310483322890e-001	(-2.35824253622539e-002dB,-8.16746551746899e-005°)
1.23594743344450e-001	(-2.35824253620973e-002dB,-8.18629346259724e-005°)
1.23879658653036e-001	(-2.35824253616795e-002dB,-8.20516481086983e-005°)
1.24165230759240e-001	(-2.35824253612966e-002dB,-8.22407966409360e-005°)
1.24451461177138e-001	(-2.35824253608953e-002dB,-8.24303811901441e-005°)
1.24738351424294e-001	(-2.35824253608344e-002dB,-8.26204027774084e-005°)
1.25025903021771e-001	(-2.35824253605018e-002dB,-8.28108624054485e-005°)
1.25314117494141e-001	(-2.35824253598568e-002dB,-8.30017611078707e-005°)
1.25602996369487e-001	(-2.35824253596547e-002dB,-8.31930998580302e-005°)
1.25892541179416e-001	(-2.35824253593811e-002dB,-8.33848797153960e-005°)
1.26182753459066e-001	(-2.35824253588996e-002dB,-8.35771016455208e-005°)
1.26473634747114e-001	(-2.35824253587545e-002dB,-8.37697666955900e-005°)
1.26765186585784e-001	(-2.35824253582923e-002dB,-8.39628758965594e-005°)
1.27057410520853e-001	(-2.35824253578707e-002dB,-8.41564302514428e-005°)
1.27350308101665e-001	(-2.35824253575381e-002dB,-8.43504307890011e-005°)
1.27643880881134e-001	(-2.35824253574956e-002dB,-8.45448785557249e-005°)
1.27938130415752e-001	(-2.35824253568332e-002dB,-8.47397745712293e-005°)
1.28233058265601e-001	(-2.35824253565566e-002dB,-8.49351198560207e-005°)
1.28528665994361e-001	(-2.35824253563836e-002dB,-8.51309154733177e-005°)
1.28824955169313e-001	(-2.35824253561322e-002dB,-8.53271624386090e-005°)
1.29121927361353e-001	(-2.35824253556284e-002dB,-8.55238618019856e-005°)
1.29419584144998e-001	(-2.35824253551517e-002dB,-8.57210145983761e-005°)
1.29717927098395e-001	(-2.35824253547765e-002dB,-8.59186218963027e-005°)
1.30016957803328e-001	(-2.35824253547436e-002dB,-8.61166847079321e-005°)
1.30316677845229e-001	(-2.35824253543288e-002dB,-8.63152041009335e-005°)
1.30617088813183e-001	(-2.35824253540300e-002dB,-8.65141811405740e-005°)
1.30918192299940e-001	(-2.35824253533967e-002dB,-8.67136168781153e-005°)
1.31219989901919e-001	(-2.35824253532216e-002dB,-8.69135123483344e-005°)
1.31522483219223e-001	(-2.35824253529170e-002dB,-8.71138686187247e-005°)
1.31825673855640e-001	(-2.35824253524133e-002dB,-8.73146867684385e-005°)
1.32129563418657e-001	(-2.35824253519453e-002dB,-8.75159678516343e-005°)
1.32434153519466e-001	(-2.35824253518708e-002dB,-8.77177129364697e-005°)
1.32739445772973e-001	(-2.35824253511910e-002dB,-8.79199230731984e-005°)
1.33045441797808e-001	(-2.35824253511553e-002dB,-8.81225993752134e-005°)
1.33352143216331e-001	(-2.35824253504968e-002dB,-8.83257428941540e-005°)
1.33659551654643e-001	(-2.35824253502405e-002dB,-8.85293547040345e-005°)
1.33967668742593e-001	(-2.35824253500268e-002dB,-8.87334358747553e-005°)
1.34276496113785e-001	(-2.35824253494399e-002dB,-8.89379875213825e-005°)
1.34586035405594e-001	(-2.35824253490077e-002dB,-8.91430107034755e-005°)
1.34896288259164e-001	(-2.35824253489197e-002dB,-8.93485065036977e-005°)
1.35207256319427e-001	(-2.35824253485145e-002dB,-8.95544760259565e-005°)
1.35518941235103e-001	(-2.35824253480446e-002dB,-8.97609203525108e-005°)
1.35831344658714e-001	(-2.35824253477342e-002dB,-8.99678405881286e-005°)
1.36144468246594e-001	(-2.35824253471047e-002dB,-9.01752378163600e-005°)
1.36458313658891e-001	(-2.35824253469297e-002dB,-9.03831131414734e-005°)
1.36772882559584e-001	(-2.35824253463321e-002dB,-9.05914676940213e-005°)
1.37088176616484e-001	(-2.35824253461948e-002dB,-9.08003025293362e-005°)
1.37404197501250e-001	(-2.35824253457413e-002dB,-9.10096187959253e-005°)
1.37720946889394e-001	(-2.35824253453323e-002dB,-9.12194175741305e-005°)
1.38038426460287e-001	(-2.35824253448614e-002dB,-9.14296999884838e-005°)
1.38356637897177e-001	(-2.35824253445384e-002dB,-9.16404671633361e-005°)
1.38675582887188e-001	(-2.35824253439670e-002dB,-9.18517201878307e-005°)
1.38995263121334e-001	(-2.35824253436836e-002dB,-9.20634602259421e-005°)
1.39315680294529e-001	(-2.35824253434438e-002dB,-9.22756883635133e-005°)
1.39636836105593e-001	(-2.35824253429507e-002dB,-9.24884057366524e-005°)
1.39958732257261e-001	(-2.35824253425030e-002dB,-9.27016134762180e-005°)
1.40281370456195e-001	(-2.35824253421027e-002dB,-9.29153127019013e-005°)
1.40604752412990e-001	(-2.35824253416908e-002dB,-9.31295045710828e-005°)
1.40928879842186e-001	(-2.35824253413262e-002dB,-9.33441901981386e-005°)
1.41253754462274e-001	(-2.35824253407132e-002dB,-9.35593707207902e-005°)
1.41579377995707e-001	(-2.35824253404966e-002dB,-9.37750472892739e-005°)
1.41905752168908e-001	(-2.35824253399164e-002dB,-9.39912210409083e-005°)
1.42232878712281e-001	(-2.35824253394987e-002dB,-9.42078931161564e-005°)
1.42560759360218e-001	(-2.35824253390114e-002dB,-9.44250646932037e-005°)
1.42889395851109e-001	(-2.35824253386265e-002dB,-9.46427369045632e-005°)
1.43218789927353e-001	(-2.35824253382465e-002dB,-9.48609108772457e-005°)
1.43548943335364e-001	(-2.35824253379583e-002dB,-9.50795878112805e-005°)
1.43879857825583e-001	(-2.35824253373153e-002dB,-9.52987688414829e-005°)
1.44211535152486e-001	(-2.35824253371229e-002dB,-9.55184551421331e-005°)
1.44543977074591e-001	(-2.35824253365775e-002dB,-9.57386478591717e-005°)
1.44877185354475e-001	(-2.35824253361347e-002dB,-9.59593481739358e-005°)
1.45211161758773e-001	(-2.35824253356821e-002dB,-9.61805572676805e-005°)
1.45545908058195e-001	(-2.35824253352809e-002dB,-9.64022763011899e-005°)
1.45881426027534e-001	(-2.35824253349801e-002dB,-9.66245064484896e-005°)
1.46217717445671e-001	(-2.35824253343265e-002dB,-9.68472488763884e-005°)
1.46554784095590e-001	(-2.35824253341321e-002dB,-9.70705047845737e-005°)
1.46892627764385e-001	(-2.35824253335171e-002dB,-9.72942753683332e-005°)
1.47231250243271e-001	(-2.35824253330665e-002dB,-9.75185617878783e-005°)
1.47570653327588e-001	(-2.35824253326662e-002dB,-9.77433652279072e-005°)
1.47910838816819e-001	(-2.35824253322108e-002dB,-9.79686869108091e-005°)
1.48251808514594e-001	(-2.35824253315552e-002dB,-9.81945279962128e-005°)
1.48593564228699e-001	(-2.35824253313164e-002dB,-9.84208897152760e-005°)
1.48936107771090e-001	(-2.35824253307082e-002dB,-9.86477732455451e-005°)
1.49279440957898e-001	(-2.35824253301560e-002dB,-9.88751797944111e-005°)
1.49623565609442e-001	(-2.35824253297112e-002dB,-9.91031105662186e-005°)
1.49968483550236e-001	(-2.35824253292674e-002dB,-9.93315667824893e-005°)
1.50314196609001e-001	(-2.35824253288681e-002dB,-9.95605496363898e-005°)
1.50660706618673e-001	(-2.35824253285838e-002dB,-9.97900603585432e-005°)
1.51008015416413e-001	(-2.35824253278856e-002dB,-1.00020100157452e-004°)
1.51356124843619e-001	(-2.35824253276013e-002dB,-1.00250670248129e-004°)
1.51705036745932e-001	(-2.35824253271730e-002dB,-1.00481771847096e-004°)
1.52054752973248e-001	(-2.35824253266992e-002dB,-1.00713406200244e-004°)
1.52405275379728e-001	(-2.35824253259672e-002dB,-1.00945574536551e-004°)
1.52756605823806e-001	(-2.35824253254857e-002dB,-1.01178278069073e-004°)
1.53108746168202e-001	(-2.35824253252217e-002dB,-1.01411518027318e-004°)
1.53461698279928e-001	(-2.35824253246589e-002dB,-1.01645295679902e-004°)
1.53815464030302e-001	(-2.35824253240381e-002dB,-1.01879612231760e-004°)
1.54170045294954e-001	(-2.35824253235904e-002dB,-1.02114468934928e-004°)
1.54525443953840e-001	(-2.35824253231408e-002dB,-1.02349867051947e-004°)
1.54881661891247e-001	(-2.35824253227395e-002dB,-1.02585807808588e-004°)
1.55238700995807e-001	(-2.35824253220433e-002dB,-1.02822292474708e-004°)
1.55596563160506e-001	(-2.35824253217629e-002dB,-1.03059322283620e-004°)
1.55955250282694e-001	(-2.35824253211286e-002dB,-1.03296898508425e-004°)
1.56314764264094e-001	(-2.35824253206577e-002dB,-1.03535022398679e-004°)
1.56675107010813e-001	(-2.35824253201916e-002dB,-1.03773695226538e-004°)
1.57036280433354e-001	(-2.35824253194258e-002dB,-1.04012918263368e-004°)
1.57398286446620e-001	(-2.35824253191367e-002dB,-1.04252692744887e-004°)
1.57761126969933e-001	(-2.35824253184859e-002dB,-1.04493019979454e-004°)
1.58124803927037e-001	(-2.35824253178941e-002dB,-1.04733901212020e-004°)
1.58489319246110e-001	(-2.35824253176679e-002dB,-1.04975337734504e-004°)
1.58854674859776e-001	(-2.35824253168953e-002dB,-1.05217330827505e-004°)
1.59220872705115e-001	(-2.35824253164273e-002dB,-1.05459881788094e-004°)
1.59587914723672e-001	(-2.35824253160724e-002dB,-1.05702991865842e-004°)
1.59955802861465e-001	(-2.35824253154275e-002dB,-1.05946662384724e-004°)
1.60324539069002e-001	(-2.35824253148367e-002dB,-1.06190894614441e-004°)
1.60694125301286e-001	(-2.35824253143116e-002dB,-1.06435689864480e-004°)
1.61064563517825e-001	(-2.35824253138397e-002dB,-1.06681049417264e-004°)
1.61435855682647e-001	(-2.35824253131348e-002dB,-1.06926974577598e-004°)
1.61808003764305e-001	(-2.35824253127345e-002dB,-1.07173466668232e-004°)
1.62181009735891e-001	(-2.35824253120402e-002dB,-1.07420526966260e-004°)
1.62554875575047e-001	(-2.35824253118217e-002dB,-1.07668156814481e-004°)
1.62929603263970e-001	(-2.35824253109437e-002dB,-1.07916357504628e-004°)
1.63305194789432e-001	(-2.35824253105511e-002dB,-1.08165130354844e-004°)
1.63681652142779e-001	(-2.35824253101054e-002dB,-1.08414476684132e-004°)
1.64058977319952e-001	(-2.35824253093715e-002dB,-1.08664397810549e-004°)
1.64437172321491e-001	(-2.35824253088029e-002dB,-1.08914895080894e-004°)
1.64816239152549e-001	(-2.35824253085447e-002dB,-1.09165969787575e-004°)
1.65196179822900e-001	(-2.35824253080535e-002dB,-1.09417623289253e-004°)
1.65576996346951e-001	(-2.35824253076309e-002dB,-1.09669856920955e-004°)
1.65958690743754e-001	(-2.35824253068555e-002dB,-1.09922671992463e-004°)
1.66341265037015e-001	(-2.35824253065586e-002dB,-1.10176069879589e-004°)
1.66724721255104e-001	(-2.35824253059136e-002dB,-1.10430051900871e-004°)
1.67109061431069e-001	(-2.35824253053896e-002dB,-1.10684619421091e-004°)
1.67494287602642e-001	(-2.35824253045696e-002dB,-1.10939773778577e-004°)
1.67880401812254e-001	(-2.35824253041267e-002dB,-1.11195516305419e-004°)
1.68267406107045e-001	(-2.35824253034441e-002dB,-1.11451848404378e-004°)
1.68655302538872e-001	(-2.35824253028281e-002dB,-1.11708771403730e-004°)
1.69044093164324e-001	(-2.35824253022257e-002dB,-1.11966286679001e-004°)
1.69433780044731e-001	(-2.35824253016861e-002dB,-1.12224395576321e-004°)
1.69824365246172e-001	(-2.35824253009706e-002dB,-1.12483099478549e-004°)
1.70215850839493e-001	(-2.35824253005152e-002dB,-1.12742399739758e-004°)
1.70608238900310e-001	(-2.35824252998779e-002dB,-1.13002297768737e-004°)
1.71001531509027e-001	(-2.35824252992659e-002dB,-1.13262794929656e-004°)
1.71395730750840e-001	(-2.35824252988201e-002dB,-1.13523892598637e-004°)
1.71790838715757e-001	(-2.35824252979847e-002dB,-1.13785592157763e-004°)
1.72186857498599e-001	(-2.35824252975785e-002dB,-1.14047894977428e-004°)
1.72583789199018e-001	(-2.35824252968746e-002dB,-1.14310802487108e-004°)
1.72981635921508e-001	(-2.35824252962935e-002dB,-1.14574316045561e-004°)
1.73380399775412e-001	(-2.35824252957384e-002dB,-1.14838437082452e-004°)
1.73780082874935e-001	(-2.35824252948953e-002dB,-1.15103166992114e-004°)
1.74180687339159e-001	(-2.35824252941778e-002dB,-1.15368507133585e-004°)
1.74582215292048e-001	(-2.35824252935396e-002dB,-1.15634458983970e-004°)
1.74984668862463e-001	(-2.35824252929033e-002dB,-1.15901023872955e-004°)
1.75388050184174e-001	(-2.35824252923512e-002dB,-1.16168203295544e-004°)
1.75792361395867e-001	(-2.35824252918629e-002dB,-1.16435998617028e-004°)
1.76197604641161e-001	(-2.35824252910951e-002dB,-1.16704411261739e-004°)
1.76603782068614e-001	(-2.35824252903980e-002dB,-1.16973442677735e-004°)
1.77010895831740e-001	(-2.35824252898884e-002dB,-1.17243094271835e-004°)
1.77418948089014e-001	(-2.35824252893440e-002dB,-1.17513367468638e-004°)
1.77827941003890e-001	(-2.35824252885115e-002dB,-1.17784263710553e-004°)
1.78237876744807e-001	(-2.35824252880560e-002dB,-1.18055784440025e-004°)
1.78648757485203e-001	(-2.35824252873772e-002dB,-1.18327931081908e-004°)
1.79060585403527e-001	(-2.35824252867168e-002dB,-1.18600705084739e-004°)
1.79473362683250e-001	(-2.35824252858823e-002dB,-1.18874107903029e-004°)
1.79887091512876e-001	(-2.35824252851271e-002dB,-1.19148140991375e-004°)
1.80301774085954e-001	(-2.35824252846910e-002dB,-1.19422805768221e-004°)
1.80717412601090e-001	(-2.35824252837328e-002dB,-1.19698103725667e-004°)
1.81134009261958e-001	(-2.35824252830965e-002dB,-1.19974036311021e-004°)
1.81551566277311e-001	(-2.35824252826527e-002dB,-1.20250604973275e-004°)
1.81970085860996e-001	(-2.35824252818115e-002dB,-1.20527811208708e-004°)
1.82389570231961e-001	(-2.35824252811665e-002dB,-1.20805656466477e-004°)
1.82810021614272e-001	(-2.35824252805390e-002dB,-1.21084142237114e-004°)
1.83231442237119e-001	(-2.35824252796329e-002dB,-1.21363269966665e-004°)
1.83653834334832e-001	(-2.35824252791649e-002dB,-1.21643041155145e-004°)
1.84077200146893e-001	(-2.35824252783672e-002dB,-1.21923457280831e-004°)
1.84501541917945e-001	(-2.35824252781129e-002dB,-1.22204519828687e-004°)
1.84926861897805e-001	(-2.35824252774757e-002dB,-1.22486230301353e-004°)
1.85353162341479e-001	(-2.35824252766083e-002dB,-1.22768590183921e-004°)
1.85780445509167e-001	(-2.35824252757777e-002dB,-1.23051600967734e-004°)
1.86208713666284e-001	(-2.35824252751347e-002dB,-1.23335264166612e-004°)
1.86637969083464e-001	(-2.35824252745216e-002dB,-1.23619581260601e-004°)
1.87068214036577e-001	(-2.35824252736301e-002dB,-1.23904553791630e-004°)
