Freq.	V(n001)/-I(I2)
1.00000000000000e-001	(1.19299546041252e+002dB,-8.37273380788002e-004°)
1.00230523807790e-001	(1.19299546040927e+002dB,-8.39203493922012e-004°)
1.00461579027840e-001	(1.19299546040599e+002dB,-8.41138056417117e-004°)
1.00693166885180e-001	(1.19299546040271e+002dB,-8.43077078529962e-004°)
1.00925288607668e-001	(1.19299546039941e+002dB,-8.45020570540834e-004°)
1.01157945425990e-001	(1.19299546039609e+002dB,-8.46968542753848e-004°)
1.01391138573668e-001	(1.19299546039276e+002dB,-8.48921005497256e-004°)
1.01624869287070e-001	(1.19299546038941e+002dB,-8.50877969122605e-004°)
1.01859138805412e-001	(1.19299546038605e+002dB,-8.52839444005042e-004°)
1.02093948370768e-001	(1.19299546038268e+002dB,-8.54805440544191e-004°)
1.02329299228075e-001	(1.19299546037928e+002dB,-8.56775969163663e-004°)
1.02565192625141e-001	(1.19299546037587e+002dB,-8.58751040310950e-004°)
1.02801629812647e-001	(1.19299546037245e+002dB,-8.60730664457334e-004°)
1.03038612044162e-001	(1.19299546036901e+002dB,-8.62714852098882e-004°)
1.03276140576140e-001	(1.19299546036555e+002dB,-8.64703613755075e-004°)
1.03514216667934e-001	(1.19299546036208e+002dB,-8.66696959970168e-004°)
1.03752841581801e-001	(1.19299546035859e+002dB,-8.68694901312458e-004°)
1.03992016582906e-001	(1.19299546035509e+002dB,-8.70697448374864e-004°)
1.04231742939330e-001	(1.19299546035157e+002dB,-8.72704611774600e-004°)
1.04472021922080e-001	(1.19299546034803e+002dB,-8.74716402153347e-004°)
1.04712854805090e-001	(1.19299546034448e+002dB,-8.76732830177458e-004°)
1.04954242865232e-001	(1.19299546034091e+002dB,-8.78753906537735e-004°)
1.05196187382322e-001	(1.19299546033732e+002dB,-8.80779641949223e-004°)
1.05438689639126e-001	(1.19299546033372e+002dB,-8.82810047152339e-004°)
1.05681750921366e-001	(1.19299546033010e+002dB,-8.84845132912126e-004°)
1.05925372517729e-001	(1.19299546032646e+002dB,-8.86884910018168e-004°)
1.06169555719872e-001	(1.19299546032281e+002dB,-8.88929389284928e-004°)
1.06414301822431e-001	(1.19299546031914e+002dB,-8.90978581552060e-004°)
1.06659612123026e-001	(1.19299546031545e+002dB,-8.93032497684216e-004°)
1.06905487922266e-001	(1.19299546031175e+002dB,-8.95091148570677e-004°)
1.07151930523760e-001	(1.19299546030803e+002dB,-8.97154545126239e-004°)
1.07398941234124e-001	(1.19299546030429e+002dB,-8.99222698290994e-004°)
1.07646521362983e-001	(1.19299546030054e+002dB,-9.01295619029430e-004°)
1.07894672222983e-001	(1.19299546029676e+002dB,-9.03373318332135e-004°)
1.08143395129794e-001	(1.19299546029297e+002dB,-9.05455807214759e-004°)
1.08392691402120e-001	(1.19299546028917e+002dB,-9.07543096718342e-004°)
1.08642562361706e-001	(1.19299546028534e+002dB,-9.09635197909655e-004°)
1.08893009333343e-001	(1.19299546028150e+002dB,-9.11732121880326e-004°)
1.09144033644875e-001	(1.19299546027764e+002dB,-9.13833879747845e-004°)
1.09395636627209e-001	(1.19299546027376e+002dB,-9.15940482655594e-004°)
1.09647819614318e-001	(1.19299546026987e+002dB,-9.18051941772457e-004°)
1.09900583943252e-001	(1.19299546026595e+002dB,-9.20168268293072e-004°)
1.10153930954141e-001	(1.19299546026202e+002dB,-9.22289473438017e-004°)
1.10407861990207e-001	(1.19299546025807e+002dB,-9.24415568453459e-004°)
1.10662378397766e-001	(1.19299546025410e+002dB,-9.26546564611486e-004°)
1.10917481526240e-001	(1.19299546025011e+002dB,-9.28682473210453e-004°)
1.11173172728159e-001	(1.19299546024611e+002dB,-9.30823305574618e-004°)
1.11429453359173e-001	(1.19299546024209e+002dB,-9.32969073054630e-004°)
1.11686324778056e-001	(1.19299546023804e+002dB,-9.35119787026590e-004°)
1.11943788346715e-001	(1.19299546023398e+002dB,-9.37275458893253e-004°)
1.12201845430196e-001	(1.19299546022990e+002dB,-9.39436100083797e-004°)
1.12460497396692e-001	(1.19299546022580e+002dB,-9.41601722053608e-004°)
1.12719745617551e-001	(1.19299546022169e+002dB,-9.43772336284620e-004°)
1.12979591467279e-001	(1.19299546021755e+002dB,-9.45947954285095e-004°)
1.13240036323555e-001	(1.19299546021340e+002dB,-9.48128587589386e-004°)
1.13501081567231e-001	(1.19299546020922e+002dB,-9.50314247759159e-004°)
1.13762728582343e-001	(1.19299546020503e+002dB,-9.52504946382444e-004°)
1.14024978756117e-001	(1.19299546020081e+002dB,-9.54700695074125e-004°)
1.14287833478977e-001	(1.19299546019658e+002dB,-9.56901505475427e-004°)
1.14551294144553e-001	(1.19299546019233e+002dB,-9.59107389255434e-004°)
1.14815362149688e-001	(1.19299546018806e+002dB,-9.61318358107928e-004°)
1.15080038894443e-001	(1.19299546018377e+002dB,-9.63534423756290e-004°)
1.15345325782109e-001	(1.19299546017945e+002dB,-9.65755597949751e-004°)
1.15611224219209e-001	(1.19299546017512e+002dB,-9.67981892464038e-004°)
1.15877735615512e-001	(1.19299546017077e+002dB,-9.70213319103053e-004°)
1.16144861384034e-001	(1.19299546016640e+002dB,-9.72449889697167e-004°)
1.16412602941049e-001	(1.19299546016201e+002dB,-9.74691616104475e-004°)
1.16680961706096e-001	(1.19299546015760e+002dB,-9.76938510210293e-004°)
1.16949939101987e-001	(1.19299546015316e+002dB,-9.79190583927359e-004°)
1.17219536554813e-001	(1.19299546014871e+002dB,-9.81447849195552e-004°)
1.17489755493952e-001	(1.19299546014424e+002dB,-9.83710317982980e-004°)
1.17760597352080e-001	(1.19299546013975e+002dB,-9.85978002284291e-004°)
1.18032063565172e-001	(1.19299546013523e+002dB,-9.88250914122833e-004°)
1.18304155572516e-001	(1.19299546013070e+002dB,-9.90529065548917e-004°)
1.18576874816716e-001	(1.19299546012614e+002dB,-9.92812468641235e-004°)
1.18850222743701e-001	(1.19299546012156e+002dB,-9.95101135505570e-004°)
1.19124200802737e-001	(1.19299546011696e+002dB,-9.97395078276820e-004°)
1.19398810446427e-001	(1.19299546011234e+002dB,-9.99694309116491e-004°)
1.19674053130724e-001	(1.19299546010770e+002dB,-1.00199884021488e-003°)
1.19949930314937e-001	(1.19299546010304e+002dB,-1.00430868378994e-003°)
1.20226443461741e-001	(1.19299546009836e+002dB,-1.00662385208884e-003°)
1.20503594037179e-001	(1.19299546009365e+002dB,-1.00894435738562e-003°)
1.20781383510677e-001	(1.19299546008892e+002dB,-1.01127021198198e-003°)
1.21059813355048e-001	(1.19299546008417e+002dB,-1.01360142821199e-003°)
1.21338885046497e-001	(1.19299546007940e+002dB,-1.01593801843384e-003°)
1.21618600064636e-001	(1.19299546007461e+002dB,-1.01827999503606e-003°)
1.21898959892486e-001	(1.19299546006979e+002dB,-1.02062737043526e-003°)
1.22179966016487e-001	(1.19299546006496e+002dB,-1.02298015707670e-003°)
1.22461619926504e-001	(1.19299546006010e+002dB,-1.02533836743459e-003°)
1.22743923115840e-001	(1.19299546005521e+002dB,-1.02770201401196e-003°)
1.23026877081238e-001	(1.19299546005031e+002dB,-1.03007110934045e-003°)
1.23310483322890e-001	(1.19299546004538e+002dB,-1.03244566598004e-003°)
1.23594743344450e-001	(1.19299546004043e+002dB,-1.03482569652108e-003°)
1.23879658653036e-001	(1.19299546003546e+002dB,-1.03721121358119e-003°)
1.24165230759240e-001	(1.19299546003046e+002dB,-1.03960222980878e-003°)
1.24451461177138e-001	(1.19299546002544e+002dB,-1.04199875788014e-003°)
1.24738351424294e-001	(1.19299546002040e+002dB,-1.04440081050174e-003°)
1.25025903021771e-001	(1.19299546001534e+002dB,-1.04680840040821e-003°)
1.25314117494141e-001	(1.19299546001025e+002dB,-1.04922154036468e-003°)
1.25602996369487e-001	(1.19299546000513e+002dB,-1.05164024316505e-003°)
1.25892541179416e-001	(1.19299546000000e+002dB,-1.05406452163286e-003°)
1.26182753459066e-001	(1.19299545999484e+002dB,-1.05649438862108e-003°)
1.26473634747114e-001	(1.19299545998966e+002dB,-1.05892985701275e-003°)
1.26765186585784e-001	(1.19299545998445e+002dB,-1.06137093972018e-003°)
1.27057410520853e-001	(1.19299545997922e+002dB,-1.06381764968539e-003°)
1.27350308101665e-001	(1.19299545997396e+002dB,-1.06626999988058e-003°)
1.27643880881134e-001	(1.19299545996868e+002dB,-1.06872800330770e-003°)
1.27938130415752e-001	(1.19299545996338e+002dB,-1.07119167299899e-003°)
1.28233058265601e-001	(1.19299545995805e+002dB,-1.07366102201607e-003°)
1.28528665994361e-001	(1.19299545995270e+002dB,-1.07613606345069e-003°)
1.28824955169313e-001	(1.19299545994732e+002dB,-1.07861681042557e-003°)
1.29121927361353e-001	(1.19299545994191e+002dB,-1.08110327609288e-003°)
1.29419584144998e-001	(1.19299545993649e+002dB,-1.08359547363575e-003°)
1.29717927098395e-001	(1.19299545993103e+002dB,-1.08609341626707e-003°)
1.30016957803328e-001	(1.19299545992556e+002dB,-1.08859711723097e-003°)
1.30316677845229e-001	(1.19299545992005e+002dB,-1.09110658980100e-003°)
1.30617088813183e-001	(1.19299545991452e+002dB,-1.09362184728209e-003°)
1.30918192299940e-001	(1.19299545990897e+002dB,-1.09614290301020e-003°)
1.31219989901919e-001	(1.19299545990339e+002dB,-1.09866977035153e-003°)
1.31522483219223e-001	(1.19299545989779e+002dB,-1.10120246270242e-003°)
1.31825673855640e-001	(1.19299545989215e+002dB,-1.10374099349098e-003°)
1.32129563418657e-001	(1.19299545988650e+002dB,-1.10628537617611e-003°)
1.32434153519466e-001	(1.19299545988081e+002dB,-1.10883562424790e-003°)
1.32739445772973e-001	(1.19299545987510e+002dB,-1.11139175122698e-003°)
1.33045441797808e-001	(1.19299545986937e+002dB,-1.11395377066565e-003°)
1.33352143216331e-001	(1.19299545986360e+002dB,-1.11652169614779e-003°)
1.33659551654643e-001	(1.19299545985782e+002dB,-1.11909554128706e-003°)
1.33967668742593e-001	(1.19299545985200e+002dB,-1.12167531973040e-003°)
1.34276496113785e-001	(1.19299545984616e+002dB,-1.12426104515428e-003°)
1.34586035405594e-001	(1.19299545984029e+002dB,-1.12685273126932e-003°)
1.34896288259164e-001	(1.19299545983439e+002dB,-1.12945039181478e-003°)
1.35207256319427e-001	(1.19299545982847e+002dB,-1.13205404056352e-003°)
1.35518941235103e-001	(1.19299545982251e+002dB,-1.13466369131996e-003°)
1.35831344658714e-001	(1.19299545981654e+002dB,-1.13727935791947e-003°)
1.36144468246594e-001	(1.19299545981053e+002dB,-1.13990105423021e-003°)
1.36458313658891e-001	(1.19299545980450e+002dB,-1.14252879415104e-003°)
1.36772882559584e-001	(1.19299545979843e+002dB,-1.14516259161504e-003°)
1.37088176616484e-001	(1.19299545979234e+002dB,-1.14780246058534e-003°)
1.37404197501250e-001	(1.19299545978623e+002dB,-1.15044841505860e-003°)
1.37720946889394e-001	(1.19299545978008e+002dB,-1.15310046906249e-003°)
1.38038426460287e-001	(1.19299545977390e+002dB,-1.15575863665826e-003°)
1.38356637897177e-001	(1.19299545976770e+002dB,-1.15842293193918e-003°)
1.38675582887188e-001	(1.19299545976147e+002dB,-1.16109336902998e-003°)
1.38995263121334e-001	(1.19299545975521e+002dB,-1.16376996208935e-003°)
1.39315680294529e-001	(1.19299545974892e+002dB,-1.16645272530810e-003°)
1.39636836105593e-001	(1.19299545974260e+002dB,-1.16914167291028e-003°)
1.39958732257261e-001	(1.19299545973625e+002dB,-1.17183681915111e-003°)
1.40281370456195e-001	(1.19299545972988e+002dB,-1.17453817832031e-003°)
1.40604752412990e-001	(1.19299545972347e+002dB,-1.17724576474031e-003°)
1.40928879842186e-001	(1.19299545971703e+002dB,-1.17995959276554e-003°)
1.41253754462274e-001	(1.19299545971057e+002dB,-1.18267967678473e-003°)
1.41579377995707e-001	(1.19299545970407e+002dB,-1.18540603121909e-003°)
1.41905752168908e-001	(1.19299545969755e+002dB,-1.18813867052304e-003°)
1.42232878712281e-001	(1.19299545969099e+002dB,-1.19087760918489e-003°)
1.42560759360218e-001	(1.19299545968441e+002dB,-1.19362286172580e-003°)
1.42889395851109e-001	(1.19299545967779e+002dB,-1.19637444270094e-003°)
1.43218789927353e-001	(1.19299545967114e+002dB,-1.19913236669776e-003°)
1.43548943335364e-001	(1.19299545966446e+002dB,-1.20189664833885e-003°)
1.43879857825583e-001	(1.19299545965776e+002dB,-1.20466730228016e-003°)
1.44211535152486e-001	(1.19299545965102e+002dB,-1.20744434321049e-003°)
1.44543977074591e-001	(1.19299545964425e+002dB,-1.21022778585373e-003°)
1.44877185354475e-001	(1.19299545963745e+002dB,-1.21301764496698e-003°)
1.45211161758773e-001	(1.19299545963061e+002dB,-1.21581393534153e-003°)
1.45545908058195e-001	(1.19299545962375e+002dB,-1.21861667180279e-003°)
1.45881426027534e-001	(1.19299545961685e+002dB,-1.22142586921049e-003°)
1.46217717445671e-001	(1.19299545960992e+002dB,-1.22424154245791e-003°)
1.46554784095590e-001	(1.19299545960296e+002dB,-1.22706370647376e-003°)
1.46892627764385e-001	(1.19299545959597e+002dB,-1.22989237622042e-003°)
1.47231250243271e-001	(1.19299545958895e+002dB,-1.23272756669494e-003°)
1.47570653327588e-001	(1.19299545958189e+002dB,-1.23556929292882e-003°)
1.47910838816819e-001	(1.19299545957480e+002dB,-1.23841756998860e-003°)
1.48251808514594e-001	(1.19299545956768e+002dB,-1.24127241297515e-003°)
1.48593564228699e-001	(1.19299545956052e+002dB,-1.24413383702410e-003°)
1.48936107771090e-001	(1.19299545955333e+002dB,-1.24700185730673e-003°)
1.49279440957898e-001	(1.19299545954611e+002dB,-1.24987648902795e-003°)
1.49623565609442e-001	(1.19299545953886e+002dB,-1.25275774742926e-003°)
1.49968483550236e-001	(1.19299545953157e+002dB,-1.25564564778614e-003°)
1.50314196609001e-001	(1.19299545952373e+002dB,-1.25854020476834e-003°)
1.50660706618673e-001	(1.19299545951638e+002dB,-1.26144143500300e-003°)
1.51008015416413e-001	(1.19299545950899e+002dB,-1.26434935323298e-003°)
1.51356124843619e-001	(1.19299545950156e+002dB,-1.26726397487434e-003°)
1.51705036745932e-001	(1.19299545949410e+002dB,-1.27018531538077e-003°)
1.52054752973248e-001	(1.19299545948661e+002dB,-1.27311339024005e-003°)
1.52405275379728e-001	(1.19299545947909e+002dB,-1.27604821497625e-003°)
1.52756605823806e-001	(1.19299545947152e+002dB,-1.27898980514979e-003°)
1.53108746168202e-001	(1.19299545946393e+002dB,-1.28193817635562e-003°)
1.53461698279928e-001	(1.19299545945630e+002dB,-1.28489334422580e-003°)
1.53815464030302e-001	(1.19299545944863e+002dB,-1.28785532442859e-003°)
1.54170045294954e-001	(1.19299545944093e+002dB,-1.29082413266672e-003°)
1.54525443953840e-001	(1.19299545943319e+002dB,-1.29379978468085e-003°)
1.54881661891247e-001	(1.19299545942542e+002dB,-1.29678229624714e-003°)
1.55238700995807e-001	(1.19299545941761e+002dB,-1.29977168317827e-003°)
1.55596563160506e-001	(1.19299545940976e+002dB,-1.30276796132354e-003°)
1.55955250282694e-001	(1.19299545940188e+002dB,-1.30577114656821e-003°)
1.56314764264094e-001	(1.19299545939396e+002dB,-1.30878125483494e-003°)
1.56675107010813e-001	(1.19299545938601e+002dB,-1.31179830208210e-003°)
1.57036280433354e-001	(1.19299545937802e+002dB,-1.31482230430584e-003°)
1.57398286446620e-001	(1.19299545936999e+002dB,-1.31785327753901e-003°)
1.57761126969933e-001	(1.19299545936192e+002dB,-1.32089123785119e-003°)
1.58124803927037e-001	(1.19299545935382e+002dB,-1.32393620134860e-003°)
1.58489319246110e-001	(1.19299545934568e+002dB,-1.32698818417541e-003°)
1.58854674859776e-001	(1.19299545933750e+002dB,-1.33004720251183e-003°)
1.59220872705115e-001	(1.19299545932929e+002dB,-1.33311327257724e-003°)
1.59587914723672e-001	(1.19299545932103e+002dB,-1.33618641062674e-003°)
1.59955802861465e-001	(1.19299545931274e+002dB,-1.33926663295305e-003°)
1.60324539069002e-001	(1.19299545930441e+002dB,-1.34235395588788e-003°)
1.60694125301286e-001	(1.19299545929605e+002dB,-1.34544839579833e-003°)
1.61064563517825e-001	(1.19299545928764e+002dB,-1.34854996909127e-003°)
1.61435855682647e-001	(1.19299545927919e+002dB,-1.35165869221059e-003°)
1.61808003764305e-001	(1.19299545927071e+002dB,-1.35477458163745e-003°)
1.62181009735891e-001	(1.19299545926219e+002dB,-1.35789765389266e-003°)
1.62554875575047e-001	(1.19299545925362e+002dB,-1.36102792553305e-003°)
1.62929603263970e-001	(1.19299545924502e+002dB,-1.36416541315483e-003°)
1.63305194789432e-001	(1.19299545923638e+002dB,-1.36731013339272e-003°)
1.63681652142779e-001	(1.19299545922770e+002dB,-1.37046210291912e-003°)
1.64058977319952e-001	(1.19299545921897e+002dB,-1.37362133844529e-003°)
1.64437172321491e-001	(1.19299545921021e+002dB,-1.37678785672047e-003°)
1.64816239152549e-001	(1.19299545920141e+002dB,-1.37996167453271e-003°)
1.65196179822900e-001	(1.19299545919257e+002dB,-1.38314280870939e-003°)
1.65576996346951e-001	(1.19299545918368e+002dB,-1.38633127611595e-003°)
1.65958690743754e-001	(1.19299545917476e+002dB,-1.38952709365760e-003°)
1.66341265037015e-001	(1.19299545916579e+002dB,-1.39273027827615e-003°)
1.66724721255104e-001	(1.19299545915678e+002dB,-1.39594084695588e-003°)
1.67109061431069e-001	(1.19299545914773e+002dB,-1.39915881671767e-003°)
1.67494287602642e-001	(1.19299545913864e+002dB,-1.40238420462267e-003°)
1.67880401812254e-001	(1.19299545912951e+002dB,-1.40561702777118e-003°)
1.68267406107045e-001	(1.19299545912033e+002dB,-1.40885730330312e-003°)
1.68655302538872e-001	(1.19299545911112e+002dB,-1.41210504839727e-003°)
1.69044093164324e-001	(1.19299545910186e+002dB,-1.41536028027229e-003°)
1.69433780044731e-001	(1.19299545909255e+002dB,-1.41862301618787e-003°)
1.69824365246172e-001	(1.19299545908321e+002dB,-1.42189327344104e-003°)
1.70215850839493e-001	(1.19299545907382e+002dB,-1.42517106937041e-003°)
1.70608238900310e-001	(1.19299545906439e+002dB,-1.42845642135433e-003°)
1.71001531509027e-001	(1.19299545905491e+002dB,-1.43174934681054e-003°)
1.71395730750840e-001	(1.19299545904539e+002dB,-1.43504986319738e-003°)
1.71790838715757e-001	(1.19299545903583e+002dB,-1.43835798801410e-003°)
1.72186857498599e-001	(1.19299545902622e+002dB,-1.44167373879917e-003°)
1.72583789199018e-001	(1.19299545901657e+002dB,-1.44499713313172e-003°)
1.72981635921508e-001	(1.19299545900687e+002dB,-1.44832818863228e-003°)
1.73380399775412e-001	(1.19299545899713e+002dB,-1.45166692296046e-003°)
1.73780082874935e-001	(1.19299545898734e+002dB,-1.45501335381766e-003°)
1.74180687339159e-001	(1.19299545897751e+002dB,-1.45836749894640e-003°)
1.74582215292048e-001	(1.19299545896764e+002dB,-1.46172937612943e-003°)
1.74984668862463e-001	(1.19299545895771e+002dB,-1.46509900319027e-003°)
1.75388050184174e-001	(1.19299545894775e+002dB,-1.46847639799389e-003°)
1.75792361395867e-001	(1.19299545893773e+002dB,-1.47186157844756e-003°)
1.76197604641161e-001	(1.19299545892767e+002dB,-1.47525456249714e-003°)
1.76603782068614e-001	(1.19299545891756e+002dB,-1.47865536813211e-003°)
1.77010895831740e-001	(1.19299545890741e+002dB,-1.48206401338294e-003°)
1.77418948089014e-001	(1.19299545889721e+002dB,-1.48548051632080e-003°)
1.77827941003890e-001	(1.19299545888696e+002dB,-1.48890489506029e-003°)
1.78237876744807e-001	(1.19299545887667e+002dB,-1.49233716775538e-003°)
1.78648757485203e-001	(1.19299545886633e+002dB,-1.49577735260390e-003°)
1.79060585403527e-001	(1.19299545885594e+002dB,-1.49922546784474e-003°)
1.79473362683250e-001	(1.19299545884550e+002dB,-1.50268153175921e-003°)
1.79887091512876e-001	(1.19299545883501e+002dB,-1.50614556267029e-003°)
1.80301774085954e-001	(1.19299545882448e+002dB,-1.50961757894319e-003°)
1.80717412601090e-001	(1.19299545881389e+002dB,-1.51309759898595e-003°)
1.81134009261958e-001	(1.19299545880326e+002dB,-1.51658564124878e-003°)
1.81551566277311e-001	(1.19299545879258e+002dB,-1.52008172422490e-003°)
1.81970085860996e-001	(1.19299545878185e+002dB,-1.52358586644873e-003°)
1.82389570231961e-001	(1.19299545877107e+002dB,-1.52709808649887e-003°)
1.82810021614272e-001	(1.19299545876024e+002dB,-1.53061840299607e-003°)
1.83231442237119e-001	(1.19299545874936e+002dB,-1.53414683460496e-003°)
1.83653834334832e-001	(1.19299545873843e+002dB,-1.53768340003133e-003°)
1.84077200146893e-001	(1.19299545872745e+002dB,-1.54122811802587e-003°)
1.84501541917945e-001	(1.19299545871642e+002dB,-1.54478100738109e-003°)
1.84926861897805e-001	(1.19299545870534e+002dB,-1.54834208693469e-003°)
1.85353162341479e-001	(1.19299545869421e+002dB,-1.55191137556545e-003°)
1.85780445509167e-001	(1.19299545868302e+002dB,-1.55548889219755e-003°)
1.86208713666284e-001	(1.19299545867179e+002dB,-1.55907465579761e-003°)
1.86637969083464e-001	(1.19299545866050e+002dB,-1.56266868537691e-003°)
1.87068214036577e-001	(1.19299545864916e+002dB,-1.56627099998970e-003°)
1.87499450806739e-001	(1.19299545863777e+002dB,-1.56988161873462e-003°)
1.87931681680324e-001	(1.19299545862632e+002dB,-1.57350056075408e-003°)
1.88364908948977e-001	(1.19299545861482e+002dB,-1.57712784523575e-003°)
1.88799134909627e-001	(1.19299545860327e+002dB,-1.58076349140937e-003°)
