Freq.	V(n002)/-I(V4)
1.00000000000000e-001	(6.73864379856086e+001dB,-1.25939183006835e-004°)
1.00230523807790e-001	(6.73864379856085e+001dB,-1.26229502807001e-004°)
1.00461579027840e-001	(6.73864379856084e+001dB,-1.26520491863425e-004°)
1.00693166885180e-001	(6.73864379856083e+001dB,-1.26812151718902e-004°)
1.00925288607668e-001	(6.73864379856082e+001dB,-1.27104483919784e-004°)
1.01157945425990e-001	(6.73864379856081e+001dB,-1.27397490015987e-004°)
1.01391138573668e-001	(6.73864379856080e+001dB,-1.27691171560999e-004°)
1.01624869287070e-001	(6.73864379856079e+001dB,-1.27985530111892e-004°)
1.01859138805412e-001	(6.73864379856078e+001dB,-1.28280567229326e-004°)
1.02093948370768e-001	(6.73864379856077e+001dB,-1.28576284477556e-004°)
1.02329299228075e-001	(6.73864379856076e+001dB,-1.28872683424448e-004°)
1.02565192625141e-001	(6.73864379856075e+001dB,-1.29169765641478e-004°)
1.02801629812647e-001	(6.73864379856074e+001dB,-1.29467532703747e-004°)
1.03038612044162e-001	(6.73864379856073e+001dB,-1.29765986189986e-004°)
1.03276140576140e-001	(6.73864379856072e+001dB,-1.30065127682567e-004°)
1.03514216667934e-001	(6.73864379856071e+001dB,-1.30364958767506e-004°)
1.03752841581801e-001	(6.73864379856070e+001dB,-1.30665481034480e-004°)
1.03992016582906e-001	(6.73864379856069e+001dB,-1.30966696076827e-004°)
1.04231742939330e-001	(6.73864379856068e+001dB,-1.31268605491559e-004°)
1.04472021922080e-001	(6.73864379856067e+001dB,-1.31571210879370e-004°)
1.04712854805090e-001	(6.73864379856066e+001dB,-1.31874513844643e-004°)
1.04954242865232e-001	(6.73864379856065e+001dB,-1.32178515995461e-004°)
1.05196187382322e-001	(6.73864379856064e+001dB,-1.32483218943613e-004°)
1.05438689639126e-001	(6.73864379856063e+001dB,-1.32788624304604e-004°)
1.05681750921366e-001	(6.73864379856062e+001dB,-1.33094733697661e-004°)
1.05925372517729e-001	(6.73864379856061e+001dB,-1.33401548745748e-004°)
1.06169555719872e-001	(6.73864379856059e+001dB,-1.33709071075567e-004°)
1.06414301822431e-001	(6.73864379856058e+001dB,-1.34017302317570e-004°)
1.06659612123026e-001	(6.73864379856057e+001dB,-1.34326244105969e-004°)
1.06905487922266e-001	(6.73864379856056e+001dB,-1.34635898078742e-004°)
1.07151930523760e-001	(6.73864379856055e+001dB,-1.34946265877644e-004°)
1.07398941234124e-001	(6.73864379856054e+001dB,-1.35257349148214e-004°)
1.07646521362983e-001	(6.73864379856053e+001dB,-1.35569149539785e-004°)
1.07894672222983e-001	(6.73864379856052e+001dB,-1.35881668705492e-004°)
1.08143395129794e-001	(6.73864379856051e+001dB,-1.36194908302279e-004°)
1.08392691402120e-001	(6.73864379856049e+001dB,-1.36508869990912e-004°)
1.08642562361706e-001	(6.73864379856048e+001dB,-1.36823555435985e-004°)
1.08893009333343e-001	(6.73864379856047e+001dB,-1.37138966305929e-004°)
1.09144033644875e-001	(6.73864379856046e+001dB,-1.37455104273020e-004°)
1.09395636627209e-001	(6.73864379856045e+001dB,-1.37771971013391e-004°)
1.09647819614318e-001	(6.73864379856044e+001dB,-1.38089568207037e-004°)
1.09900583943252e-001	(6.73864379856043e+001dB,-1.38407897537827e-004°)
1.10153930954141e-001	(6.73864379856041e+001dB,-1.38726960693512e-004°)
1.10407861990207e-001	(6.73864379856040e+001dB,-1.39046759365733e-004°)
1.10662378397766e-001	(6.73864379856039e+001dB,-1.39367295250030e-004°)
1.10917481526240e-001	(6.73864379856038e+001dB,-1.39688570045853e-004°)
1.11173172728159e-001	(6.73864379856037e+001dB,-1.40010585456569e-004°)
1.11429453359173e-001	(6.73864379856036e+001dB,-1.40333343189471e-004°)
1.11686324778056e-001	(6.73864379856034e+001dB,-1.40656844955789e-004°)
1.11943788346715e-001	(6.73864379856033e+001dB,-1.40981092470697e-004°)
1.12201845430196e-001	(6.73864379856032e+001dB,-1.41306087453324e-004°)
1.12460497396692e-001	(6.73864379856031e+001dB,-1.41631831626758e-004°)
1.12719745617551e-001	(6.73864379856029e+001dB,-1.41958326718066e-004°)
1.12979591467279e-001	(6.73864379856028e+001dB,-1.42285574458290e-004°)
1.13240036323555e-001	(6.73864379856027e+001dB,-1.42613576582466e-004°)
1.13501081567231e-001	(6.73864379856026e+001dB,-1.42942334829628e-004°)
1.13762728582343e-001	(6.73864379856024e+001dB,-1.43271850942820e-004°)
1.14024978756117e-001	(6.73864379856023e+001dB,-1.43602126669103e-004°)
1.14287833478977e-001	(6.73864379856022e+001dB,-1.43933163759566e-004°)
1.14551294144553e-001	(6.73864379856021e+001dB,-1.44264963969336e-004°)
1.14815362149688e-001	(6.73864379856019e+001dB,-1.44597529057584e-004°)
1.15080038894443e-001	(6.73864379856018e+001dB,-1.44930860787536e-004°)
1.15345325782109e-001	(6.73864379856017e+001dB,-1.45264960926485e-004°)
1.15611224219209e-001	(6.73864379856016e+001dB,-1.45599831245796e-004°)
1.15877735615512e-001	(6.73864379856014e+001dB,-1.45935473520918e-004°)
1.16144861384034e-001	(6.73864379856013e+001dB,-1.46271889531394e-004°)
1.16412602941049e-001	(6.73864379856012e+001dB,-1.46609081060866e-004°)
1.16680961706096e-001	(6.73864379856010e+001dB,-1.46947049897092e-004°)
1.16949939101987e-001	(6.73864379856009e+001dB,-1.47285797831949e-004°)
1.17219536554813e-001	(6.73864379856008e+001dB,-1.47625326661443e-004°)
1.17489755493952e-001	(6.73864379856006e+001dB,-1.47965638185724e-004°)
1.17760597352080e-001	(6.73864379856005e+001dB,-1.48306734209089e-004°)
1.18032063565172e-001	(6.73864379856004e+001dB,-1.48648616539995e-004°)
1.18304155572516e-001	(6.73864379856002e+001dB,-1.48991286991069e-004°)
1.18576874816716e-001	(6.73864379856001e+001dB,-1.49334747379114e-004°)
1.18850222743701e-001	(6.73864379856000e+001dB,-1.49678999525125e-004°)
1.19124200802737e-001	(6.73864379855998e+001dB,-1.50024045254290e-004°)
1.19398810446427e-001	(6.73864379855997e+001dB,-1.50369886396009e-004°)
1.19674053130724e-001	(6.73864379855995e+001dB,-1.50716524783897e-004°)
1.19949930314937e-001	(6.73864379855994e+001dB,-1.51063962255797e-004°)
1.20226443461741e-001	(6.73864379855993e+001dB,-1.51412200653785e-004°)
1.20503594037179e-001	(6.73864379855991e+001dB,-1.51761241824189e-004°)
1.20781383510677e-001	(6.73864379855990e+001dB,-1.52111087617590e-004°)
1.21059813355048e-001	(6.73864379855988e+001dB,-1.52461739888835e-004°)
1.21338885046497e-001	(6.73864379855987e+001dB,-1.52813200497048e-004°)
1.21618600064636e-001	(6.73864379855986e+001dB,-1.53165471305638e-004°)
1.21898959892486e-001	(6.73864379855984e+001dB,-1.53518554182310e-004°)
1.22179966016487e-001	(6.73864379855983e+001dB,-1.53872450999073e-004°)
1.22461619926504e-001	(6.73864379855981e+001dB,-1.54227163632255e-004°)
1.22743923115840e-001	(6.73864379855980e+001dB,-1.54582693962504e-004°)
1.23026877081238e-001	(6.73864379855978e+001dB,-1.54939043874809e-004°)
1.23310483322890e-001	(6.73864379855977e+001dB,-1.55296215258501e-004°)
1.23594743344450e-001	(6.73864379855976e+001dB,-1.55654210007267e-004°)
1.23879658653036e-001	(6.73864379855974e+001dB,-1.56013030019160e-004°)
1.24165230759240e-001	(6.73864379855972e+001dB,-1.56372677196607e-004°)
1.24451461177138e-001	(6.73864379855971e+001dB,-1.56733153446421e-004°)
1.24738351424294e-001	(6.73864379855970e+001dB,-1.57094460679814e-004°)
1.25025903021771e-001	(6.73864379855968e+001dB,-1.57456600812398e-004°)
1.25314117494141e-001	(6.73864379855966e+001dB,-1.57819575764206e-004°)
1.25602996369487e-001	(6.73864379855965e+001dB,-1.58183387459694e-004°)
1.25892541179416e-001	(6.73864379855963e+001dB,-1.58548037827755e-004°)
1.26182753459066e-001	(6.73864379855962e+001dB,-1.58913528801730e-004°)
1.26473634747114e-001	(6.73864379855960e+001dB,-1.59279862319415e-004°)
1.26765186585784e-001	(6.73864379855959e+001dB,-1.59647040323075e-004°)
1.27057410520853e-001	(6.73864379855957e+001dB,-1.60015064759450e-004°)
1.27350308101665e-001	(6.73864379855956e+001dB,-1.60383937579769e-004°)
1.27643880881134e-001	(6.73864379855954e+001dB,-1.60753660739759e-004°)
1.27938130415752e-001	(6.73864379855953e+001dB,-1.61124236199657e-004°)
1.28233058265601e-001	(6.73864379855951e+001dB,-1.61495665924215e-004°)
1.28528665994361e-001	(6.73864379855949e+001dB,-1.61867951882717e-004°)
1.28824955169313e-001	(6.73864379855948e+001dB,-1.62241096048986e-004°)
1.29121927361353e-001	(6.73864379855946e+001dB,-1.62615100401397e-004°)
1.29419584144998e-001	(6.73864379855945e+001dB,-1.62989966922882e-004°)
1.29717927098395e-001	(6.73864379855943e+001dB,-1.63365697600946e-004°)
1.30016957803328e-001	(6.73864379855941e+001dB,-1.63742294427677e-004°)
1.30316677845229e-001	(6.73864379855940e+001dB,-1.64119759399752e-004°)
1.30617088813183e-001	(6.73864379855938e+001dB,-1.64498094518454e-004°)
1.30918192299940e-001	(6.73864379855936e+001dB,-1.64877301789678e-004°)
1.31219989901919e-001	(6.73864379855935e+001dB,-1.65257383223942e-004°)
1.31522483219223e-001	(6.73864379855933e+001dB,-1.65638340836403e-004°)
1.31825673855640e-001	(6.73864379855931e+001dB,-1.66020176646856e-004°)
1.32129563418657e-001	(6.73864379855930e+001dB,-1.66402892679760e-004°)
1.32434153519466e-001	(6.73864379855928e+001dB,-1.66786490964236e-004°)
1.32739445772973e-001	(6.73864379855926e+001dB,-1.67170973534084e-004°)
1.33045441797808e-001	(6.73864379855925e+001dB,-1.67556342427792e-004°)
1.33352143216331e-001	(6.73864379855923e+001dB,-1.67942599688549e-004°)
1.33659551654643e-001	(6.73864379855921e+001dB,-1.68329747364250e-004°)
1.33967668742593e-001	(6.73864379855919e+001dB,-1.68717787507515e-004°)
1.34276496113785e-001	(6.73864379855918e+001dB,-1.69106722175694e-004°)
1.34586035405594e-001	(6.73864379855916e+001dB,-1.69496553430880e-004°)
1.34896288259164e-001	(6.73864379855914e+001dB,-1.69887283339919e-004°)
1.35207256319427e-001	(6.73864379855912e+001dB,-1.70278913974423e-004°)
1.35518941235103e-001	(6.73864379855911e+001dB,-1.70671447410778e-004°)
1.35831344658714e-001	(6.73864379855909e+001dB,-1.71064885730157e-004°)
1.36144468246594e-001	(6.73864379855907e+001dB,-1.71459231018532e-004°)
1.36458313658891e-001	(6.73864379855905e+001dB,-1.71854485366681e-004°)
1.36772882559584e-001	(6.73864379855903e+001dB,-1.72250650870204e-004°)
1.37088176616484e-001	(6.73864379855902e+001dB,-1.72647729629530e-004°)
1.37404197501250e-001	(6.73864379855900e+001dB,-1.73045723749933e-004°)
1.37720946889394e-001	(6.73864379855898e+001dB,-1.73444635341537e-004°)
1.38038426460287e-001	(6.73864379855896e+001dB,-1.73844466519331e-004°)
1.38356637897177e-001	(6.73864379855894e+001dB,-1.74245219403181e-004°)
1.38675582887188e-001	(6.73864379855892e+001dB,-1.74646896117839e-004°)
1.38995263121334e-001	(6.73864379855891e+001dB,-1.75049498792955e-004°)
1.39315680294529e-001	(6.73864379855889e+001dB,-1.75453029563087e-004°)
1.39636836105593e-001	(6.73864379855887e+001dB,-1.75857490567716e-004°)
1.39958732257261e-001	(6.73864379855885e+001dB,-1.76262883951254e-004°)
1.40281370456195e-001	(6.73864379855883e+001dB,-1.76669211863057e-004°)
1.40604752412990e-001	(6.73864379855881e+001dB,-1.77076476457434e-004°)
1.40928879842186e-001	(6.73864379855879e+001dB,-1.77484679893661e-004°)
1.41253754462274e-001	(6.73864379855877e+001dB,-1.77893824335993e-004°)
1.41579377995707e-001	(6.73864379855875e+001dB,-1.78303911953673e-004°)
1.41905752168908e-001	(6.73864379855873e+001dB,-1.78714944920945e-004°)
1.42232878712281e-001	(6.73864379855872e+001dB,-1.79126925417063e-004°)
1.42560759360218e-001	(6.73864379855870e+001dB,-1.79539855626309e-004°)
1.42889395851109e-001	(6.73864379855868e+001dB,-1.79953737737997e-004°)
1.43218789927353e-001	(6.73864379855866e+001dB,-1.80368573946488e-004°)
1.43548943335364e-001	(6.73864379855864e+001dB,-1.80784366451204e-004°)
1.43879857825583e-001	(6.73864379855862e+001dB,-1.81201117456633e-004°)
1.44211535152486e-001	(6.73864379855860e+001dB,-1.81618829172349e-004°)
1.44543977074591e-001	(6.73864379855858e+001dB,-1.82037503813018e-004°)
1.44877185354475e-001	(6.73864379855856e+001dB,-1.82457143598411e-004°)
1.45211161758773e-001	(6.73864379855854e+001dB,-1.82877750753416e-004°)
1.45545908058195e-001	(6.73864379855851e+001dB,-1.83299327508051e-004°)
1.45881426027534e-001	(6.73864379855849e+001dB,-1.83721876097473e-004°)
1.46217717445671e-001	(6.73864379855847e+001dB,-1.84145398761994e-004°)
1.46554784095590e-001	(6.73864379855845e+001dB,-1.84569897747087e-004°)
1.46892627764385e-001	(6.73864379855843e+001dB,-1.84995375303404e-004°)
1.47231250243271e-001	(6.73864379855841e+001dB,-1.85421833686786e-004°)
1.47570653327588e-001	(6.73864379855839e+001dB,-1.85849275158273e-004°)
1.47910838816819e-001	(6.73864379855837e+001dB,-1.86277701984114e-004°)
1.48251808514594e-001	(6.73864379855835e+001dB,-1.86707116435789e-004°)
1.48593564228699e-001	(6.73864379855833e+001dB,-1.87137520790008e-004°)
1.48936107771090e-001	(6.73864379855831e+001dB,-1.87568917328734e-004°)
1.49279440957898e-001	(6.73864379855828e+001dB,-1.88001308339188e-004°)
1.49623565609442e-001	(6.73864379855826e+001dB,-1.88434696113863e-004°)
1.49968483550236e-001	(6.73864379855824e+001dB,-1.88869082950539e-004°)
1.50314196609001e-001	(6.73864379855822e+001dB,-1.89304471152292e-004°)
1.50660706618673e-001	(6.73864379855820e+001dB,-1.89740863027506e-004°)
1.51008015416413e-001	(6.73864379855818e+001dB,-1.90178260889887e-004°)
1.51356124843619e-001	(6.73864379855815e+001dB,-1.90616667058476e-004°)
1.51705036745932e-001	(6.73864379855813e+001dB,-1.91056083857658e-004°)
1.52054752973248e-001	(6.73864379855811e+001dB,-1.91496513617179e-004°)
1.52405275379728e-001	(6.73864379855809e+001dB,-1.91937958672150e-004°)
1.52756605823806e-001	(6.73864379855806e+001dB,-1.92380421363072e-004°)
1.53108746168202e-001	(6.73864379855804e+001dB,-1.92823904035838e-004°)
1.53461698279928e-001	(6.73864379855802e+001dB,-1.93268409041747e-004°)
1.53815464030302e-001	(6.73864379855800e+001dB,-1.93713938737522e-004°)
1.54170045294954e-001	(6.73864379855797e+001dB,-1.94160495485316e-004°)
1.54525443953840e-001	(6.73864379855795e+001dB,-1.94608081652729e-004°)
1.54881661891247e-001	(6.73864379855793e+001dB,-1.95056699612819e-004°)
1.55238700995807e-001	(6.73864379855790e+001dB,-1.95506351744113e-004°)
1.55596563160506e-001	(6.73864379855788e+001dB,-1.95957040430622e-004°)
1.55955250282694e-001	(6.73864379855786e+001dB,-1.96408768061851e-004°)
1.56314764264094e-001	(6.73864379855783e+001dB,-1.96861537032817e-004°)
1.56675107010813e-001	(6.73864379855781e+001dB,-1.97315349744056e-004°)
1.57036280433354e-001	(6.73864379855779e+001dB,-1.97770208601636e-004°)
1.57398286446620e-001	(6.73864379855776e+001dB,-1.98226116017175e-004°)
1.57761126969933e-001	(6.73864379855774e+001dB,-1.98683074407848e-004°)
1.58124803927037e-001	(6.73864379855771e+001dB,-1.99141086196404e-004°)
1.58489319246110e-001	(6.73864379855769e+001dB,-1.99600153811175e-004°)
1.58854674859776e-001	(6.73864379855766e+001dB,-2.00060279686091e-004°)
1.59220872705115e-001	(6.73864379855764e+001dB,-2.00521466260695e-004°)
1.59587914723672e-001	(6.73864379855762e+001dB,-2.00983715980152e-004°)
1.59955802861465e-001	(6.73864379855759e+001dB,-2.01447031295264e-004°)
1.60324539069002e-001	(6.73864379855757e+001dB,-2.01911414662482e-004°)
1.60694125301286e-001	(6.73864379855754e+001dB,-2.02376868543920e-004°)
1.61064563517825e-001	(6.73864379855752e+001dB,-2.02843395407370e-004°)
1.61435855682647e-001	(6.73864379855749e+001dB,-2.03310997726310e-004°)
1.61808003764305e-001	(6.73864379855747e+001dB,-2.03779677979921e-004°)
1.62181009735891e-001	(6.73864379855744e+001dB,-2.04249438653098e-004°)
1.62554875575047e-001	(6.73864379855742e+001dB,-2.04720282236467e-004°)
1.62929603263970e-001	(6.73864379855739e+001dB,-2.05192211226392e-004°)
1.63305194789432e-001	(6.73864379855736e+001dB,-2.05665228124996e-004°)
1.63681652142779e-001	(6.73864379855734e+001dB,-2.06139335440167e-004°)
1.64058977319952e-001	(6.73864379855731e+001dB,-2.06614535685572e-004°)
1.64437172321491e-001	(6.73864379855729e+001dB,-2.07090831380678e-004°)
1.64816239152549e-001	(6.73864379855726e+001dB,-2.07568225050756e-004°)
1.65196179822900e-001	(6.73864379855723e+001dB,-2.08046719226902e-004°)
1.65576996346951e-001	(6.73864379855721e+001dB,-2.08526316446041e-004°)
1.65958690743754e-001	(6.73864379855718e+001dB,-2.09007019250953e-004°)
1.66341265037015e-001	(6.73864379855715e+001dB,-2.09488830190274e-004°)
1.66724721255104e-001	(6.73864379855713e+001dB,-2.09971751818519e-004°)
1.67109061431069e-001	(6.73864379855710e+001dB,-2.10455786696090e-004°)
1.67494287602642e-001	(6.73864379855707e+001dB,-2.10940937389292e-004°)
1.67880401812254e-001	(6.73864379855705e+001dB,-2.11427206470345e-004°)
1.68267406107045e-001	(6.73864379855702e+001dB,-2.11914596517400e-004°)
1.68655302538872e-001	(6.73864379855699e+001dB,-2.12403110114551e-004°)
1.69044093164324e-001	(6.73864379855696e+001dB,-2.12892749851848e-004°)
1.69433780044731e-001	(6.73864379855694e+001dB,-2.13383518325310e-004°)
1.69824365246172e-001	(6.73864379855691e+001dB,-2.13875418136945e-004°)
1.70215850839493e-001	(6.73864379855688e+001dB,-2.14368451894757e-004°)
1.70608238900310e-001	(6.73864379855685e+001dB,-2.14862622212761e-004°)
1.71001531509027e-001	(6.73864379855682e+001dB,-2.15357931710999e-004°)
1.71395730750840e-001	(6.73864379855680e+001dB,-2.15854383015551e-004°)
1.71790838715757e-001	(6.73864379855677e+001dB,-2.16351978758556e-004°)
1.72186857498599e-001	(6.73864379855674e+001dB,-2.16850721578215e-004°)
1.72583789199018e-001	(6.73864379855671e+001dB,-2.17350614118812e-004°)
1.72981635921508e-001	(6.73864379855668e+001dB,-2.17851659030729e-004°)
1.73380399775412e-001	(6.73864379855665e+001dB,-2.18353858970455e-004°)
1.73780082874935e-001	(6.73864379855662e+001dB,-2.18857216600606e-004°)
1.74180687339159e-001	(6.73864379855659e+001dB,-2.19361734589932e-004°)
1.74582215292048e-001	(6.73864379855656e+001dB,-2.19867415613338e-004°)
1.74984668862463e-001	(6.73864379855654e+001dB,-2.20374262351894e-004°)
1.75388050184174e-001	(6.73864379855651e+001dB,-2.20882277492852e-004°)
1.75792361395867e-001	(6.73864379855648e+001dB,-2.21391463729657e-004°)
1.76197604641161e-001	(6.73864379855645e+001dB,-2.21901823761964e-004°)
1.76603782068614e-001	(6.73864379855642e+001dB,-2.22413360295650e-004°)
1.77010895831740e-001	(6.73864379855638e+001dB,-2.22926076042832e-004°)
1.77418948089014e-001	(6.73864379855635e+001dB,-2.23439973721878e-004°)
1.77827941003890e-001	(6.73864379855632e+001dB,-2.23955056057422e-004°)
1.78237876744807e-001	(6.73864379855629e+001dB,-2.24471325780378e-004°)
1.78648757485203e-001	(6.73864379855626e+001dB,-2.24988785627958e-004°)
1.79060585403527e-001	(6.73864379855623e+001dB,-2.25507438343683e-004°)
1.79473362683250e-001	(6.73864379855620e+001dB,-2.26027286677397e-004°)
1.79887091512876e-001	(6.73864379855617e+001dB,-2.26548333385286e-004°)
1.80301774085954e-001	(6.73864379855614e+001dB,-2.27070581229885e-004°)
1.80717412601090e-001	(6.73864379855611e+001dB,-2.27594032980101e-004°)
1.81134009261958e-001	(6.73864379855607e+001dB,-2.28118691411224e-004°)
1.81551566277311e-001	(6.73864379855604e+001dB,-2.28644559304941e-004°)
1.81970085860996e-001	(6.73864379855601e+001dB,-2.29171639449350e-004°)
1.82389570231961e-001	(6.73864379855598e+001dB,-2.29699934638978e-004°)
1.82810021614272e-001	(6.73864379855595e+001dB,-2.30229447674793e-004°)
1.83231442237119e-001	(6.73864379855592e+001dB,-2.30760181364221e-004°)
1.83653834334832e-001	(6.73864379855588e+001dB,-2.31292138521159e-004°)
1.84077200146893e-001	(6.73864379855585e+001dB,-2.31825321965992e-004°)
1.84501541917945e-001	(6.73864379855582e+001dB,-2.32359734525604e-004°)
1.84926861897805e-001	(6.73864379855578e+001dB,-2.32895379033396e-004°)
1.85353162341479e-001	(6.73864379855575e+001dB,-2.33432258329306e-004°)
1.85780445509167e-001	(6.73864379855572e+001dB,-2.33970375259811e-004°)
1.86208713666284e-001	(6.73864379855568e+001dB,-2.34509732677954e-004°)
1.86637969083464e-001	(6.73864379855565e+001dB,-2.35050333443355e-004°)
1.87068214036577e-001	(6.73864379855562e+001dB,-2.35592180422226e-004°)
1.87499450806739e-001	(6.73864379855558e+001dB,-2.36135276487385e-004°)
1.87931681680324e-001	(6.73864379855555e+001dB,-2.36679624518273e-004°)
1.88364908948977e-001	(6.73864379855551e+001dB,-2.37225227400969e-004°)
1.88799134909627e-001	(6.73864379855548e+001dB,-2.37772088028207e-004°)
