Freq.	V(n008)
1.00000000000000e-001	(6.68923956860117e+001dB,-1.78361199299999e-002°)
1.00230523807790e-001	(6.68923956840695e+001dB,-1.78772364301597e-002°)
1.00461579027840e-001	(6.68923956821183e+001dB,-1.79184477136229e-002°)
1.00693166885180e-001	(6.68923956801585e+001dB,-1.79597539988882e-002°)
1.00925288607668e-001	(6.68923956781892e+001dB,-1.80011555049556e-002°)
1.01157945425990e-001	(6.68923956762107e+001dB,-1.80426524513321e-002°)
1.01391138573668e-001	(6.68923956742232e+001dB,-1.80842450580308e-002°)
1.01624869287070e-001	(6.68923956722266e+001dB,-1.81259335455712e-002°)
1.01859138805412e-001	(6.68923956702207e+001dB,-1.81677181349811e-002°)
1.02093948370768e-001	(6.68923956682056e+001dB,-1.82095990477983e-002°)
1.02329299228075e-001	(6.68923956661780e+001dB,-1.82515765060643e-002°)
1.02565192625141e-001	(6.68923956641442e+001dB,-1.82936507323525e-002°)
1.02801629812647e-001	(6.68923956621011e+001dB,-1.83358219497294e-002°)
1.03038612044162e-001	(6.68923956600485e+001dB,-1.83780903817824e-002°)
1.03276140576140e-001	(6.68923956579864e+001dB,-1.84204562526145e-002°)
1.03514216667934e-001	(6.68923956559148e+001dB,-1.84629197868450e-002°)
1.03752841581801e-001	(6.68923956538335e+001dB,-1.85054812096109e-002°)
1.03992016582906e-001	(6.68923956517428e+001dB,-1.85481407465689e-002°)
1.04231742939330e-001	(6.68923956496424e+001dB,-1.85908986238954e-002°)
1.04472021922080e-001	(6.68923956475323e+001dB,-1.86337550682880e-002°)
1.04712854805090e-001	(6.68923956454124e+001dB,-1.86767103069672e-002°)
1.04954242865232e-001	(6.68923956432827e+001dB,-1.87197645676769e-002°)
1.05196187382322e-001	(6.68923956411432e+001dB,-1.87629180786869e-002°)
1.05438689639126e-001	(6.68923956389939e+001dB,-1.88061710687923e-002°)
1.05681750921366e-001	(6.68923956368346e+001dB,-1.88495237673159e-002°)
1.05925372517729e-001	(6.68923956346654e+001dB,-1.88929764041094e-002°)
1.06169555719872e-001	(6.68923956324860e+001dB,-1.89365292095536e-002°)
1.06414301822431e-001	(6.68923956302968e+001dB,-1.89801824145617e-002°)
1.06659612123026e-001	(6.68923956280974e+001dB,-1.90239362505781e-002°)
1.06905487922266e-001	(6.68923956258878e+001dB,-1.90677909495811e-002°)
1.07151930523760e-001	(6.68923956236681e+001dB,-1.91117467440838e-002°)
1.07398941234124e-001	(6.68923956214379e+001dB,-1.91558038671347e-002°)
1.07646521362983e-001	(6.68923956191977e+001dB,-1.91999625523209e-002°)
1.07894672222983e-001	(6.68923956169470e+001dB,-1.92442230337668e-002°)
1.08143395129794e-001	(6.68923956146860e+001dB,-1.92885855461369e-002°)
1.08392691402120e-001	(6.68923956124146e+001dB,-1.93330503246365e-002°)
1.08642562361706e-001	(6.68923956101325e+001dB,-1.93776176050129e-002°)
1.08893009333343e-001	(6.68923956078400e+001dB,-1.94222876235578e-002°)
1.09144033644875e-001	(6.68923956055370e+001dB,-1.94670606171068e-002°)
1.09395636627209e-001	(6.68923956032233e+001dB,-1.95119368230415e-002°)
1.09647819614318e-001	(6.68923956008988e+001dB,-1.95569164792906e-002°)
1.09900583943252e-001	(6.68923955985637e+001dB,-1.96019998243322e-002°)
1.10153930954141e-001	(6.68923955962179e+001dB,-1.96471870971930e-002°)
1.10407861990207e-001	(6.68923955938612e+001dB,-1.96924785374514e-002°)
1.10662378397766e-001	(6.68923955914936e+001dB,-1.97378743852378e-002°)
1.10917481526240e-001	(6.68923955891149e+001dB,-1.97833748812359e-002°)
1.11173172728159e-001	(6.68923955867255e+001dB,-1.98289802666852e-002°)
1.11429453359173e-001	(6.68923955843250e+001dB,-1.98746907833804e-002°)
1.11686324778056e-001	(6.68923955819134e+001dB,-1.99205066736739e-002°)
1.11943788346715e-001	(6.68923955794905e+001dB,-1.99664281804764e-002°)
1.12201845430196e-001	(6.68923955770566e+001dB,-2.00124555472595e-002°)
1.12460497396692e-001	(6.68923955746115e+001dB,-2.00585890180553e-002°)
1.12719745617551e-001	(6.68923955721551e+001dB,-2.01048288374585e-002°)
1.12979591467279e-001	(6.68923955696873e+001dB,-2.01511752506278e-002°)
1.13240036323555e-001	(6.68923955672080e+001dB,-2.01976285032868e-002°)
1.13501081567231e-001	(6.68923955647148e+001dB,-2.02441888417203e-002°)
1.13762728582343e-001	(6.68923955622127e+001dB,-2.02908565127981e-002°)
1.14024978756117e-001	(6.68923955596991e+001dB,-2.03376317639412e-002°)
1.14287833478977e-001	(6.68923955571741e+001dB,-2.03845148431478e-002°)
1.14551294144553e-001	(6.68923955546372e+001dB,-2.04315059989858e-002°)
1.14815362149688e-001	(6.68923955520885e+001dB,-2.04786054805980e-002°)
1.15080038894443e-001	(6.68923955495282e+001dB,-2.05258135377009e-002°)
1.15345325782109e-001	(6.68923955469560e+001dB,-2.05731304205866e-002°)
1.15611224219209e-001	(6.68923955443718e+001dB,-2.06205563801241e-002°)
1.15877735615512e-001	(6.68923955417758e+001dB,-2.06680916677613e-002°)
1.16144861384034e-001	(6.68923955391678e+001dB,-2.07157365355251e-002°)
1.16412602941049e-001	(6.68923955365478e+001dB,-2.07634912360235e-002°)
1.16680961706096e-001	(6.68923955339156e+001dB,-2.08113560224467e-002°)
1.16949939101987e-001	(6.68923955312713e+001dB,-2.08593311485693e-002°)
1.17219536554813e-001	(6.68923955286149e+001dB,-2.09074168687501e-002°)
1.17489755493952e-001	(6.68923955259461e+001dB,-2.09556134379345e-002°)
1.17760597352080e-001	(6.68923955232650e+001dB,-2.10039211116553e-002°)
1.18032063565172e-001	(6.68923955205715e+001dB,-2.10523401460354e-002°)
1.18304155572516e-001	(6.68923955178657e+001dB,-2.11008707977871e-002°)
1.18576874816716e-001	(6.68923955151474e+001dB,-2.11495133242148e-002°)
1.18850222743701e-001	(6.68923955124163e+001dB,-2.11982679832157e-002°)
1.19124200802737e-001	(6.68923955096728e+001dB,-2.12471350332825e-002°)
1.19398810446427e-001	(6.68923955069167e+001dB,-2.12961147335029e-002°)
1.19674053130724e-001	(6.68923955041478e+001dB,-2.13452073435621e-002°)
1.19949930314937e-001	(6.68923955013660e+001dB,-2.13944131237435e-002°)
1.20226443461741e-001	(6.68923954985715e+001dB,-2.14437323349318e-002°)
1.20503594037179e-001	(6.68923954957641e+001dB,-2.14931652386118e-002°)
1.20781383510677e-001	(6.68923954929438e+001dB,-2.15427120968715e-002°)
1.21059813355048e-001	(6.68923954901103e+001dB,-2.15923731724029e-002°)
1.21338885046497e-001	(6.68923954872638e+001dB,-2.16421487285043e-002°)
1.21618600064636e-001	(6.68923954844042e+001dB,-2.16920390290803e-002°)
1.21898959892486e-001	(6.68923954815315e+001dB,-2.17420443386439e-002°)
1.22179966016487e-001	(6.68923954786453e+001dB,-2.17921649223176e-002°)
1.22461619926504e-001	(6.68923954757459e+001dB,-2.18424010458362e-002°)
1.22743923115840e-001	(6.68923954728332e+001dB,-2.18927529755459e-002°)
1.23026877081238e-001	(6.68923954699068e+001dB,-2.19432209784070e-002°)
1.23310483322890e-001	(6.68923954669671e+001dB,-2.19938053219962e-002°)
1.23594743344450e-001	(6.68923954640109e+001dB,-2.20445062744984e-002°)
1.23879658653036e-001	(6.68923954610440e+001dB,-2.20953241047399e-002°)
1.24165230759240e-001	(6.68923954580632e+001dB,-2.21462590821434e-002°)
1.24451461177138e-001	(6.68923954550689e+001dB,-2.21973114767616e-002°)
1.24738351424294e-001	(6.68923954520607e+001dB,-2.22484815592685e-002°)
1.25025903021771e-001	(6.68923954490387e+001dB,-2.22997696009624e-002°)
1.25314117494141e-001	(6.68923954460025e+001dB,-2.23511758737667e-002°)
1.25602996369487e-001	(6.68923954429525e+001dB,-2.24027006502328e-002°)
1.25892541179416e-001	(6.68923954398884e+001dB,-2.24543442035393e-002°)
1.26182753459066e-001	(6.68923954368104e+001dB,-2.25061068074953e-002°)
1.26473634747114e-001	(6.68923954337179e+001dB,-2.25579887365395e-002°)
1.26765186585784e-001	(6.68923954306112e+001dB,-2.26099902657449e-002°)
1.27057410520853e-001	(6.68923954274901e+001dB,-2.26621116708183e-002°)
1.27350308101665e-001	(6.68923954243545e+001dB,-2.27143532281013e-002°)
1.27643880881134e-001	(6.68923954212046e+001dB,-2.27667152145738e-002°)
1.27938130415752e-001	(6.68923954180401e+001dB,-2.28191979078533e-002°)
1.28233058265601e-001	(6.68923954148609e+001dB,-2.28718015861970e-002°)
1.28528665994361e-001	(6.68923954116671e+001dB,-2.29245265285047e-002°)
1.28824955169313e-001	(6.68923954084586e+001dB,-2.29773730143181e-002°)
1.29121927361353e-001	(6.68923954052351e+001dB,-2.30303413238233e-002°)
1.29419584144998e-001	(6.68923954019969e+001dB,-2.30834317378534e-002°)
1.29717927098395e-001	(6.68923953987438e+001dB,-2.31366445378877e-002°)
1.30016957803328e-001	(6.68923953954756e+001dB,-2.31899800060549e-002°)
1.30316677845229e-001	(6.68923953921922e+001dB,-2.32434384251334e-002°)
1.30617088813183e-001	(6.68923953888938e+001dB,-2.32970200785550e-002°)
1.30918192299940e-001	(6.68923953855802e+001dB,-2.33507252504035e-002°)
1.31219989901919e-001	(6.68923953822512e+001dB,-2.34045542254175e-002°)
1.31522483219223e-001	(6.68923953789069e+001dB,-2.34585072889934e-002°)
1.31825673855640e-001	(6.68923953755472e+001dB,-2.35125847271841e-002°)
1.32129563418657e-001	(6.68923953721718e+001dB,-2.35667868267021e-002°)
1.32434153519466e-001	(6.68923953687810e+001dB,-2.36211138749219e-002°)
1.32739445772973e-001	(6.68923953653745e+001dB,-2.36755661598792e-002°)
1.33045441797808e-001	(6.68923953619494e+001dB,-2.37301439702663e-002°)
1.33352143216331e-001	(6.68923953585112e+001dB,-2.37848475954646e-002°)
1.33659551654643e-001	(6.68923953550574e+001dB,-2.38396773254996e-002°)
1.33967668742593e-001	(6.68923953515876e+001dB,-2.38946334510723e-002°)
1.34276496113785e-001	(6.68923953481017e+001dB,-2.39497162635537e-002°)
1.34586035405594e-001	(6.68923953445998e+001dB,-2.40049260549879e-002°)
1.34896288259164e-001	(6.68923953410817e+001dB,-2.40602631180909e-002°)
1.35207256319427e-001	(6.68923953375473e+001dB,-2.41157277462534e-002°)
1.35518941235103e-001	(6.68923953339967e+001dB,-2.41713202335439e-002°)
1.35831344658714e-001	(6.68923953304297e+001dB,-2.42270408747071e-002°)
1.36144468246594e-001	(6.68923953268461e+001dB,-2.42828899651678e-002°)
1.36458313658891e-001	(6.68923953232460e+001dB,-2.43388678010325e-002°)
1.36772882559584e-001	(6.68923953196294e+001dB,-2.43949746790894e-002°)
1.37088176616484e-001	(6.68923953159960e+001dB,-2.44512108968107e-002°)
1.37404197501250e-001	(6.68923953123463e+001dB,-2.45075767523566e-002°)
1.37720946889394e-001	(6.68923953086793e+001dB,-2.45640725445703e-002°)
1.38038426460287e-001	(6.68923953049953e+001dB,-2.46206985729872e-002°)
1.38356637897177e-001	(6.68923953012945e+001dB,-2.46774551378331e-002°)
1.38675582887188e-001	(6.68923952975765e+001dB,-2.47343425400249e-002°)
1.38995263121334e-001	(6.68923952938413e+001dB,-2.47913610811731e-002°)
1.39315680294529e-001	(6.68923952900889e+001dB,-2.48485110635846e-002°)
1.39636836105593e-001	(6.68923952863193e+001dB,-2.49057927902622e-002°)
1.39958732257261e-001	(6.68923952825321e+001dB,-2.49632065649068e-002°)
1.40281370456195e-001	(6.68923952787275e+001dB,-2.50207526919211e-002°)
1.40604752412990e-001	(6.68923952749054e+001dB,-2.50784314764080e-002°)
1.40928879842186e-001	(6.68923952710655e+001dB,-2.51362432241738e-002°)
1.41253754462274e-001	(6.68923952672080e+001dB,-2.51941882417309e-002°)
1.41579377995707e-001	(6.68923952633326e+001dB,-2.52522668362969e-002°)
1.41905752168908e-001	(6.68923952594365e+001dB,-2.53104793157902e-002°)
1.42232878712281e-001	(6.68923952555253e+001dB,-2.53688259888641e-002°)
1.42560759360218e-001	(6.68923952515960e+001dB,-2.54273071648573e-002°)
1.42889395851109e-001	(6.68923952476487e+001dB,-2.54859231538315e-002°)
1.43218789927353e-001	(6.68923952436831e+001dB,-2.55446742665619e-002°)
1.43548943335364e-001	(6.68923952396991e+001dB,-2.56035608145402e-002°)
1.43879857825583e-001	(6.68923952356969e+001dB,-2.56625831099773e-002°)
1.44211535152486e-001	(6.68923952316762e+001dB,-2.57217414658027e-002°)
1.44543977074591e-001	(6.68923952276368e+001dB,-2.57810361956672e-002°)
1.44877185354475e-001	(6.68923952235789e+001dB,-2.58404676139457e-002°)
1.45211161758773e-001	(6.68923952195021e+001dB,-2.59000360357365e-002°)
1.45545908058195e-001	(6.68923952154066e+001dB,-2.59597417768657e-002°)
1.45881426027534e-001	(6.68923952112922e+001dB,-2.60195851538863e-002°)
1.46217717445671e-001	(6.68923952071587e+001dB,-2.60795664840809e-002°)
1.46554784095590e-001	(6.68923952030063e+001dB,-2.61396860854649e-002°)
1.46892627764385e-001	(6.68923951988347e+001dB,-2.61999442767855e-002°)
1.47231250243271e-001	(6.68923951946437e+001dB,-2.62603413775247e-002°)
1.47570653327588e-001	(6.68923951904339e+001dB,-2.63208777079033e-002°)
1.47910838816819e-001	(6.68923951862041e+001dB,-2.63815535888753e-002°)
1.48251808514594e-001	(6.68923951819549e+001dB,-2.64423693421395e-002°)
1.48593564228699e-001	(6.68923951776862e+001dB,-2.65033252901342e-002°)
1.48936107771090e-001	(6.68923951733975e+001dB,-2.65644217560407e-002°)
1.49279440957898e-001	(6.68923951690893e+001dB,-2.66256590637866e-002°)
1.49623565609442e-001	(6.68923951647610e+001dB,-2.66870375380446e-002°)
1.49968483550236e-001	(6.68923951604128e+001dB,-2.67485575042377e-002°)
1.50314196609001e-001	(6.68923951560417e+001dB,-2.68102192885283e-002°)
1.50660706618673e-001	(6.68923951516531e+001dB,-2.68720232178585e-002°)
1.51008015416413e-001	(6.68923951472445e+001dB,-2.69339696198976e-002°)
1.51356124843619e-001	(6.68923951428154e+001dB,-2.69960588230779e-002°)
1.51705036745932e-001	(6.68923951383660e+001dB,-2.70582911565904e-002°)
1.52054752973248e-001	(6.68923951338960e+001dB,-2.71206669503838e-002°)
1.52405275379728e-001	(6.68923951294053e+001dB,-2.71831865351672e-002°)
1.52756605823806e-001	(6.68923951248940e+001dB,-2.72458502424136e-002°)
1.53108746168202e-001	(6.68923951203617e+001dB,-2.73086584043582e-002°)
1.53461698279928e-001	(6.68923951158087e+001dB,-2.73716113540039e-002°)
1.53815464030302e-001	(6.68923951112346e+001dB,-2.74347094251200e-002°)
1.54170045294954e-001	(6.68923951066393e+001dB,-2.74979529522450e-002°)
1.54525443953840e-001	(6.68923951020229e+001dB,-2.75613422706902e-002°)
1.54881661891247e-001	(6.68923950973850e+001dB,-2.76248777165379e-002°)
1.55238700995807e-001	(6.68923950927259e+001dB,-2.76885596266469e-002°)
1.55596563160506e-001	(6.68923950880452e+001dB,-2.77523883386509e-002°)
1.55955250282694e-001	(6.68923950833429e+001dB,-2.78163641909636e-002°)
1.56314764264094e-001	(6.68923950786190e+001dB,-2.78804875227775e-002°)
1.56675107010813e-001	(6.68923950738731e+001dB,-2.79447586740672e-002°)
1.57036280433354e-001	(6.68923950691059e+001dB,-2.80091779855931e-002°)
1.57398286446620e-001	(6.68923950643161e+001dB,-2.80737457988963e-002°)
1.57761126969933e-001	(6.68923950595044e+001dB,-2.81384624563102e-002°)
1.58124803927037e-001	(6.68923950546669e+001dB,-2.82033283009437e-002°)
1.58489319246110e-001	(6.68923950498106e+001dB,-2.82683436767311e-002°)
1.58854674859776e-001	(6.68923950449318e+001dB,-2.83335089283648e-002°)
1.59220872705115e-001	(6.68923950400306e+001dB,-2.83988244013449e-002°)
1.59587914723672e-001	(6.68923950351068e+001dB,-2.84642904419664e-002°)
1.59955802861465e-001	(6.68923950301601e+001dB,-2.85299073973224e-002°)
1.60324539069002e-001	(6.68923950251907e+001dB,-2.85956756153079e-002°)
1.60694125301286e-001	(6.68923950201982e+001dB,-2.86615954446178e-002°)
1.61064563517825e-001	(6.68923950151828e+001dB,-2.87276672347526e-002°)
1.61435855682647e-001	(6.68923950101442e+001dB,-2.87938913360168e-002°)
1.61808003764305e-001	(6.68923950050824e+001dB,-2.88602680995242e-002°)
1.62181009735891e-001	(6.68923949999971e+001dB,-2.89267978771961e-002°)
1.62554875575047e-001	(6.68923949948885e+001dB,-2.89934810217671e-002°)
1.62929603263970e-001	(6.68923949897562e+001dB,-2.90603178867828e-002°)
1.63305194789432e-001	(6.68923949846003e+001dB,-2.91273088266059e-002°)
1.63681652142779e-001	(6.68923949794205e+001dB,-2.91944541964140e-002°)
1.64058977319952e-001	(6.68923949742169e+001dB,-2.92617543522053e-002°)
1.64437172321491e-001	(6.68923949689891e+001dB,-2.93292096507970e-002°)
1.64816239152549e-001	(6.68923949637374e+001dB,-2.93968204498304e-002°)
1.65196179822900e-001	(6.68923949584613e+001dB,-2.94645871077696e-002°)
1.65576996346951e-001	(6.68923949531583e+001dB,-2.95325099838981e-002°)
1.65958690743754e-001	(6.68923949478339e+001dB,-2.96005894383538e-002°)
1.66341265037015e-001	(6.68923949424844e+001dB,-2.96688258320746e-002°)
1.66724721255104e-001	(6.68923949371103e+001dB,-2.97372195268446e-002°)
1.67109061431069e-001	(6.68923949317113e+001dB,-2.98057708852786e-002°)
1.67494287602642e-001	(6.68923949262875e+001dB,-2.98744802708292e-002°)
1.67880401812254e-001	(6.68923949208386e+001dB,-2.99433480477850e-002°)
1.68267406107045e-001	(6.68923949153646e+001dB,-3.00123745812763e-002°)
1.68655302538872e-001	(6.68923949098652e+001dB,-3.00815602372731e-002°)
1.69044093164324e-001	(6.68923949043406e+001dB,-3.01509053825910e-002°)
1.69433780044731e-001	(6.68923948987903e+001dB,-3.02204103848894e-002°)
1.69824365246172e-001	(6.68923948932145e+001dB,-3.02900756126768e-002°)
1.70215850839493e-001	(6.68923948876129e+001dB,-3.03599014353098e-002°)
1.70608238900310e-001	(6.68923948819854e+001dB,-3.04298882229974e-002°)
1.71001531509027e-001	(6.68923948763321e+001dB,-3.05000363468024e-002°)
1.71395730750840e-001	(6.68923948706526e+001dB,-3.05703461786412e-002°)
1.71790838715757e-001	(6.68923948649470e+001dB,-3.06408180912898e-002°)
1.72186857498599e-001	(6.68923948592149e+001dB,-3.07114524583813e-002°)
1.72583789199018e-001	(6.68923948534535e+001dB,-3.07822496544017e-002°)
1.72981635921508e-001	(6.68923948476683e+001dB,-3.08532100547300e-002°)
1.73380399775412e-001	(6.68923948418566e+001dB,-3.09243340355807e-002°)
1.73780082874935e-001	(6.68923948360180e+001dB,-3.09956219740442e-002°)
1.74180687339159e-001	(6.68923948301525e+001dB,-3.10670742480822e-002°)
1.74582215292048e-001	(6.68923948242602e+001dB,-3.11386912365269e-002°)
1.74984668862463e-001	(6.68923948183404e+001dB,-3.12104733190820e-002°)
1.75388050184174e-001	(6.68923948123932e+001dB,-3.12824208763283e-002°)
1.75792361395867e-001	(6.68923948064187e+001dB,-3.13545342897247e-002°)
1.76197604641161e-001	(6.68923948004165e+001dB,-3.14268139416074e-002°)
1.76603782068614e-001	(6.68923947943865e+001dB,-3.14992602151956e-002°)
1.77010895831740e-001	(6.68923947883289e+001dB,-3.15718734945917e-002°)
1.77418948089014e-001	(6.68923947822432e+001dB,-3.16446541647822e-002°)
1.77827941003890e-001	(6.68923947761295e+001dB,-3.17176026116430e-002°)
1.78237876744807e-001	(6.68923947699874e+001dB,-3.17907192219375e-002°)
1.78648757485203e-001	(6.68923947638172e+001dB,-3.18640043833229e-002°)
1.79060585403527e-001	(6.68923947576183e+001dB,-3.19374584843478e-002°)
1.79473362683250e-001	(6.68923947513882e+001dB,-3.20110819144484e-002°)
1.79887091512876e-001	(6.68923947451321e+001dB,-3.20848750639876e-002°)
1.80301774085954e-001	(6.68923947388470e+001dB,-3.21588383241976e-002°)
1.80717412601090e-001	(6.68923947325330e+001dB,-3.22329720872245e-002°)
1.81134009261958e-001	(6.68923947261898e+001dB,-3.23072767461160e-002°)
1.81551566277311e-001	(6.68923947198174e+001dB,-3.23817526948280e-002°)
1.81970085860996e-001	(6.68923947134154e+001dB,-3.24564003282226e-002°)
1.82389570231961e-001	(6.68923947069843e+001dB,-3.25312200420749e-002°)
1.82810021614272e-001	(6.68923947005233e+001dB,-3.26062122330685e-002°)
1.83231442237119e-001	(6.68923946940322e+001dB,-3.26813772988036e-002°)
1.83653834334832e-001	(6.68923946875114e+001dB,-3.27567156377981e-002°)
1.84077200146893e-001	(6.68923946809603e+001dB,-3.28322276494862e-002°)
1.84501541917945e-001	(6.68923946743790e+001dB,-3.29079137342247e-002°)
1.84926861897805e-001	(6.68923946677675e+001dB,-3.29837742932929e-002°)
1.85353162341479e-001	(6.68923946611253e+001dB,-3.30598097288939e-002°)
1.85780445509167e-001	(6.68923946544526e+001dB,-3.31360204441601e-002°)
1.86208713666284e-001	(6.68923946477455e+001dB,-3.32124068431381e-002°)
1.86637969083464e-001	(6.68923946410109e+001dB,-3.32889693308460e-002°)
1.87068214036577e-001	(6.68923946342454e+001dB,-3.33657083131972e-002°)
1.87499450806739e-001	(6.68923946274485e+001dB,-3.34426241970519e-002°)
1.87931681680324e-001	(6.68923946206202e+001dB,-3.35197173902100e-002°)
1.88364908948977e-001	(6.68923946137605e+001dB,-3.35969883014113e-002°)
1.88799134909627e-001	(6.68923946068690e+001dB,-3.36744373403362e-002°)
