Freq.	V(n002)/-I(V4)
1.00000000000000e-001	(1.14391398343981e+002dB,-2.50959202618859e-003°)
1.00230523807790e-001	(1.14391398343942e+002dB,-2.51537723327992e-003°)
1.00461579027840e-001	(1.14391398343904e+002dB,-2.52117577665088e-003°)
1.00693166885180e-001	(1.14391398343865e+002dB,-2.52698768704479e-003°)
1.00925288607668e-001	(1.14391398343826e+002dB,-2.53281299527575e-003°)
1.01157945425990e-001	(1.14391398343787e+002dB,-2.53865173222902e-003°)
1.01391138573668e-001	(1.14391398343748e+002dB,-2.54450392886101e-003°)
1.01624869287070e-001	(1.14391398343708e+002dB,-2.55036961619946e-003°)
1.01859138805412e-001	(1.14391398343668e+002dB,-2.55624882534366e-003°)
1.02093948370768e-001	(1.14391398343628e+002dB,-2.56214158746462e-003°)
1.02329299228075e-001	(1.14391398343588e+002dB,-2.56804793380506e-003°)
1.02565192625141e-001	(1.14391398343548e+002dB,-2.57396789567998e-003°)
1.02801629812647e-001	(1.14391398343508e+002dB,-2.57990150447643e-003°)
1.03038612044162e-001	(1.14391398343467e+002dB,-2.58584879165370e-003°)
1.03276140576140e-001	(1.14391398343426e+002dB,-2.59180978874376e-003°)
1.03514216667934e-001	(1.14391398343385e+002dB,-2.59778452735130e-003°)
1.03752841581801e-001	(1.14391398343344e+002dB,-2.60377303915366e-003°)
1.03992016582906e-001	(1.14391398343302e+002dB,-2.60977535590146e-003°)
1.04231742939330e-001	(1.14391398343261e+002dB,-2.61579150941832e-003°)
1.04472021922080e-001	(1.14391398343219e+002dB,-2.62182153160124e-003°)
1.04712854805090e-001	(1.14391398343177e+002dB,-2.62786545442089e-003°)
1.04954242865232e-001	(1.14391398343135e+002dB,-2.63392330992150e-003°)
1.05196187382322e-001	(1.14391398343093e+002dB,-2.63999513022124e-003°)
1.05438689639126e-001	(1.14391398343050e+002dB,-2.64608094751227e-003°)
1.05681750921366e-001	(1.14391398343007e+002dB,-2.65218079406098e-003°)
1.05925372517729e-001	(1.14391398342964e+002dB,-2.65829470220813e-003°)
1.06169555719872e-001	(1.14391398342921e+002dB,-2.66442270436916e-003°)
1.06414301822431e-001	(1.14391398342878e+002dB,-2.67056483303401e-003°)
1.06659612123026e-001	(1.14391398342834e+002dB,-2.67672112076762e-003°)
1.06905487922266e-001	(1.14391398342790e+002dB,-2.68289160021018e-003°)
1.07151930523760e-001	(1.14391398342747e+002dB,-2.68907630407675e-003°)
1.07398941234124e-001	(1.14391398342702e+002dB,-2.69527526515816e-003°)
1.07646521362983e-001	(1.14391398342658e+002dB,-2.70148851632066e-003°)
1.07894672222983e-001	(1.14391398342613e+002dB,-2.70771609050620e-003°)
1.08143395129794e-001	(1.14391398342569e+002dB,-2.71395802073286e-003°)
1.08392691402120e-001	(1.14391398342524e+002dB,-2.72021434009471e-003°)
1.08642562361706e-001	(1.14391398342479e+002dB,-2.72648508176209e-003°)
1.08893009333343e-001	(1.14391398342433e+002dB,-2.73277027898187e-003°)
1.09144033644875e-001	(1.14391398342388e+002dB,-2.73906996507755e-003°)
1.09395636627209e-001	(1.14391398342342e+002dB,-2.74538417344941e-003°)
1.09647819614318e-001	(1.14391398342296e+002dB,-2.75171293757486e-003°)
1.09900583943252e-001	(1.14391398342249e+002dB,-2.75805629100818e-003°)
1.10153930954141e-001	(1.14391398342203e+002dB,-2.76441426738138e-003°)
1.10407861990207e-001	(1.14391398342156e+002dB,-2.77078690040372e-003°)
1.10662378397766e-001	(1.14391398342109e+002dB,-2.77717422386227e-003°)
1.10917481526240e-001	(1.14391398342062e+002dB,-2.78357627162201e-003°)
1.11173172728159e-001	(1.14391398342015e+002dB,-2.78999307762598e-003°)
1.11429453359173e-001	(1.14391398341968e+002dB,-2.79642467589538e-003°)
1.11686324778056e-001	(1.14391398341920e+002dB,-2.80287110052997e-003°)
1.11943788346715e-001	(1.14391398341872e+002dB,-2.80933238570805e-003°)
1.12201845430196e-001	(1.14391398341824e+002dB,-2.81580856568659e-003°)
1.12460497396692e-001	(1.14391398341775e+002dB,-2.82229967480185e-003°)
1.12719745617551e-001	(1.14391398341727e+002dB,-2.82880574746888e-003°)
1.12979591467279e-001	(1.14391398341678e+002dB,-2.83532681818226e-003°)
1.13240036323555e-001	(1.14391398341629e+002dB,-2.84186292151614e-003°)
1.13501081567231e-001	(1.14391398341579e+002dB,-2.84841409212422e-003°)
1.13762728582343e-001	(1.14391398341530e+002dB,-2.85498036474015e-003°)
1.14024978756117e-001	(1.14391398341480e+002dB,-2.86156177417767e-003°)
1.14287833478977e-001	(1.14391398341430e+002dB,-2.86815835533076e-003°)
1.14551294144553e-001	(1.14391398341380e+002dB,-2.87477014317385e-003°)
1.14815362149688e-001	(1.14391398341329e+002dB,-2.88139717276194e-003°)
1.15080038894443e-001	(1.14391398341279e+002dB,-2.88803947923093e-003°)
1.15345325782109e-001	(1.14391398341228e+002dB,-2.89469709779768e-003°)
1.15611224219209e-001	(1.14391398341176e+002dB,-2.90137006376007e-003°)
1.15877735615512e-001	(1.14391398341125e+002dB,-2.90805841249770e-003°)
1.16144861384034e-001	(1.14391398341073e+002dB,-2.91476217947141e-003°)
1.16412602941049e-001	(1.14391398341022e+002dB,-2.92148140022389e-003°)
1.16680961706096e-001	(1.14391398340969e+002dB,-2.92821611037982e-003°)
1.16949939101987e-001	(1.14391398340917e+002dB,-2.93496634564603e-003°)
1.17219536554813e-001	(1.14391398340864e+002dB,-2.94173214181147e-003°)
1.17489755493952e-001	(1.14391398340812e+002dB,-2.94851353474780e-003°)
1.17760597352080e-001	(1.14391398340759e+002dB,-2.95531056040928e-003°)
1.18032063565172e-001	(1.14391398340705e+002dB,-2.96212325483304e-003°)
1.18304155572516e-001	(1.14391398340652e+002dB,-2.96895165413933e-003°)
1.18576874816716e-001	(1.14391398340598e+002dB,-2.97579579453156e-003°)
1.18850222743701e-001	(1.14391398340544e+002dB,-2.98265571229685e-003°)
1.19124200802737e-001	(1.14391398340489e+002dB,-2.98953144380561e-003°)
1.19398810446427e-001	(1.14391398340435e+002dB,-2.99642302551240e-003°)
1.19674053130724e-001	(1.14391398340380e+002dB,-3.00333049395568e-003°)
1.19949930314937e-001	(1.14391398340325e+002dB,-3.01025388575815e-003°)
1.20226443461741e-001	(1.14391398340270e+002dB,-3.01719323762695e-003°)
1.20503594037179e-001	(1.14391398340214e+002dB,-3.02414858635382e-003°)
1.20781383510677e-001	(1.14391398340158e+002dB,-3.03111996881529e-003°)
1.21059813355048e-001	(1.14391398340102e+002dB,-3.03810742197305e-003°)
1.21338885046497e-001	(1.14391398340046e+002dB,-3.04511098287375e-003°)
1.21618600064636e-001	(1.14391398339989e+002dB,-3.05213068864962e-003°)
1.21898959892486e-001	(1.14391398339932e+002dB,-3.05916657651852e-003°)
1.22179966016487e-001	(1.14391398339875e+002dB,-3.06621868378384e-003°)
1.22461619926504e-001	(1.14391398339818e+002dB,-3.07328704783533e-003°)
1.22743923115840e-001	(1.14391398339760e+002dB,-3.08037170614870e-003°)
1.23026877081238e-001	(1.14391398339702e+002dB,-3.08747269628605e-003°)
1.23310483322890e-001	(1.14391398339644e+002dB,-3.09459005589620e-003°)
1.23594743344450e-001	(1.14391398339585e+002dB,-3.10172382271463e-003°)
1.23879658653036e-001	(1.14391398339527e+002dB,-3.10887403456387e-003°)
1.24165230759240e-001	(1.14391398339468e+002dB,-3.11604072935366e-003°)
1.24451461177138e-001	(1.14391398339408e+002dB,-3.12322394508100e-003°)
1.24738351424294e-001	(1.14391398339349e+002dB,-3.13042371983074e-003°)
1.25025903021771e-001	(1.14391398339289e+002dB,-3.13764009177524e-003°)
1.25314117494141e-001	(1.14391398339229e+002dB,-3.14487309917506e-003°)
1.25602996369487e-001	(1.14391398339168e+002dB,-3.15212278037878e-003°)
1.25892541179416e-001	(1.14391398339108e+002dB,-3.15938917382365e-003°)
1.26182753459066e-001	(1.14391398339047e+002dB,-3.16667231803523e-003°)
1.26473634747114e-001	(1.14391398338985e+002dB,-3.17397225162810e-003°)
1.26765186585784e-001	(1.14391398338924e+002dB,-3.18128901330574e-003°)
1.27057410520853e-001	(1.14391398338862e+002dB,-3.18862264186089e-003°)
1.27350308101665e-001	(1.14391398338800e+002dB,-3.19597317617574e-003°)
1.27643880881134e-001	(1.14391398338738e+002dB,-3.20334065522208e-003°)
1.27938130415752e-001	(1.14391398338675e+002dB,-3.21072511806151e-003°)
1.28233058265601e-001	(1.14391398338612e+002dB,-3.21812660384586e-003°)
1.28528665994361e-001	(1.14391398338549e+002dB,-3.22554515181685e-003°)
1.28824955169313e-001	(1.14391398338485e+002dB,-3.23298080130704e-003°)
1.29121927361353e-001	(1.14391398338421e+002dB,-3.24043359173950e-003°)
1.29419584144998e-001	(1.14391398338357e+002dB,-3.24790356262809e-003°)
1.29717927098395e-001	(1.14391398338293e+002dB,-3.25539075357795e-003°)
1.30016957803328e-001	(1.14391398338228e+002dB,-3.26289520428525e-003°)
1.30316677845229e-001	(1.14391398338163e+002dB,-3.27041695453807e-003°)
1.30617088813183e-001	(1.14391398338098e+002dB,-3.27795604421585e-003°)
1.30918192299940e-001	(1.14391398338032e+002dB,-3.28551251329016e-003°)
1.31219989901919e-001	(1.14391398337966e+002dB,-3.29308640182455e-003°)
1.31522483219223e-001	(1.14391398337900e+002dB,-3.30067774997510e-003°)
1.31825673855640e-001	(1.14391398337834e+002dB,-3.30828659799036e-003°)
1.32129563418657e-001	(1.14391398337767e+002dB,-3.31591298621160e-003°)
1.32434153519466e-001	(1.14391398337700e+002dB,-3.32355695507334e-003°)
1.32739445772973e-001	(1.14391398337632e+002dB,-3.33121854510301e-003°)
1.33045441797808e-001	(1.14391398337564e+002dB,-3.33889779692162e-003°)
1.33352143216331e-001	(1.14391398337496e+002dB,-3.34659475124381e-003°)
1.33659551654643e-001	(1.14391398337428e+002dB,-3.35430944887806e-003°)
1.33967668742593e-001	(1.14391398337359e+002dB,-3.36204193072696e-003°)
1.34276496113785e-001	(1.14391398337290e+002dB,-3.36979223778731e-003°)
1.34586035405594e-001	(1.14391398337221e+002dB,-3.37756041115050e-003°)
1.34896288259164e-001	(1.14391398337151e+002dB,-3.38534649200260e-003°)
1.35207256319427e-001	(1.14391398337081e+002dB,-3.39315052162462e-003°)
1.35518941235103e-001	(1.14391398337011e+002dB,-3.40097254139279e-003°)
1.35831344658714e-001	(1.14391398336940e+002dB,-3.40881259277863e-003°)
1.36144468246594e-001	(1.14391398336869e+002dB,-3.41667071734932e-003°)
1.36458313658891e-001	(1.14391398336798e+002dB,-3.42454695676786e-003°)
1.36772882559584e-001	(1.14391398336726e+002dB,-3.43244135279331e-003°)
1.37088176616484e-001	(1.14391398336655e+002dB,-3.44035394728095e-003°)
1.37404197501250e-001	(1.14391398336582e+002dB,-3.44828478218256e-003°)
1.37720946889394e-001	(1.14391398336510e+002dB,-3.45623389954665e-003°)
1.38038426460287e-001	(1.14391398336437e+002dB,-3.46420134151861e-003°)
1.38356637897177e-001	(1.14391398336363e+002dB,-3.47218715034105e-003°)
1.38675582887188e-001	(1.14391398336290e+002dB,-3.48019136835392e-003°)
1.38995263121334e-001	(1.14391398336216e+002dB,-3.48821403799485e-003°)
1.39315680294529e-001	(1.14391398336142e+002dB,-3.49625520179924e-003°)
1.39636836105593e-001	(1.14391398336067e+002dB,-3.50431490240039e-003°)
1.39958732257261e-001	(1.14391398335992e+002dB,-3.51239318253012e-003°)
1.40281370456195e-001	(1.14391398335917e+002dB,-3.52049008501873e-003°)
1.40604752412990e-001	(1.14391398335841e+002dB,-3.52860565279502e-003°)
1.40928879842186e-001	(1.14391398335765e+002dB,-3.53673992888715e-003°)
1.41253754462274e-001	(1.14391398335688e+002dB,-3.54489295642209e-003°)
1.41579377995707e-001	(1.14391398335612e+002dB,-3.55306477862636e-003°)
1.41905752168908e-001	(1.14391398335535e+002dB,-3.56125543882630e-003°)
1.42232878712281e-001	(1.14391398335457e+002dB,-3.56946498044774e-003°)
1.42560759360218e-001	(1.14391398335379e+002dB,-3.57769344701707e-003°)
1.42889395851109e-001	(1.14391398335301e+002dB,-3.58594088216070e-003°)
1.43218789927353e-001	(1.14391398335223e+002dB,-3.59420732960569e-003°)
1.43548943335364e-001	(1.14391398335144e+002dB,-3.60249283317992e-003°)
1.43879857825583e-001	(1.14391398335065e+002dB,-3.61079743681238e-003°)
1.44211535152486e-001	(1.14391398334985e+002dB,-3.61912118453316e-003°)
1.44543977074591e-001	(1.14391398334905e+002dB,-3.62746412047412e-003°)
1.44877185354475e-001	(1.14391398334825e+002dB,-3.63582628886841e-003°)
1.45211161758773e-001	(1.14391398334744e+002dB,-3.64420773405160e-003°)
1.45545908058195e-001	(1.14391398334663e+002dB,-3.65260850046116e-003°)
1.45881426027534e-001	(1.14391398334581e+002dB,-3.66102863263718e-003°)
1.46217717445671e-001	(1.14391398334500e+002dB,-3.66946817522237e-003°)
1.46554784095590e-001	(1.14391398334417e+002dB,-3.67792717296237e-003°)
1.46892627764385e-001	(1.14391398334335e+002dB,-3.68640567070585e-003°)
1.47231250243271e-001	(1.14391398334252e+002dB,-3.69490371340504e-003°)
1.47570653327588e-001	(1.14391398334168e+002dB,-3.70342134611565e-003°)
1.47910838816819e-001	(1.14391398334085e+002dB,-3.71195861399738e-003°)
1.48251808514594e-001	(1.14391398334000e+002dB,-3.72051556231394e-003°)
1.48593564228699e-001	(1.14391398333916e+002dB,-3.72909223643341e-003°)
1.48936107771090e-001	(1.14391398333831e+002dB,-3.73768868182853e-003°)
1.49279440957898e-001	(1.14391398333746e+002dB,-3.74630494407671e-003°)
1.49623565609442e-001	(1.14391398333660e+002dB,-3.75494106886049e-003°)
1.49968483550236e-001	(1.14391398333574e+002dB,-3.76359710196781e-003°)
1.50314196609001e-001	(1.14391398333487e+002dB,-3.77227308929211e-003°)
1.50660706618673e-001	(1.14391398333401e+002dB,-3.78096907683253e-003°)
1.51008015416413e-001	(1.14391398333313e+002dB,-3.78968511069447e-003°)
1.51356124843619e-001	(1.14391398333226e+002dB,-3.79842123708933e-003°)
1.51705036745932e-001	(1.14391398333137e+002dB,-3.80717750233525e-003°)
1.52054752973248e-001	(1.14391398333049e+002dB,-3.81595395285702e-003°)
1.52405275379728e-001	(1.14391398332960e+002dB,-3.82475063518658e-003°)
1.52756605823806e-001	(1.14391398332871e+002dB,-3.83356759596298e-003°)
1.53108746168202e-001	(1.14391398332781e+002dB,-3.84240488193299e-003°)
1.53461698279928e-001	(1.14391398332691e+002dB,-3.85126253995086e-003°)
1.53815464030302e-001	(1.14391398332600e+002dB,-3.86014061697915e-003°)
1.54170045294954e-001	(1.14391398332509e+002dB,-3.86903916008842e-003°)
1.54525443953840e-001	(1.14391398332418e+002dB,-3.87795821645793e-003°)
1.54881661891247e-001	(1.14391398332326e+002dB,-3.88689783337561e-003°)
1.55238700995807e-001	(1.14391398332234e+002dB,-3.89585805823845e-003°)
1.55596563160506e-001	(1.14391398332141e+002dB,-3.90483893855263e-003°)
1.55955250282694e-001	(1.14391398332048e+002dB,-3.91384052193391e-003°)
1.56314764264094e-001	(1.14391398331954e+002dB,-3.92286285610772e-003°)
1.56675107010813e-001	(1.14391398331860e+002dB,-3.93190598890970e-003°)
1.57036280433354e-001	(1.14391398331766e+002dB,-3.94096996828557e-003°)
1.57398286446620e-001	(1.14391398331671e+002dB,-3.95005484229153e-003°)
1.57761126969933e-001	(1.14391398331576e+002dB,-3.95916065909482e-003°)
1.58124803927037e-001	(1.14391398331480e+002dB,-3.96828746697357e-003°)
1.58489319246110e-001	(1.14391398331384e+002dB,-3.97743531431713e-003°)
1.58854674859776e-001	(1.14391398331287e+002dB,-3.98660424962654e-003°)
1.59220872705115e-001	(1.14391398331190e+002dB,-3.99579432151452e-003°)
1.59587914723672e-001	(1.14391398331093e+002dB,-4.00500557870600e-003°)
1.59955802861465e-001	(1.14391398330995e+002dB,-4.01423807003806e-003°)
1.60324539069002e-001	(1.14391398330897e+002dB,-4.02349184446050e-003°)
1.60694125301286e-001	(1.14391398330798e+002dB,-4.03276695103587e-003°)
1.61064563517825e-001	(1.14391398330698e+002dB,-4.04206343893995e-003°)
1.61435855682647e-001	(1.14391398330599e+002dB,-4.05138135746166e-003°)
1.61808003764305e-001	(1.14391398330498e+002dB,-4.06072075600378e-003°)
1.62181009735891e-001	(1.14391398330398e+002dB,-4.07008168408282e-003°)
1.62554875575047e-001	(1.14391398330297e+002dB,-4.07946419132944e-003°)
1.62929603263970e-001	(1.14391398330195e+002dB,-4.08886832748882e-003°)
1.63305194789432e-001	(1.14391398330093e+002dB,-4.09829414242077e-003°)
1.63681652142779e-001	(1.14391398329990e+002dB,-4.10774168610001e-003°)
1.64058977319952e-001	(1.14391398329887e+002dB,-4.11721100861645e-003°)
1.64437172321491e-001	(1.14391398329784e+002dB,-4.12670216017541e-003°)
1.64816239152549e-001	(1.14391398329680e+002dB,-4.13621519109817e-003°)
1.65196179822900e-001	(1.14391398329575e+002dB,-4.14575015182191e-003°)
1.65576996346951e-001	(1.14391398329470e+002dB,-4.15530709289985e-003°)
1.65958690743754e-001	(1.14391398329365e+002dB,-4.16488606500209e-003°)
1.66341265037015e-001	(1.14391398329259e+002dB,-4.17448711891533e-003°)
1.66724721255104e-001	(1.14391398329152e+002dB,-4.18411030554342e-003°)
1.67109061431069e-001	(1.14391398329046e+002dB,-4.19375567590750e-003°)
1.67494287602642e-001	(1.14391398328938e+002dB,-4.20342328114638e-003°)
1.67880401812254e-001	(1.14391398328830e+002dB,-4.21311317251671e-003°)
1.68267406107045e-001	(1.14391398328722e+002dB,-4.22282540139336e-003°)
1.68655302538872e-001	(1.14391398328613e+002dB,-4.23256001926964e-003°)
1.69044093164324e-001	(1.14391398328504e+002dB,-4.24231707775746e-003°)
1.69433780044731e-001	(1.14391398328394e+002dB,-4.25209662858780e-003°)
1.69824365246172e-001	(1.14391398328283e+002dB,-4.26189872361081e-003°)
1.70215850839493e-001	(1.14391398328172e+002dB,-4.27172341479627e-003°)
1.70608238900310e-001	(1.14391398328061e+002dB,-4.28157075423368e-003°)
1.71001531509027e-001	(1.14391398327949e+002dB,-4.29144079413275e-003°)
1.71395730750840e-001	(1.14391398327837e+002dB,-4.30133358682336e-003°)
1.71790838715757e-001	(1.14391398327724e+002dB,-4.31124918475604e-003°)
1.72186857498599e-001	(1.14391398327610e+002dB,-4.32118764050243e-003°)
1.72583789199018e-001	(1.14391398327496e+002dB,-4.33114900675522e-003°)
1.72981635921508e-001	(1.14391398327382e+002dB,-4.34113333632849e-003°)
1.73380399775412e-001	(1.14391398327266e+002dB,-4.35114068215823e-003°)
1.73780082874935e-001	(1.14391398327151e+002dB,-4.36117109730235e-003°)
1.74180687339159e-001	(1.14391398327035e+002dB,-4.37122463494112e-003°)
1.74582215292048e-001	(1.14391398326918e+002dB,-4.38130134837745e-003°)
1.74984668862463e-001	(1.14391398326801e+002dB,-4.39140129103691e-003°)
1.75388050184174e-001	(1.14391398326683e+002dB,-4.40152451646862e-003°)
1.75792361395867e-001	(1.14391398326565e+002dB,-4.41167107834477e-003°)
1.76197604641161e-001	(1.14391398326446e+002dB,-4.42184103046143e-003°)
1.76603782068614e-001	(1.14391398326327e+002dB,-4.43203442673875e-003°)
1.77010895831740e-001	(1.14391398326207e+002dB,-4.44225132122093e-003°)
1.77418948089014e-001	(1.14391398326086e+002dB,-4.45249176807705e-003°)
1.77827941003890e-001	(1.14391398325965e+002dB,-4.46275582160085e-003°)
1.78237876744807e-001	(1.14391398325843e+002dB,-4.47304353621144e-003°)
1.78648757485203e-001	(1.14391398325721e+002dB,-4.48335496645321e-003°)
1.79060585403527e-001	(1.14391398325598e+002dB,-4.49369016699630e-003°)
1.79473362683250e-001	(1.14391398325475e+002dB,-4.50404919263696e-003°)
1.79887091512876e-001	(1.14391398325351e+002dB,-4.51443209829766e-003°)
1.80301774085954e-001	(1.14391398325227e+002dB,-4.52483893902751e-003°)
1.80717412601090e-001	(1.14391398325102e+002dB,-4.53526977000260e-003°)
1.81134009261958e-001	(1.14391398324976e+002dB,-4.54572464652618e-003°)
1.81551566277311e-001	(1.14391398324850e+002dB,-4.55620362402888e-003°)
1.81970085860996e-001	(1.14391398324723e+002dB,-4.56670675806920e-003°)
1.82389570231961e-001	(1.14391398324596e+002dB,-4.57723410433380e-003°)
1.82810021614272e-001	(1.14391398324468e+002dB,-4.58778571863760e-003°)
1.83231442237119e-001	(1.14391398324339e+002dB,-4.59836165692411e-003°)
1.83653834334832e-001	(1.14391398324210e+002dB,-4.60896197526597e-003°)
1.84077200146893e-001	(1.14391398324081e+002dB,-4.61958672986491e-003°)
1.84501541917945e-001	(1.14391398323950e+002dB,-4.63023597705250e-003°)
1.84926861897805e-001	(1.14391398323819e+002dB,-4.64090977328986e-003°)
1.85353162341479e-001	(1.14391398323688e+002dB,-4.65160817516836e-003°)
1.85780445509167e-001	(1.14391398323556e+002dB,-4.66233123941005e-003°)
1.86208713666284e-001	(1.14391398323423e+002dB,-4.67307902286724e-003°)
1.86637969083464e-001	(1.14391398323290e+002dB,-4.68385158252389e-003°)
1.87068214036577e-001	(1.14391398323156e+002dB,-4.69464897549488e-003°)
1.87499450806739e-001	(1.14391398323021e+002dB,-4.70547125902699e-003°)
1.87931681680324e-001	(1.14391398322886e+002dB,-4.71631849049884e-003°)
1.88364908948977e-001	(1.14391398322750e+002dB,-4.72719072742136e-003°)
1.88799134909627e-001	(1.14391398322614e+002dB,-4.73808802743808e-003°)
