time	V(vin)	V(vout)
0.000000000000000e+000	2.000000e+001	2.027858e+000
9.999999439624929e-011	2.109091e+001	2.422432e+000
1.099999994396249e-009	2.200000e+001	2.298210e+000
2.099999994396249e-009	2.200000e+001	2.088773e+000
3.099999994396250e-009	2.200000e+001	2.054576e+000
4.099999994396250e-009	2.200000e+001	2.042828e+000
5.099999994396249e-009	2.200000e+001	2.036609e+000
6.099999994396249e-009	2.200000e+001	2.032971e+000
7.099999994396249e-009	2.200000e+001	2.030819e+000
8.099999994396250e-009	2.200000e+001	2.029555e+000
9.099999994396251e-009	2.200000e+001	2.028819e+000
1.009999999439625e-008	2.200000e+001	2.028396e+000
1.109999999439625e-008	2.200000e+001	2.028155e+000
1.209999999439625e-008	2.200000e+001	2.028021e+000
1.309999999439625e-008	2.200000e+001	2.027947e+000
1.409999999439625e-008	2.200000e+001	2.027904e+000
1.417497576223535e-008	2.200000e+001	2.027902e+000
1.432492729791355e-008	2.200000e+001	2.027897e+000
1.436241518183310e-008	2.200000e+001	2.027896e+000
1.443739094967220e-008	2.200000e+001	2.027894e+000
1.458734248535040e-008	2.200000e+001	2.027891e+000
1.488724555670680e-008	2.200000e+001	2.027886e+000
1.548705169941959e-008	2.200000e+001	2.027879e+000
1.668666398484518e-008	2.200000e+001	2.027875e+000
1.822161309465113e-008	2.200000e+001	2.027876e+000
2.013199984491206e-008	2.200000e+001	2.027881e+000
2.264724577518237e-008	2.200000e+001	2.027888e+000
2.691822134227377e-008	2.199999e+001	2.027900e+000
3.546017247645658e-008	2.199999e+001	2.027925e+000
4.563281327840448e-008	2.199999e+001	2.027955e+000
5.767590581417513e-008	2.199999e+001	2.027986e+000
7.217123362747551e-008	2.199998e+001	2.028017e+000
8.630484699933765e-008	2.199998e+001	2.028040e+000
1.019062154763089e-007	2.199998e+001	2.028061e+000
1.181147646726227e-007	2.199998e+001	2.028078e+000
1.373849215821134e-007	2.199997e+001	2.028093e+000
1.540910944246989e-007	2.199997e+001	2.028104e+000
1.694805874443912e-007	2.199997e+001	2.028112e+000
1.869156287208146e-007	2.199996e+001	2.028119e+000
2.041729861783323e-007	2.199996e+001	2.028125e+000
2.282380457601435e-007	2.199995e+001	2.028132e+000
2.576081662668610e-007	2.199995e+001	2.028139e+000
2.817040045755895e-007	2.199994e+001	2.028143e+000
3.062949617660671e-007	2.199994e+001	2.028147e+000
3.322012324669473e-007	2.199993e+001	2.028150e+000
3.637580037587210e-007	2.199993e+001	2.028153e+000
4.079745426982641e-007	2.199992e+001	2.028157e+000
4.567009514958435e-007	2.199991e+001	2.028162e+000
5.166193346390369e-007	2.199990e+001	2.028166e+000
5.774224443631774e-007	2.199988e+001	2.028171e+000
6.990286638114584e-007	2.199986e+001	2.028179e+000
8.353204014776962e-007	2.199983e+001	2.028188e+000
1.073709297274452e-006	2.199978e+001	2.028205e+000
1.330112660236940e-006	2.199973e+001	2.028224e+000
1.789951934253759e-006	2.199964e+001	2.028258e+000
2.275037605054046e-006	2.199954e+001	2.028296e+000
2.855473756681355e-006	2.199943e+001	2.028342e+000
3.876170445909314e-006	2.199923e+001	2.028424e+000
5.034106516890686e-006	2.199899e+001	2.028517e+000
6.224738194770490e-006	2.199875e+001	2.028611e+000
8.031955404709575e-006	2.199839e+001	2.028742e+000
1.058814905046942e-005	2.199788e+001	2.028894e+000
1.464796568251645e-005	2.199707e+001	2.029077e+000
1.813082664879423e-005	2.199637e+001	2.029194e+000
2.231454973922653e-005	2.199554e+001	2.029315e+000
2.610980550218948e-005	2.199478e+001	2.029426e+000
2.932103386242355e-005	2.199413e+001	2.029516e+000
3.373687944375019e-005	2.199325e+001	2.029614e+000
3.844435388771639e-005	2.199231e+001	2.029676e+000
4.354302301135947e-005	2.199129e+001	2.029703e+000
4.814766373163875e-005	2.199037e+001	2.029712e+000
5.318616930167551e-005	2.198936e+001	2.029725e+000
5.722078483186077e-005	2.198856e+001	2.029736e+000
6.256574379591804e-005	2.198749e+001	2.029739e+000
6.804632728288101e-005	2.198639e+001	2.029723e+000
7.484853482159164e-005	2.198503e+001	2.029689e+000
8.097458708534789e-005	2.198380e+001	2.029661e+000
8.642288380152320e-005	2.198272e+001	2.029642e+000
9.308617189323066e-005	2.198138e+001	2.029616e+000
1.005067239069279e-004	2.197990e+001	2.029580e+000
1.075825585017961e-004	2.197848e+001	2.029550e+000
1.159574110598861e-004	2.197681e+001	2.029528e+000
1.236756518261051e-004	2.197527e+001	2.029514e+000
1.316639660557488e-004	2.197367e+001	2.029501e+000
1.413526883007193e-004	2.197173e+001	2.029493e+000
1.508337715460138e-004	2.196983e+001	2.029497e+000
1.608337715460138e-004	2.196783e+001	2.029503e+000
1.708337715460138e-004	2.196583e+001	2.029506e+000
1.803600569459514e-004	2.196393e+001	2.029514e+000
1.903600569459514e-004	2.196193e+001	2.029522e+000
2.003600569459514e-004	2.195993e+001	2.029523e+000
2.103600569459514e-004	2.195793e+001	2.029523e+000
2.203600569459514e-004	2.195593e+001	2.029525e+000
2.303600569459514e-004	2.195393e+001	2.029523e+000
2.403600569459514e-004	2.195193e+001	2.029518e+000
2.503600569459515e-004	2.194993e+001	2.029516e+000
2.603600569459515e-004	2.194793e+001	2.029514e+000
2.703600569459515e-004	2.194593e+001	2.029510e+000
2.803600569459515e-004	2.194393e+001	2.029507e+000
2.903600569459516e-004	2.194193e+001	2.029506e+000
3.003600569459516e-004	2.193993e+001	2.029503e+000
3.103600569459516e-004	2.193793e+001	2.029500e+000
3.203600569459517e-004	2.193593e+001	2.029500e+000
3.303600569459517e-004	2.193393e+001	2.029499e+000
3.403600569459517e-004	2.193193e+001	2.029497e+000
3.503600569459517e-004	2.192993e+001	2.029495e+000
3.603600569459518e-004	2.192793e+001	2.029495e+000
3.703600569459518e-004	2.192593e+001	2.029493e+000
3.803600569459518e-004	2.192393e+001	2.029491e+000
3.903600569459518e-004	2.192193e+001	2.029490e+000
4.003600569459519e-004	2.191993e+001	2.029488e+000
4.103600569459519e-004	2.191793e+001	2.029486e+000
4.203600569459519e-004	2.191593e+001	2.029484e+000
4.303600569459519e-004	2.191393e+001	2.029483e+000
4.403600569459520e-004	2.191193e+001	2.029481e+000
4.503600569459520e-004	2.190993e+001	2.029479e+000
4.603600569459520e-004	2.190793e+001	2.029478e+000
4.703600569459520e-004	2.190593e+001	2.029476e+000
4.803600569459521e-004	2.190393e+001	2.029474e+000
4.903600569459521e-004	2.190193e+001	2.029473e+000
5.003600569459521e-004	2.189993e+001	2.029471e+000
5.103600569459521e-004	2.189793e+001	2.029469e+000
5.203600569459522e-004	2.189593e+001	2.029467e+000
5.303600569459522e-004	2.189393e+001	2.029466e+000
5.403600569459522e-004	2.189193e+001	2.029464e+000
5.503600569459523e-004	2.188993e+001	2.029462e+000
5.603600569459523e-004	2.188793e+001	2.029461e+000
5.703600569459523e-004	2.188593e+001	2.029459e+000
5.803600569459523e-004	2.188393e+001	2.029457e+000
5.903600569459524e-004	2.188193e+001	2.029456e+000
6.003600569459524e-004	2.187993e+001	2.029454e+000
6.103600569459524e-004	2.187793e+001	2.029453e+000
6.203600569459524e-004	2.187593e+001	2.029451e+000
6.303600569459525e-004	2.187393e+001	2.029449e+000
6.403600569459525e-004	2.187193e+001	2.029448e+000
6.503600569459525e-004	2.186993e+001	2.029446e+000
6.603600569459525e-004	2.186793e+001	2.029444e+000
6.703600569459526e-004	2.186593e+001	2.029443e+000
6.803600569459526e-004	2.186393e+001	2.029441e+000
6.903600569459526e-004	2.186193e+001	2.029439e+000
7.003600569459526e-004	2.185993e+001	2.029438e+000
7.103600569459527e-004	2.185793e+001	2.029436e+000
7.203600569459527e-004	2.185593e+001	2.029434e+000
7.303600569459527e-004	2.185393e+001	2.029432e+000
7.403600569459528e-004	2.185193e+001	2.029431e+000
7.503600569459528e-004	2.184993e+001	2.029429e+000
7.603600569459528e-004	2.184793e+001	2.029427e+000
7.703600569459528e-004	2.184593e+001	2.029426e+000
7.803600569459529e-004	2.184393e+001	2.029424e+000
7.903600569459529e-004	2.184193e+001	2.029422e+000
8.003600569459529e-004	2.183993e+001	2.029421e+000
8.103600569459529e-004	2.183793e+001	2.029419e+000
8.203600569459530e-004	2.183593e+001	2.029417e+000
8.303600569459530e-004	2.183393e+001	2.029416e+000
8.403600569459530e-004	2.183193e+001	2.029414e+000
8.503600569459530e-004	2.182993e+001	2.029412e+000
8.603600569459531e-004	2.182793e+001	2.029411e+000
8.703600569459531e-004	2.182593e+001	2.029409e+000
8.803600569459531e-004	2.182393e+001	2.029407e+000
8.903600569459531e-004	2.182193e+001	2.029406e+000
9.003600569459532e-004	2.181993e+001	2.029404e+000
9.103600569459532e-004	2.181793e+001	2.029402e+000
9.203600569459532e-004	2.181593e+001	2.029401e+000
9.303600569459533e-004	2.181393e+001	2.029399e+000
9.403600569459533e-004	2.181193e+001	2.029397e+000
9.503600569459533e-004	2.180993e+001	2.029396e+000
9.603600569459533e-004	2.180793e+001	2.029394e+000
9.703600569459534e-004	2.180593e+001	2.029392e+000
9.803600569459534e-004	2.180393e+001	2.029391e+000
9.903600569459534e-004	2.180193e+001	2.029389e+000
1.000360056945953e-003	2.179993e+001	2.029387e+000
1.010360056945954e-003	2.179793e+001	2.029386e+000
1.020360056945954e-003	2.179593e+001	2.029384e+000
1.030360056945954e-003	2.179393e+001	2.029382e+000
1.040360056945954e-003	2.179193e+001	2.029380e+000
1.050360056945954e-003	2.178993e+001	2.029379e+000
1.060360056945954e-003	2.178793e+001	2.029377e+000
1.070360056945954e-003	2.178593e+001	2.029375e+000
1.080360056945954e-003	2.178393e+001	2.029374e+000
1.090360056945954e-003	2.178193e+001	2.029372e+000
1.100360056945954e-003	2.177993e+001	2.029370e+000
1.110360056945954e-003	2.177793e+001	2.029369e+000
1.120360056945954e-003	2.177593e+001	2.029367e+000
1.130360056945954e-003	2.177393e+001	2.029365e+000
1.140360056945954e-003	2.177193e+001	2.029364e+000
1.150360056945954e-003	2.176993e+001	2.029362e+000
1.160360056945954e-003	2.176793e+001	2.029360e+000
1.170360056945954e-003	2.176593e+001	2.029359e+000
1.180360056945954e-003	2.176393e+001	2.029357e+000
1.190360056945954e-003	2.176193e+001	2.029355e+000
1.200360056945954e-003	2.175993e+001	2.029354e+000
1.210360056945954e-003	2.175793e+001	2.029352e+000
1.220360056945954e-003	2.175593e+001	2.029350e+000
1.230360056945954e-003	2.175393e+001	2.029349e+000
1.240360056945954e-003	2.175193e+001	2.029347e+000
1.250360056945954e-003	2.174993e+001	2.029345e+000
1.260360056945954e-003	2.174793e+001	2.029344e+000
1.270360056945954e-003	2.174593e+001	2.029342e+000
1.280360056945954e-003	2.174393e+001	2.029340e+000
1.290360056945954e-003	2.174193e+001	2.029338e+000
1.300360056945954e-003	2.173993e+001	2.029337e+000
1.310360056945954e-003	2.173793e+001	2.029335e+000
1.320360056945954e-003	2.173593e+001	2.029333e+000
1.330360056945954e-003	2.173393e+001	2.029332e+000
1.340360056945954e-003	2.173193e+001	2.029330e+000
1.350360056945954e-003	2.172993e+001	2.029328e+000
1.360360056945954e-003	2.172793e+001	2.029327e+000
1.370360056945954e-003	2.172593e+001	2.029325e+000
1.380360056945954e-003	2.172393e+001	2.029323e+000
1.390360056945955e-003	2.172193e+001	2.029322e+000
1.400360056945955e-003	2.171993e+001	2.029320e+000
1.410360056945955e-003	2.171793e+001	2.029318e+000
1.420360056945955e-003	2.171593e+001	2.029317e+000
1.430360056945955e-003	2.171393e+001	2.029315e+000
1.440360056945955e-003	2.171193e+001	2.029313e+000
1.450360056945955e-003	2.170993e+001	2.029312e+000
1.460360056945955e-003	2.170793e+001	2.029310e+000
1.470360056945955e-003	2.170593e+001	2.029308e+000
1.480360056945955e-003	2.170393e+001	2.029307e+000
1.490360056945955e-003	2.170193e+001	2.029305e+000
1.500360056945955e-003	2.169993e+001	2.029303e+000
1.510360056945955e-003	2.169793e+001	2.029302e+000
1.520360056945955e-003	2.169593e+001	2.029300e+000
1.530360056945955e-003	2.169393e+001	2.029298e+000
1.540360056945955e-003	2.169193e+001	2.029296e+000
1.550360056945955e-003	2.168993e+001	2.029295e+000
1.560360056945955e-003	2.168793e+001	2.029293e+000
1.570360056945955e-003	2.168593e+001	2.029291e+000
1.580360056945955e-003	2.168393e+001	2.029290e+000
1.590360056945955e-003	2.168193e+001	2.029288e+000
1.600360056945955e-003	2.167993e+001	2.029286e+000
1.610360056945955e-003	2.167793e+001	2.029285e+000
1.630360056945955e-003	2.167393e+001	2.029281e+000
1.640360056945955e-003	2.167193e+001	2.029280e+000
1.650360056945955e-003	2.166993e+001	2.029278e+000
1.660360056945955e-003	2.166793e+001	2.029276e+000
1.670360056945955e-003	2.166593e+001	2.029275e+000
1.680360056945955e-003	2.166393e+001	2.029273e+000
1.690360056945955e-003	2.166193e+001	2.029271e+000
1.700360056945955e-003	2.165993e+001	2.029270e+000
1.710360056945955e-003	2.165793e+001	2.029268e+000
1.720360056945955e-003	2.165593e+001	2.029266e+000
1.730360056945955e-003	2.165393e+001	2.029265e+000
1.750360056945955e-003	2.164993e+001	2.029261e+000
1.760360056945955e-003	2.164793e+001	2.029259e+000
1.770360056945955e-003	2.164593e+001	2.029258e+000
1.780360056945956e-003	2.164393e+001	2.029256e+000
1.790360056945956e-003	2.164193e+001	2.029254e+000
1.800360056945956e-003	2.163993e+001	2.029253e+000
1.810360056945956e-003	2.163793e+001	2.029251e+000
1.820360056945956e-003	2.163593e+001	2.029249e+000
1.830360056945956e-003	2.163393e+001	2.029248e+000
1.840360056945956e-003	2.163193e+001	2.029246e+000
1.850360056945956e-003	2.162993e+001	2.029244e+000
1.870360056945956e-003	2.162593e+001	2.029241e+000
1.880360056945956e-003	2.162393e+001	2.029239e+000
1.890360056945956e-003	2.162193e+001	2.029238e+000
1.900360056945956e-003	2.161993e+001	2.029236e+000
1.910360056945956e-003	2.161793e+001	2.029234e+000
1.920360056945956e-003	2.161593e+001	2.029233e+000
1.930360056945956e-003	2.161393e+001	2.029231e+000
1.940360056945956e-003	2.161193e+001	2.029229e+000
1.950360056945956e-003	2.160993e+001	2.029228e+000
1.960360056945956e-003	2.160793e+001	2.029226e+000
1.970360056945956e-003	2.160593e+001	2.029224e+000
1.990360056945956e-003	2.160193e+001	2.029221e+000
2.000360056945956e-003	2.159993e+001	2.029219e+000
2.010360056945956e-003	2.159793e+001	2.029217e+000
2.020360056945956e-003	2.159593e+001	2.029216e+000
2.040360056945956e-003	2.159193e+001	2.029212e+000
2.050360056945956e-003	2.158993e+001	2.029211e+000
2.060360056945956e-003	2.158793e+001	2.029209e+000
2.070360056945956e-003	2.158593e+001	2.029207e+000
2.080360056945956e-003	2.158393e+001	2.029206e+000
2.090360056945956e-003	2.158193e+001	2.029204e+000
2.110360056945956e-003	2.157793e+001	2.029201e+000
2.120360056945956e-003	2.157593e+001	2.029199e+000
2.130360056945956e-003	2.157393e+001	2.029197e+000
2.140360056945956e-003	2.157193e+001	2.029196e+000
2.160360056945956e-003	2.156793e+001	2.029192e+000
2.180360056945956e-003	2.156393e+001	2.029189e+000
2.190360056945956e-003	2.156193e+001	2.029187e+000
2.210360056945956e-003	2.155793e+001	2.029184e+000
2.230360056945956e-003	2.155393e+001	2.029181e+000
2.250360056945957e-003	2.154993e+001	2.029177e+000
2.260360056945957e-003	2.154793e+001	2.029176e+000
2.280360056945957e-003	2.154393e+001	2.029172e+000
2.300360056945957e-003	2.153993e+001	2.029169e+000
2.320360056945957e-003	2.153593e+001	2.029166e+000
9.530360056945733e-003	2.009393e+001	2.027940e+000
9.990360056945714e-003	2.000193e+001	2.027861e+000
1.000000000000000e-002	2.077892e+001	2.028091e+000
1.000273600752810e-002	2.171397e+001	2.028245e+000
1.000382916645794e-002	2.199923e+001	2.028324e+000
1.000423118632842e-002	2.199915e+001	2.028355e+000
1.000438424022175e-002	2.199912e+001	2.028362e+000
1.000444224608682e-002	2.199911e+001	2.028379e+000
1.000446436411676e-002	2.199911e+001	2.028359e+000
1.000447286923666e-002	2.199911e+001	2.028384e+000
1.000447620625264e-002	2.199911e+001	2.028374e+000
1.000447782755248e-002	2.199910e+001	2.028378e+000
1.000447867420518e-002	2.199910e+001	2.028376e+000
1.000447950975640e-002	2.199910e+001	2.028371e+000
1.000448042278921e-002	2.199910e+001	2.028373e+000
1.000448098689801e-002	2.199910e+001	2.028373e+000
1.000448142893716e-002	2.199910e+001	2.028374e+000
1.000448179960813e-002	2.199910e+001	2.028373e+000
1.000448218478403e-002	2.199910e+001	2.028374e+000
1.000448258841346e-002	2.199910e+001	2.028374e+000
1.000448314157334e-002	2.199910e+001	2.028374e+000
1.000448401291635e-002	2.199910e+001	2.028374e+000
1.000448561599603e-002	2.199910e+001	2.028374e+000
1.000448882215539e-002	2.199910e+001	2.028375e+000
1.000449523447411e-002	2.199910e+001	2.028375e+000
1.000450805911156e-002	2.199910e+001	2.028376e+000
1.000453370838644e-002	2.199909e+001	2.028378e+000
1.000458500693621e-002	2.199908e+001	2.028382e+000
1.000465019506557e-002	2.199907e+001	2.028387e+000
1.000473443253608e-002	2.199905e+001	2.028394e+000
1.000486054863177e-002	2.199903e+001	2.028404e+000
1.000499716876998e-002	2.199900e+001	2.028415e+000
1.000527040904639e-002	2.199895e+001	2.028437e+000
1.000561018510025e-002	2.199888e+001	2.028464e+000
1.000628973720797e-002	2.199874e+001	2.028519e+000
1.000760100671554e-002	2.199848e+001	2.028621e+000
1.000908716548900e-002	2.199818e+001	2.028728e+000
1.001178510998404e-002	2.199764e+001	2.028893e+000
1.001534632909059e-002	2.199693e+001	2.029058e+000
1.002018959760484e-002	2.199596e+001	2.029223e+000
1.002509718823926e-002	2.199498e+001	2.029364e+000
1.003021622734817e-002	2.199396e+001	2.029504e+000
1.003418775956326e-002	2.199316e+001	2.029596e+000
1.003885881248054e-002	2.199223e+001	2.029668e+000
1.004381286456877e-002	2.199124e+001	2.029702e+000
1.004991804482405e-002	2.199002e+001	2.029717e+000
1.005558814481487e-002	2.198888e+001	2.029727e+000
1.006013034462605e-002	2.198797e+001	2.029735e+000
1.006611981194651e-002	2.198678e+001	2.029732e+000
1.007311505331054e-002	2.198538e+001	2.029706e+000
1.007945121213848e-002	2.198411e+001	2.029674e+000
1.008662079944551e-002	2.198268e+001	2.029643e+000
1.009219216386264e-002	2.198156e+001	2.029623e+000
1.009882255636378e-002	2.198024e+001	2.029595e+000
1.010508273386573e-002	2.197898e+001	2.029565e+000
1.011264944473353e-002	2.197747e+001	2.029537e+000
1.012007829247894e-002	2.197598e+001	2.029521e+000
1.012843562157676e-002	2.197431e+001	2.029508e+000
1.013661486646840e-002	2.197268e+001	2.029496e+000
1.014525111999354e-002	2.197095e+001	2.029492e+000
1.015525111999354e-002	2.196895e+001	2.029499e+000
1.016444089625305e-002	2.196711e+001	2.029504e+000
1.017444089625305e-002	2.196511e+001	2.029508e+000
1.018382113818238e-002	2.196324e+001	2.029515e+000
1.019382113818238e-002	2.196124e+001	2.029522e+000
1.020382113818238e-002	2.195924e+001	2.029523e+000
1.021382113818238e-002	2.195724e+001	2.029523e+000
1.022382113818238e-002	2.195524e+001	2.029525e+000
1.023382113818238e-002	2.195324e+001	2.029522e+000
1.024382113818238e-002	2.195124e+001	2.029517e+000
1.025382113818238e-002	2.194924e+001	2.029515e+000
1.026382113818238e-002	2.194724e+001	2.029513e+000
1.027382113818238e-002	2.194524e+001	2.029509e+000
1.028382113818238e-002	2.194324e+001	2.029506e+000
1.029382113818238e-002	2.194124e+001	2.029505e+000
1.030382113818238e-002	2.193924e+001	2.029503e+000
1.031382113818237e-002	2.193723e+001	2.029500e+000
1.032382113818237e-002	2.193524e+001	2.029500e+000
1.033382113818237e-002	2.193324e+001	2.029499e+000
1.034382113818237e-002	2.193124e+001	2.029496e+000
1.035382113818237e-002	2.192924e+001	2.029495e+000
1.036382113818237e-002	2.192724e+001	2.029495e+000
1.037382113818237e-002	2.192524e+001	2.029492e+000
1.038382113818237e-002	2.192323e+001	2.029490e+000
1.039382113818237e-002	2.192124e+001	2.029489e+000
1.040382113818237e-002	2.191924e+001	2.029488e+000
1.041382113818237e-002	2.191724e+001	2.029485e+000
1.042382113818237e-002	2.191524e+001	2.029484e+000
1.043382113818237e-002	2.191324e+001	2.029482e+000
1.044382113818237e-002	2.191124e+001	2.029480e+000
1.045382113818237e-002	2.190924e+001	2.029478e+000
1.046382113818237e-002	2.190724e+001	2.029477e+000
1.047382113818237e-002	2.190524e+001	2.029475e+000
1.048382113818237e-002	2.190324e+001	2.029473e+000
1.049382113818237e-002	2.190124e+001	2.029472e+000
1.050382113818237e-002	2.189924e+001	2.029470e+000
1.051382113818237e-002	2.189724e+001	2.029469e+000
1.052382113818237e-002	2.189524e+001	2.029467e+000
1.053382113818237e-002	2.189324e+001	2.029465e+000
1.054382113818237e-002	2.189124e+001	2.029464e+000
1.055382113818237e-002	2.188924e+001	2.029462e+000
1.056382113818236e-002	2.188724e+001	2.029460e+000
