Freq.	V(n003)/-I(V2)
1.00000000000000e-001	(1.06311504078593e+002dB,-1.08659455118715e-003°)
1.00230523807790e-001	(1.06311504078586e+002dB,-1.08909941032119e-003°)
1.00461579027840e-001	(1.06311504078579e+002dB,-1.09161004375187e-003°)
1.00693166885180e-001	(1.06311504078521e+002dB,-1.09412646478406e-003°)
1.00925288607668e-001	(1.06311504078514e+002dB,-1.09664868677211e-003°)
1.01157945425990e-001	(1.06311504078507e+002dB,-1.09917672308230e-003°)
1.01391138573668e-001	(1.06311504078499e+002dB,-1.10171058711807e-003°)
1.01624869287070e-001	(1.06311504078492e+002dB,-1.10425029231371e-003°)
1.01859138805412e-001	(1.06311504078485e+002dB,-1.10679585213444e-003°)
1.02093948370768e-001	(1.06311504078502e+002dB,-1.10934728007980e-003°)
1.02329299228075e-001	(1.06311504078495e+002dB,-1.11190458967080e-003°)
1.02565192625141e-001	(1.06311504078487e+002dB,-1.11446779446927e-003°)
1.02801629812647e-001	(1.06311504078479e+002dB,-1.11703690806502e-003°)
1.03038612044162e-001	(1.06311504078472e+002dB,-1.11961194407925e-003°)
1.03276140576140e-001	(1.06311504078464e+002dB,-1.12219291616456e-003°)
1.03514216667934e-001	(1.06311504078456e+002dB,-1.12477983800498e-003°)
1.03752841581801e-001	(1.06311504078449e+002dB,-1.12737272331615e-003°)
1.03992016582906e-001	(1.06311504078441e+002dB,-1.12997158584523e-003°)
1.04231742939330e-001	(1.06311504078433e+002dB,-1.13257643937120e-003°)
1.04472021922080e-001	(1.06311504078425e+002dB,-1.13518729770468e-003°)
1.04712854805090e-001	(1.06311504078418e+002dB,-1.13780417468823e-003°)
1.04954242865232e-001	(1.06311504078435e+002dB,-1.14042708419947e-003°)
1.05196187382322e-001	(1.06311504078427e+002dB,-1.14305604013837e-003°)
1.05438689639126e-001	(1.06311504078419e+002dB,-1.14569105644656e-003°)
1.05681750921366e-001	(1.06311504078411e+002dB,-1.14833214709467e-003°)
1.05925372517729e-001	(1.06311504078403e+002dB,-1.15097932608553e-003°)
1.06169555719872e-001	(1.06311504078394e+002dB,-1.15363260745418e-003°)
1.06414301822431e-001	(1.06311504078337e+002dB,-1.15629200526144e-003°)
1.06659612123026e-001	(1.06311504078328e+002dB,-1.15895753362040e-003°)
1.06905487922266e-001	(1.06311504078320e+002dB,-1.16162920665684e-003°)
1.07151930523760e-001	(1.06311504078312e+002dB,-1.16430703853570e-003°)
1.07398941234124e-001	(1.06311504078304e+002dB,-1.16699104345456e-003°)
1.07646521362983e-001	(1.06311504078295e+002dB,-1.16968123564375e-003°)
1.07894672222983e-001	(1.06311504078312e+002dB,-1.17237762936979e-003°)
1.08143395129794e-001	(1.06311504078304e+002dB,-1.17508023892191e-003°)
1.08392691402120e-001	(1.06311504078295e+002dB,-1.17778907863251e-003°)
1.08642562361706e-001	(1.06311504078287e+002dB,-1.18050416286354e-003°)
1.08893009333343e-001	(1.06311504078278e+002dB,-1.18322550601012e-003°)
1.09144033644875e-001	(1.06311504078270e+002dB,-1.18595312250053e-003°)
1.09395636627209e-001	(1.06311504078261e+002dB,-1.18868702679636e-003°)
1.09647819614318e-001	(1.06311504078252e+002dB,-1.19142723339243e-003°)
1.09900583943252e-001	(1.06311504078244e+002dB,-1.19417375681711e-003°)
1.10153930954141e-001	(1.06311504078235e+002dB,-1.19692661163218e-003°)
1.10407861990207e-001	(1.06311504078226e+002dB,-1.19968581243293e-003°)
1.10662378397766e-001	(1.06311504078242e+002dB,-1.20245137385189e-003°)
1.10917481526240e-001	(1.06311504078234e+002dB,-1.20522331054493e-003°)
1.11173172728159e-001	(1.06311504078225e+002dB,-1.20800163721194e-003°)
1.11429453359173e-001	(1.06311504078216e+002dB,-1.21078636858338e-003°)
1.11686324778056e-001	(1.06311504078207e+002dB,-1.21357751942361e-003°)
1.11943788346715e-001	(1.06311504078173e+002dB,-1.21637510452752e-003°)
1.12201845430196e-001	(1.06311504078164e+002dB,-1.21917913873466e-003°)
1.12460497396692e-001	(1.06311504078155e+002dB,-1.22198963690819e-003°)
1.12719745617551e-001	(1.06311504078146e+002dB,-1.22480661394914e-003°)
1.12979591467279e-001	(1.06311504078137e+002dB,-1.22763008479282e-003°)
1.13240036323555e-001	(1.06311504078152e+002dB,-1.23046006441252e-003°)
1.13501081567231e-001	(1.06311504078143e+002dB,-1.23329656780547e-003°)
1.13762728582343e-001	(1.06311504078134e+002dB,-1.23613961001403e-003°)
1.14024978756117e-001	(1.06311504078124e+002dB,-1.23898920611175e-003°)
1.14287833478977e-001	(1.06311504078115e+002dB,-1.24184537120691e-003°)
1.14551294144553e-001	(1.06311504078106e+002dB,-1.24470812044258e-003°)
1.14815362149688e-001	(1.06311504078096e+002dB,-1.24757746899678e-003°)
1.15080038894443e-001	(1.06311504078087e+002dB,-1.25045343208255e-003°)
1.15345325782109e-001	(1.06311504078077e+002dB,-1.25333602494790e-003°)
1.15611224219209e-001	(1.06311504078068e+002dB,-1.25622526287608e-003°)
1.15877735615512e-001	(1.06311504078058e+002dB,-1.25912116118556e-003°)
1.16144861384034e-001	(1.06311504078073e+002dB,-1.26202373523371e-003°)
1.16412602941049e-001	(1.06311504078064e+002dB,-1.26493300040241e-003°)
1.16680961706096e-001	(1.06311504078054e+002dB,-1.26784897212000e-003°)
1.16949939101987e-001	(1.06311504078044e+002dB,-1.27077166584661e-003°)
1.17219536554813e-001	(1.06311504078034e+002dB,-1.27370109707806e-003°)
1.17489755493952e-001	(1.06311504078024e+002dB,-1.27663728134593e-003°)
1.17760597352080e-001	(1.06311504078014e+002dB,-1.27958023421759e-003°)
1.18032063565172e-001	(1.06311504078004e+002dB,-1.28252997129626e-003°)
1.18304155572516e-001	(1.06311504077994e+002dB,-1.28548650822115e-003°)
1.18576874816716e-001	(1.06311504078009e+002dB,-1.28844986067123e-003°)
1.18850222743701e-001	(1.06311504077999e+002dB,-1.29142004435050e-003°)
1.19124200802737e-001	(1.06311504077989e+002dB,-1.29439707501030e-003°)
1.19398810446427e-001	(1.06311504077979e+002dB,-1.29738096843449e-003°)
1.19674053130724e-001	(1.06311504077968e+002dB,-1.30037174044345e-003°)
1.19949930314937e-001	(1.06311504077958e+002dB,-1.30336940689393e-003°)
1.20226443461741e-001	(1.06311504077948e+002dB,-1.30637398367923e-003°)
1.20503594037179e-001	(1.06311504077937e+002dB,-1.30938548672935e-003°)
1.20781383510677e-001	(1.06311504077927e+002dB,-1.31240393201093e-003°)
1.21059813355048e-001	(1.06311504077916e+002dB,-1.31542933552753e-003°)
1.21338885046497e-001	(1.06311504077906e+002dB,-1.31846171331952e-003°)
1.21618600064636e-001	(1.06311504077895e+002dB,-1.32150108146422e-003°)
1.21898959892486e-001	(1.06311504077884e+002dB,-1.32454745607611e-003°)
1.22179966016487e-001	(1.06311504077849e+002dB,-1.32760085330296e-003°)
1.22461619926504e-001	(1.06311504077838e+002dB,-1.33066128934115e-003°)
1.22743923115840e-001	(1.06311504077827e+002dB,-1.33372878041301e-003°)
1.23026877081238e-001	(1.06311504077816e+002dB,-1.33680334278209e-003°)
1.23310483322890e-001	(1.06311504077805e+002dB,-1.33988499274942e-003°)
1.23594743344450e-001	(1.06311504077819e+002dB,-1.34297374665744e-003°)
1.23879658653036e-001	(1.06311504077808e+002dB,-1.34606962087471e-003°)
1.24165230759240e-001	(1.06311504077797e+002dB,-1.34917263181913e-003°)
1.24451461177138e-001	(1.06311504077786e+002dB,-1.35228279594249e-003°)
1.24738351424294e-001	(1.06311504077775e+002dB,-1.35540012973465e-003°)
1.25025903021771e-001	(1.06311504077764e+002dB,-1.35852464972331e-003°)
1.25314117494141e-001	(1.06311504077753e+002dB,-1.36165637247446e-003°)
1.25602996369487e-001	(1.06311504077741e+002dB,-1.36479531459211e-003°)
1.25892541179416e-001	(1.06311504077730e+002dB,-1.36794149271865e-003°)
1.26182753459066e-001	(1.06311504077718e+002dB,-1.37109492353481e-003°)
1.26473634747114e-001	(1.06311504077707e+002dB,-1.37425562375974e-003°)
1.26765186585784e-001	(1.06311504077671e+002dB,-1.37742361014726e-003°)
1.27057410520853e-001	(1.06311504077659e+002dB,-1.38059889950152e-003°)
1.27350308101665e-001	(1.06311504077647e+002dB,-1.38378150865373e-003°)
1.27643880881134e-001	(1.06311504077636e+002dB,-1.38697145447774e-003°)
1.27938130415752e-001	(1.06311504077624e+002dB,-1.39016875388631e-003°)
1.28233058265601e-001	(1.06311504077612e+002dB,-1.39337342383122e-003°)
1.28528665994361e-001	(1.06311504077625e+002dB,-1.39658548130727e-003°)
1.28824955169313e-001	(1.06311504077613e+002dB,-1.39980494333658e-003°)
1.29121927361353e-001	(1.06311504077601e+002dB,-1.40303182699230e-003°)
1.29419584144998e-001	(1.06311504077589e+002dB,-1.40626614938309e-003°)
1.29717927098395e-001	(1.06311504077577e+002dB,-1.40950792765701e-003°)
1.30016957803328e-001	(1.06311504077565e+002dB,-1.41275717900162e-003°)
1.30316677845229e-001	(1.06311504077553e+002dB,-1.41601392064417e-003°)
1.30617088813183e-001	(1.06311504077541e+002dB,-1.41927816985154e-003°)
1.30918192299940e-001	(1.06311504077528e+002dB,-1.42254994393049e-003°)
1.31219989901919e-001	(1.06311504077516e+002dB,-1.42582926022760e-003°)
1.31522483219223e-001	(1.06311504077504e+002dB,-1.42911613612949e-003°)
1.31825673855640e-001	(1.06311504077491e+002dB,-1.43241058906286e-003°)
1.32129563418657e-001	(1.06311504077479e+002dB,-1.43571263649458e-003°)
1.32434153519466e-001	(1.06311504077466e+002dB,-1.43902229593177e-003°)
1.32739445772973e-001	(1.06311504077453e+002dB,-1.44233958492188e-003°)
1.33045441797808e-001	(1.06311504077466e+002dB,-1.44566452105706e-003°)
1.33352143216331e-001	(1.06311504077453e+002dB,-1.44899712195744e-003°)
1.33659551654643e-001	(1.06311504077440e+002dB,-1.45233740529633e-003°)
1.33967668742593e-001	(1.06311504077427e+002dB,-1.45568538878353e-003°)
1.34276496113785e-001	(1.06311504077414e+002dB,-1.45904109016976e-003°)
1.34586035405594e-001	(1.06311504077401e+002dB,-1.46240452724657e-003°)
1.34896288259164e-001	(1.06311504077388e+002dB,-1.46577571784661e-003°)
1.35207256319427e-001	(1.06311504077400e+002dB,-1.46915467984777e-003°)
1.35518941235103e-001	(1.06311504077387e+002dB,-1.47254143115661e-003°)
1.35831344658714e-001	(1.06311504077349e+002dB,-1.47593598972926e-003°)
1.36144468246594e-001	(1.06311504077335e+002dB,-1.47933837357180e-003°)
1.36458313658891e-001	(1.06311504077322e+002dB,-1.48274860071915e-003°)
1.36772882559584e-001	(1.06311504077309e+002dB,-1.48616668925194e-003°)
1.37088176616484e-001	(1.06311504077295e+002dB,-1.48959265729259e-003°)
1.37404197501250e-001	(1.06311504077307e+002dB,-1.49302652300947e-003°)
1.37720946889394e-001	(1.06311504077293e+002dB,-1.49646830460005e-003°)
1.38038426460287e-001	(1.06311504077279e+002dB,-1.49991802031661e-003°)
1.38356637897177e-001	(1.06311504077266e+002dB,-1.50337568844917e-003°)
1.38675582887188e-001	(1.06311504077252e+002dB,-1.50684132733000e-003°)
1.38995263121334e-001	(1.06311504077238e+002dB,-1.51031495533351e-003°)
1.39315680294529e-001	(1.06311504077224e+002dB,-1.51379659087655e-003°)
1.39636836105593e-001	(1.06311504077235e+002dB,-1.51728625242278e-003°)
1.39958732257261e-001	(1.06311504077221e+002dB,-1.52078395846529e-003°)
1.40281370456195e-001	(1.06311504077157e+002dB,-1.52428972754422e-003°)
1.40604752412990e-001	(1.06311504077143e+002dB,-1.52780357826425e-003°)
1.40928879842186e-001	(1.06311504077129e+002dB,-1.53132552924673e-003°)
1.41253754462274e-001	(1.06311504077114e+002dB,-1.53485559916472e-003°)
1.41579377995707e-001	(1.06311504077100e+002dB,-1.53839380673431e-003°)
1.41905752168908e-001	(1.06311504077110e+002dB,-1.54194017071912e-003°)
1.42232878712281e-001	(1.06311504077096e+002dB,-1.54549470991277e-003°)
1.42560759360218e-001	(1.06311504077081e+002dB,-1.54905744316551e-003°)
1.42889395851109e-001	(1.06311504077067e+002dB,-1.55262838936661e-003°)
1.43218789927353e-001	(1.06311504077052e+002dB,-1.55620756744885e-003°)
1.43548943335364e-001	(1.06311504077037e+002dB,-1.55979499638870e-003°)
1.43879857825583e-001	(1.06311504077047e+002dB,-1.56339069521079e-003°)
1.44211535152486e-001	(1.06311504077032e+002dB,-1.56699468297023e-003°)
1.44543977074591e-001	(1.06311504077017e+002dB,-1.57060697877948e-003°)
1.44877185354475e-001	(1.06311504077002e+002dB,-1.57422760179057e-003°)
1.45211161758773e-001	(1.06311504076987e+002dB,-1.57785657119965e-003°)
1.45545908058195e-001	(1.06311504076972e+002dB,-1.58149390624721e-003°)
1.45881426027534e-001	(1.06311504076982e+002dB,-1.58513962622254e-003°)
1.46217717445671e-001	(1.06311504076966e+002dB,-1.58879375044583e-003°)
1.46554784095590e-001	(1.06311504076951e+002dB,-1.59245629829540e-003°)
1.46892627764385e-001	(1.06311504076935e+002dB,-1.59612728918973e-003°)
1.47231250243271e-001	(1.06311504076920e+002dB,-1.59980674259203e-003°)
1.47570653327588e-001	(1.06311504076904e+002dB,-1.60349467801042e-003°)
1.47910838816819e-001	(1.06311504076913e+002dB,-1.60719111500253e-003°)
1.48251808514594e-001	(1.06311504076898e+002dB,-1.61089607315738e-003°)
1.48593564228699e-001	(1.06311504076832e+002dB,-1.61460957211352e-003°)
1.48936107771090e-001	(1.06311504076816e+002dB,-1.61833163157814e-003°)
1.49279440957898e-001	(1.06311504076800e+002dB,-1.62206227127594e-003°)
1.49623565609442e-001	(1.06311504076784e+002dB,-1.62580151098640e-003°)
1.49968483550236e-001	(1.06311504076793e+002dB,-1.62954937053928e-003°)
1.50314196609001e-001	(1.06311504076777e+002dB,-1.63330586979605e-003°)
1.50660706618673e-001	(1.06311504076760e+002dB,-1.63707102867790e-003°)
1.51008015416413e-001	(1.06311504076744e+002dB,-1.64084486714738e-003°)
1.51356124843619e-001	(1.06311504076728e+002dB,-1.64462740521298e-003°)
1.51705036745932e-001	(1.06311504076711e+002dB,-1.64841866292939e-003°)
1.52054752973248e-001	(1.06311504076719e+002dB,-1.65221866040211e-003°)
1.52405275379728e-001	(1.06311504076678e+002dB,-1.65602741776422e-003°)
1.52756605823806e-001	(1.06311504076661e+002dB,-1.65984495522357e-003°)
1.53108746168202e-001	(1.06311504076644e+002dB,-1.66367129301560e-003°)
1.53461698279928e-001	(1.06311504076627e+002dB,-1.66750645142724e-003°)
1.53815464030302e-001	(1.06311504076610e+002dB,-1.67135045079201e-003°)
1.54170045294954e-001	(1.06311504076618e+002dB,-1.67520331149533e-003°)
1.54525443953840e-001	(1.06311504076601e+002dB,-1.67906505395500e-003°)
1.54881661891247e-001	(1.06311504076584e+002dB,-1.68293569865041e-003°)
1.55238700995807e-001	(1.06311504076567e+002dB,-1.68681526610337e-003°)
1.55596563160506e-001	(1.06311504076549e+002dB,-1.69070377688293e-003°)
1.55955250282694e-001	(1.06311504076532e+002dB,-1.69460125160558e-003°)
1.56314764264094e-001	(1.06311504076514e+002dB,-1.69850771093537e-003°)
1.56675107010813e-001	(1.06311504076497e+002dB,-1.70242317558391e-003°)
1.57036280433354e-001	(1.06311504076479e+002dB,-1.70634766631067e-003°)
1.57398286446620e-001	(1.06311504076461e+002dB,-1.71028120392285e-003°)
1.57761126969933e-001	(1.06311504076468e+002dB,-1.71422380928060e-003°)
1.58124803927037e-001	(1.06311504076450e+002dB,-1.71817550327744e-003°)
1.58489319246110e-001	(1.06311504076432e+002dB,-1.72213630686970e-003°)
1.58854674859776e-001	(1.06311504076414e+002dB,-1.72610624105724e-003°)
1.59220872705115e-001	(1.06311504076396e+002dB,-1.73008532688820e-003°)
1.59587914723672e-001	(1.06311504076403e+002dB,-1.73407358546433e-003°)
1.59955802861465e-001	(1.06311504076335e+002dB,-1.73807103791100e-003°)
1.60324539069002e-001	(1.06311504076316e+002dB,-1.74207770544722e-003°)
1.60694125301286e-001	(1.06311504076298e+002dB,-1.74609360930601e-003°)
1.61064563517825e-001	(1.06311504076279e+002dB,-1.75011877077925e-003°)
1.61435855682647e-001	(1.06311504076260e+002dB,-1.75415321120799e-003°)
1.61808003764305e-001	(1.06311504076266e+002dB,-1.75819695198745e-003°)
1.62181009735891e-001	(1.06311504076248e+002dB,-1.76225001454707e-003°)
1.62554875575047e-001	(1.06311504076229e+002dB,-1.76631242038083e-003°)
1.62929603263970e-001	(1.06311504076210e+002dB,-1.77038419102715e-003°)
1.63305194789432e-001	(1.06311504076190e+002dB,-1.77446534807423e-003°)
1.63681652142779e-001	(1.06311504076146e+002dB,-1.77855591315483e-003°)
1.64058977319952e-001	(1.06311504076127e+002dB,-1.78265590796686e-003°)
1.64437172321491e-001	(1.06311504076108e+002dB,-1.78676535424302e-003°)
1.64816239152549e-001	(1.06311504076088e+002dB,-1.79088427377124e-003°)
1.65196179822900e-001	(1.06311504076069e+002dB,-1.79501268838955e-003°)
1.65576996346951e-001	(1.06311504076074e+002dB,-1.79915061999158e-003°)
1.65958690743754e-001	(1.06311504076054e+002dB,-1.80329809050594e-003°)
1.66341265037015e-001	(1.06311504076034e+002dB,-1.80745512192722e-003°)
1.66724721255104e-001	(1.06311504076014e+002dB,-1.81162173629561e-003°)
1.67109061431069e-001	(1.06311504076019e+002dB,-1.81579795570729e-003°)
1.67494287602642e-001	(1.06311504075949e+002dB,-1.81998380228334e-003°)
1.67880401812254e-001	(1.06311504075929e+002dB,-1.82417929824269e-003°)
1.68267406107045e-001	(1.06311504075909e+002dB,-1.82838446581907e-003°)
1.68655302538872e-001	(1.06311504075888e+002dB,-1.83259932730783e-003°)
1.69044093164324e-001	(1.06311504075893e+002dB,-1.83682390506106e-003°)
1.69433780044731e-001	(1.06311504075872e+002dB,-1.84105822146648e-003°)
1.69824365246172e-001	(1.06311504075851e+002dB,-1.84530229897929e-003°)
1.70215850839493e-001	(1.06311504075831e+002dB,-1.84955616010122e-003°)
1.70608238900310e-001	(1.06311504075810e+002dB,-1.85381982738572e-003°)
1.71001531509027e-001	(1.06311504075814e+002dB,-1.85809332344371e-003°)
1.71395730750840e-001	(1.06311504075793e+002dB,-1.86237667092221e-003°)
1.71790838715757e-001	(1.06311504075772e+002dB,-1.86666989253638e-003°)
1.72186857498599e-001	(1.06311504075750e+002dB,-1.87097301104847e-003°)
1.72583789199018e-001	(1.06311504075754e+002dB,-1.87528604927857e-003°)
1.72981635921508e-001	(1.06311504075732e+002dB,-1.87960903008323e-003°)
1.73380399775412e-001	(1.06311504075711e+002dB,-1.88394197638784e-003°)
1.73780082874935e-001	(1.06311504075689e+002dB,-1.88828491116521e-003°)
1.74180687339159e-001	(1.06311504075692e+002dB,-1.89263785744662e-003°)
1.74582215292048e-001	(1.06311504075646e+002dB,-1.89700083829466e-003°)
1.74984668862463e-001	(1.06311504075624e+002dB,-1.90137387685771e-003°)
1.75388050184174e-001	(1.06311504075602e+002dB,-1.90575699631574e-003°)
1.75792361395867e-001	(1.06311504075579e+002dB,-1.91015021990764e-003°)
1.76197604641161e-001	(1.06311504075582e+002dB,-1.91455357093130e-003°)
1.76603782068614e-001	(1.06311504075560e+002dB,-1.91896707272189e-003°)
1.77010895831740e-001	(1.06311504075537e+002dB,-1.92339074868484e-003°)
1.77418948089014e-001	(1.06311504075515e+002dB,-1.92782462227405e-003°)
1.77827941003890e-001	(1.06311504075467e+002dB,-1.93226871699196e-003°)
1.78237876744807e-001	(1.06311504075444e+002dB,-1.93672305641172e-003°)
1.78648757485203e-001	(1.06311504075421e+002dB,-1.94118766414431e-003°)
1.79060585403527e-001	(1.06311504075398e+002dB,-1.94566256386056e-003°)
1.79473362683250e-001	(1.06311504075400e+002dB,-1.95014777929168e-003°)
1.79887091512876e-001	(1.06311504075377e+002dB,-1.95464333420656e-003°)
1.80301774085954e-001	(1.06311504075354e+002dB,-1.95914925244577e-003°)
1.80717412601090e-001	(1.06311504075330e+002dB,-1.96366555789928e-003°)
1.81134009261958e-001	(1.06311504075332e+002dB,-1.96819227451771e-003°)
1.81551566277311e-001	(1.06311504075308e+002dB,-1.97272942629000e-003°)
1.81970085860996e-001	(1.06311504075284e+002dB,-1.97727703727727e-003°)
1.82389570231961e-001	(1.06311504075260e+002dB,-1.98183513159052e-003°)
1.82810021614272e-001	(1.06311504075236e+002dB,-1.98640373339632e-003°)
1.83231442237119e-001	(1.06311504075212e+002dB,-1.99098286691698e-003°)
1.83653834334832e-001	(1.06311504075188e+002dB,-1.99557255643052e-003°)
1.84077200146893e-001	(1.06311504075164e+002dB,-2.00017282627109e-003°)
1.84501541917945e-001	(1.06311504075139e+002dB,-2.00478370082882e-003°)
1.84926861897805e-001	(1.06311504075115e+002dB,-2.00940520455015e-003°)
1.85353162341479e-001	(1.06311504075090e+002dB,-2.01403736193779e-003°)
1.85780445509167e-001	(1.06311504075065e+002dB,-2.01868019755104e-003°)
1.86208713666284e-001	(1.06311504075041e+002dB,-2.02333373600568e-003°)
1.86637969083464e-001	(1.06311504075016e+002dB,-2.02799800197432e-003°)
1.87068214036577e-001	(1.06311504074991e+002dB,-2.03267302018644e-003°)
1.87499450806739e-001	(1.06311504074965e+002dB,-2.03735881542858e-003°)
1.87931681680324e-001	(1.06311504074940e+002dB,-2.04205541254429e-003°)
1.88364908948977e-001	(1.06311504074915e+002dB,-2.04676283643444e-003°)
1.88799134909627e-001	(1.06311504074889e+002dB,-2.05148111205740e-003°)
