Freq.	V(vout)/I(Ip)
1.00000000000000e-001	8.98451240928697e-004,1.33467751355225e-005
1.01009900990099e+001	8.97558041124412e-004,1.34815661182994e-003
2.01019801980198e+001	8.94913458995929e-004,2.68296748894064e-003
3.01029702970297e+001	8.90517474493883e-004,4.01778043708339e-003
4.01039603960396e+001	8.84370054311237e-004,5.35259648785852e-003
5.01049504950495e+001	8.76471151940457e-004,6.68741667434556e-003
6.01059405940594e+001	8.66820707733063e-004,8.02224203158591e-003
7.01069306930693e+001	8.55418648981436e-004,9.35707359707098e-003
8.01079207920792e+001	8.42264890016676e-004,1.06919124112205e-002
9.01089108910891e+001	8.27359332330092e-004,1.20267595178548e-002
1.00109900990099e+002	8.10701864701583e-004,1.33616159646718e-002
1.10110891089109e+002	7.92292363355318e-004,1.46964828037028e-002
1.20111881188119e+002	7.72130692128025e-004,1.60313610917712e-002
1.30112871287129e+002	7.50216702650815e-004,1.73662518909624e-002
1.40113861386139e+002	7.26550234549546e-004,1.87011562690365e-002
1.50114851485148e+002	7.01131115662336e-004,2.00360752998673e-002
1.60115841584158e+002	6.73959162273566e-004,2.13710100638848e-002
1.70116831683168e+002	6.45034179354203e-004,2.27059616484752e-002
1.80117821782178e+002	6.14355960824325e-004,2.40409311483812e-002
1.90118811881188e+002	5.81924289829471e-004,2.53759196660956e-002
2.00119801980198e+002	5.47738939024982e-004,2.67109283122489e-002
2.10120792079208e+002	5.11799670877372e-004,2.80459582059899e-002
2.20121782178218e+002	4.74106237975816e-004,2.93810104753062e-002
2.30122772277228e+002	4.34658383351393e-004,3.07160862573685e-002
2.40123762376238e+002	3.93455840820931e-004,3.20511866989298e-002
2.50124752475247e+002	3.50498335321346e-004,3.33863129565511e-002
2.60125742574257e+002	3.05785583271133e-004,3.47214661969437e-002
2.70126732673267e+002	2.59317292927134e-004,3.60566475972682e-002
2.80127722772277e+002	2.11093164760624e-004,3.73918583453949e-002
2.90128712871287e+002	1.61112891833445e-004,3.87270996401354e-002
3.00129702970297e+002	1.09376160183033e-004,4.00623726915329e-002
3.10130693069307e+002	5.58826492228031e-005,4.13976787210651e-002
3.20131683168317e+002	6.32032124455133e-007,4.27330189618486e-002
3.30132673267327e+002	-5.63760237637641e-005,4.40683946588505e-002
3.40133663366337e+002	-1.15141856522385e-004,4.54038070690532e-002
3.50134653465347e+002	-1.75665809240952e-004,4.67392574616326e-002
3.60135643564357e+002	-2.37948229609193e-004,4.80747471181223e-002
3.70136633663367e+002	-3.01989469501368e-004,4.94102773325070e-002
3.80137623762376e+002	-3.67789884560055e-004,5.07458494113689e-002
3.90138613861386e+002	-4.35349833774061e-004,5.20814646739858e-002
4.00139603960396e+002	-5.04669679063596e-004,5.34171244524238e-002
4.10140594059406e+002	-5.75749784857849e-004,5.47528300916051e-002
4.20141584158416e+002	-6.48590517685830e-004,5.60885829493408e-002
4.30142574257426e+002	-7.23192245751723e-004,5.74243843964331e-002
4.40143564356436e+002	-7.99555338520784e-004,5.87602358166506e-002
4.50144554455446e+002	-8.77680166318290e-004,6.00961386067347e-002
4.60145544554456e+002	-9.57567099912385e-004,6.14320941764531e-002
4.70146534653466e+002	-1.03921651011236e-003,6.27681039485534e-002
4.80147524752476e+002	-1.12262876736936e-003,6.41041693587021e-002
4.90148514851486e+002	-1.20780424137920e-003,6.54402918555085e-002
5.00149504950496e+002	-1.29474330069480e-003,6.67764729004138e-002
5.10150495049505e+002	-1.38344631233214e-003,6.81127139676867e-002
5.20151485148515e+002	-1.47391364140821e-003,6.94490165442540e-002
5.30152475247525e+002	-1.56614565075294e-003,7.07853821297201e-002
5.40153465346535e+002	-1.66014270055446e-003,7.21218122361291e-002
5.50154455445545e+002	-1.75590514799026e-003,7.34583083879928e-002
5.60155445544555e+002	-1.85343334688259e-003,7.47948721221059e-002
5.70156435643565e+002	-1.95272764735707e-003,7.61315049873283e-002
5.80157425742575e+002	-2.05378839550225e-003,7.74682085446121e-002
5.90158415841584e+002	-2.15661593304181e-003,7.88049843667128e-002
6.00159405940594e+002	-2.26121059702318e-003,8.01418340380630e-002
6.10160396039604e+002	-2.36757271949678e-003,8.14787591546348e-002
6.20161386138614e+002	-2.47570262722530e-003,8.28157613237211e-002
6.30162376237624e+002	-2.58560064138543e-003,8.41528421637678e-002
6.40163366336634e+002	-2.69726707728566e-003,8.54900033041855e-002
6.50164356435644e+002	-2.81070224410918e-003,8.68272463850795e-002
6.60165346534654e+002	-2.92590644461385e-003,8.81645730572153e-002
6.70166336633663e+002	-3.04287997491127e-003,8.95019849816264e-002
6.80167326732673e+002	-3.16162312421192e-003,9.08394838294454e-002
6.90168316831683e+002	-3.28213617459012e-003,9.21770712817493e-002
7.00169306930693e+002	-3.40441940074779e-003,9.35147490292727e-002
7.10170297029703e+002	-3.52847306982144e-003,9.48525187721831e-002
7.20171287128713e+002	-3.65429744115595e-003,9.61903822198684e-002
7.30172277227723e+002	-3.78189276612132e-003,9.75283410906568e-002
7.40173267326732e+002	-3.91125928792561e-003,9.88663971116210e-002
7.50174257425742e+002	-4.04239724142167e-003,1.00204552018299e-001
7.60175247524752e+002	-4.17530685296619e-003,1.01542807554506e-001
7.70176237623762e+002	-4.30998834024309e-003,1.02881165472006e-001
7.80177227722772e+002	-4.44644191211281e-003,1.04219627530328e-001
7.90178217821782e+002	-4.58466776850275e-003,1.05558195496478e-001
8.00179207920792e+002	-4.72466610023209e-003,1.06896871144692e-001
8.10180198019802e+002	-4.86643708892724e-003,1.08235656256250e-001
8.20181188118811e+002	-5.00998090689684e-003,1.09574552619103e-001
8.30182178217821e+002	-5.15529771702749e-003,1.10913562027723e-001
8.40183168316831e+002	-5.30238767268511e-003,1.12252686282833e-001
8.50184158415841e+002	-5.45125091763666e-003,1.13591927191170e-001
8.60185148514851e+002	-5.60188758598049e-003,1.14931286565100e-001
8.70186138613861e+002	-5.75429780205016e-003,1.16270766222591e-001
8.80187128712871e+002	-5.90848168037302e-003,1.17610367986819e-001
8.90188118811880e+002	-6.06443932561815e-003,1.18950093685961e-001
9.00189108910890e+002	-6.22217083253006e-003,1.20289945152955e-001
9.10190099009900e+002	-6.38167628589948e-003,1.21629924225308e-001
9.20191089108910e+002	-6.54295576054075e-003,1.22970032744783e-001
9.30192079207920e+002	-6.70600932125858e-003,1.24310272557120e-001
9.40193069306930e+002	-6.87083702281712e-003,1.25650645512020e-001
9.50194059405940e+002	-7.03743890994672e-003,1.26991153462641e-001
9.60195049504950e+002	-7.20581501733173e-003,1.28331798265595e-001
9.70196039603959e+002	-7.37596536958685e-003,1.29672581780626e-001
9.80197029702969e+002	-7.54788998132282e-003,1.31013505870324e-001
9.90198019801979e+002	-7.72158885707608e-003,1.32354572400104e-001
1.00019900990099e+003	-7.89706199140189e-003,1.33695783237787e-001
1.01020000000000e+003	-8.07430936884395e-003,1.35037140253472e-001
1.02020099009901e+003	-8.25333096397402e-003,1.36378645319444e-001
1.03020198019802e+003	-8.43412674145004e-003,1.37720300309774e-001
1.04020297029703e+003	-8.61669665601462e-003,1.39062107100221e-001
1.05020396039604e+003	-8.80104065255650e-003,1.40404067568122e-001
1.06020495049505e+003	-8.98715866615430e-003,1.41746183591959e-001
1.07020594059406e+003	-9.17505062212748e-003,1.43088457051466e-001
1.08020693069307e+003	-9.36471643606658e-003,1.44430889827302e-001
1.09020792079208e+003	-9.55615601392409e-003,1.45773483800771e-001
1.10020891089109e+003	-9.74936925202729e-003,1.47116240853931e-001
1.11020990099010e+003	-9.94435603721527e-003,1.48459162869102e-001
1.12021089108911e+003	-1.01411162468282e-002,1.49802251728937e-001
1.13021188118812e+003	-1.03396497487879e-002,1.51145509316210e-001
1.14021287128713e+003	-1.05399564017301e-002,1.52488937513572e-001
1.15021386138614e+003	-1.07420360550122e-002,1.53832538203444e-001
1.16021485148515e+003	-1.09458885488181e-002,1.55176313267947e-001
1.17021584158416e+003	-1.11515137142109e-002,1.56520264588741e-001
1.18021683168317e+003	-1.13589113732775e-002,1.57864394046617e-001
1.19021782178218e+003	-1.15680813390988e-002,1.59208703521899e-001
1.20021881188119e+003	-1.17790234159648e-002,1.60553194893756e-001
1.21021980198020e+003	-1.19917373993641e-002,1.61897870040373e-001
1.22022079207921e+003	-1.22062230760861e-002,1.63242730838929e-001
1.23022178217822e+003	-1.24224802243683e-002,1.64587779165045e-001
1.24022277227723e+003	-1.26405086138802e-002,1.65933016893282e-001
1.25022376237624e+003	-1.28603080059272e-002,1.67278445896368e-001
1.26022475247525e+003	-1.30818781534766e-002,1.68624068045612e-001
1.27022574257426e+003	-1.33052188012163e-002,1.69969885210600e-001
1.28022673267327e+003	-1.35303296857628e-002,1.71315899258993e-001
1.29022772277228e+003	-1.37572105356212e-002,1.72662112056637e-001
1.30022871287129e+003	-1.39858610713601e-002,1.74008525467338e-001
1.31022970297030e+003	-1.42162810056956e-002,1.75355141352793e-001
1.32023069306930e+003	-1.44484700435708e-002,1.76701961572486e-001
1.33023168316831e+003	-1.46824278822365e-002,1.78048987983732e-001
1.34023267326732e+003	-1.49181542113718e-002,1.79396222441430e-001
1.35023366336633e+003	-1.51556487131670e-002,1.80743666798067e-001
1.36023465346534e+003	-1.53949110624255e-002,1.82091322903604e-001
1.37023564356435e+003	-1.56359409266424e-002,1.83439192605496e-001
1.38023663366336e+003	-1.58787379661109e-002,1.84787277748519e-001
1.39023762376237e+003	-1.61233018339808e-002,1.86135580174836e-001
1.40023861386138e+003	-1.63696321764336e-002,1.87484101723754e-001
1.41023960396039e+003	-1.66177286326683e-002,1.88832844231834e-001
1.42024059405940e+003	-1.68675908350818e-002,1.90181809532706e-001
1.43024158415841e+003	-1.71192184093323e-002,1.91530999457113e-001
1.44024257425742e+003	-1.73726109743931e-002,1.92880415832819e-001
1.45024356435643e+003	-1.76277681426476e-002,1.94230060484646e-001
1.46024455445544e+003	-1.78846895200977e-002,1.95579935234172e-001
1.47024554455445e+003	-1.81433747062600e-002,1.96930041900044e-001
1.48024653465346e+003	-1.84038232943640e-002,1.98280382297738e-001
1.49024752475247e+003	-1.86660348715226e-002,1.99630958239323e-001
1.50024851485148e+003	-1.89300090185970e-002,2.00981771533973e-001
1.51024950495049e+003	-1.91957453104518e-002,2.02332823987441e-001
1.52025049504950e+003	-1.94632433160059e-002,2.03684117402137e-001
1.53025148514851e+003	-1.97325025983221e-002,2.05035653577243e-001
1.54025247524752e+003	-2.00035227146188e-002,2.06387434308554e-001
1.55025346534653e+003	-2.02763032164334e-002,2.07739461388519e-001
1.56025445544554e+003	-2.05508436496562e-002,2.09091736606221e-001
1.57025544554455e+003	-2.08271435546358e-002,2.10444261747256e-001
1.58025643564356e+003	-2.11052024662512e-002,2.11797038593813e-001
1.59025742574257e+003	-2.13850199139619e-002,2.13150068924645e-001
1.60025841584158e+003	-2.16665954219693e-002,2.14503354514927e-001
1.61025940594059e+003	-2.19499285091359e-002,2.15856897136460e-001
1.62026039603960e+003	-2.22350186891947e-002,2.17210698557594e-001
1.63026138613861e+003	-2.25218654708081e-002,2.18564760542972e-001
1.64026237623762e+003	-2.28104683575651e-002,2.19919084853822e-001
1.65026336633663e+003	-2.31008268481339e-002,2.21273673247810e-001
1.66026435643564e+003	-2.33929404362467e-002,2.22628527479062e-001
1.67026534653465e+003	-2.36868086108526e-002,2.23983649298197e-001
1.68026633663366e+003	-2.39824308561876e-002,2.25339040452042e-001
1.69026732673267e+003	-2.42798066517055e-002,2.26694702684154e-001
1.70026831683168e+003	-2.45789354722919e-002,2.28050637734350e-001
1.71026930693069e+003	-2.48798167882836e-002,2.29406847338951e-001
1.72027029702970e+003	-2.51824500654883e-002,2.30763333230517e-001
1.73027128712871e+003	-2.54868347653528e-002,2.32120097138189e-001
1.74027227722772e+003	-2.57929703448249e-002,2.33477140787610e-001
1.75027326732673e+003	-2.61008562566339e-002,2.34834465900615e-001
1.76027425742574e+003	-2.64104919492643e-002,2.36192074195510e-001
1.77027524752475e+003	-2.67218768669310e-002,2.37549967387167e-001
1.78027623762376e+003	-2.70350104497626e-002,2.38908147186688e-001
1.79027722772277e+003	-2.73498921337966e-002,2.40266615301673e-001
1.80027821782178e+003	-2.76665213510136e-002,2.41625373436201e-001
1.81027920792079e+003	-2.79848975293806e-002,2.42984423290841e-001
1.82028019801980e+003	-2.83050200930608e-002,2.44343766562255e-001
1.83028118811881e+003	-2.86268884622211e-002,2.45703404943954e-001
1.84028217821782e+003	-2.89505020532451e-002,2.47063340125679e-001
1.85028316831683e+003	-2.92758602787462e-002,2.48423573793682e-001
1.86028415841584e+003	-2.96029625475983e-002,2.49784107630628e-001
1.87028514851485e+003	-2.99318082649837e-002,2.51144943315723e-001
1.88028613861386e+003	-3.02623968324947e-002,2.52506082524560e-001
1.89028712871287e+003	-3.05947276480295e-002,2.53867526929352e-001
1.90028811881188e+003	-3.09288001060845e-002,2.55229278198596e-001
1.91028910891089e+003	-3.12646135975031e-002,2.56591337997585e-001
1.92029009900990e+003	-3.16021675097979e-002,2.57953707987706e-001
1.93029108910891e+003	-3.19414612270044e-002,2.59316389827222e-001
1.94029207920792e+003	-3.22824941297541e-002,2.60679385170807e-001
1.95029306930693e+003	-3.26252655953588e-002,2.62042695669673e-001
1.96029405940594e+003	-3.29697749978712e-002,2.63406322971567e-001
1.97029504950495e+003	-3.33160217080289e-002,2.64770268720792e-001
1.98029603960396e+003	-3.36640050933881e-002,2.66134534558208e-001
1.99029702970297e+003	-3.40137245182495e-002,2.67499122121324e-001
2.00029801980198e+003	-3.43651793438355e-002,2.68864033044216e-001
2.01029900990099e+003	-3.47183689282496e-002,2.70229268957434e-001
2.02030000000000e+003	-3.50732926264951e-002,2.71594831488214e-001
2.03030099009901e+003	-3.54299497904388e-002,2.72960722260729e-001
2.04030198019802e+003	-3.57883397691193e-002,2.74326942895142e-001
2.05030297029703e+003	-3.61484619084313e-002,2.75693495008864e-001
2.06030396039604e+003	-3.65103155513452e-002,2.77060380215645e-001
2.07030495049505e+003	-3.68739000379945e-002,2.78427600125940e-001
2.08030594059405e+003	-3.72392147055189e-002,2.79795156347019e-001
2.09030693069306e+003	-3.76062588883034e-002,2.81163050482633e-001
2.10030792079207e+003	-3.79750319177619e-002,2.82531284133540e-001
2.11030891089108e+003	-3.83455331226048e-002,2.83899858896879e-001
2.12030990099009e+003	-3.87177618287782e-002,2.85268776366671e-001
2.13031089108910e+003	-3.90917173593618e-002,2.86638038133796e-001
2.14031188118811e+003	-3.94673990348591e-002,2.88007645785637e-001
2.15031287128712e+003	-3.98448061729551e-002,2.89377600906537e-001
2.16031386138613e+003	-4.02239380887280e-002,2.90747905077520e-001
2.17031485148514e+003	-4.06047940945881e-002,2.92118559876409e-001
2.18031584158415e+003	-4.09873735003105e-002,2.93489566877922e-001
2.19031683168316e+003	-4.13716756130952e-002,2.94860927653334e-001
2.20031782178217e+003	-4.17576997375727e-002,2.96232643771037e-001
2.21031881188118e+003	-4.21454451757382e-002,2.97604716796067e-001
2.22031980198019e+003	-4.25349112271259e-002,2.98977148290347e-001
2.23032079207920e+003	-4.29260971887671e-002,3.00349939812678e-001
2.24032178217821e+003	-4.33190023551609e-002,3.01723092918714e-001
2.25032277227722e+003	-4.37136260183301e-002,3.03096609161088e-001
2.26032376237623e+003	-4.41099674679343e-002,3.04470490088909e-001
2.27032475247524e+003	-4.45080259911066e-002,3.05844737248725e-001
2.28032574257425e+003	-4.49078008725995e-002,3.07219352183744e-001
2.29032673267326e+003	-4.53092913947817e-002,3.08594336433991e-001
2.30032772277227e+003	-4.57124968376697e-002,3.09969691536588e-001
2.31032871287128e+003	-4.61174164788304e-002,3.11345419025570e-001
2.32032970297029e+003	-4.65240495936718e-002,3.12721520431789e-001
2.33033069306930e+003	-4.69323954550580e-002,3.14097997283310e-001
2.34033168316831e+003	-4.73424533337975e-002,3.15474851104792e-001
2.35033267326732e+003	-4.77542224981705e-002,3.16852083418298e-001
2.36033366336633e+003	-4.81677022143874e-002,3.18229695742599e-001
2.37033465346534e+003	-4.85828917462880e-002,3.19607689593439e-001
2.38033564356435e+003	-4.89997903554779e-002,3.20986066483873e-001
2.39033663366336e+003	-4.94183973014311e-002,3.22364827923564e-001
2.40033762376237e+003	-4.98387118413623e-002,3.23743975419474e-001
2.41033861386138e+003	-5.02607332301799e-002,3.25123510475696e-001
2.42033960396039e+003	-5.06844607208443e-002,3.26503434592952e-001
2.43034059405940e+003	-5.11098935640016e-002,3.27883749269400e-001
2.44034158415841e+003	-5.15370310081688e-002,3.29264456000049e-001
2.45034257425742e+003	-5.19658722997228e-002,3.30645556277204e-001
2.46034356435643e+003	-5.23964166830025e-002,3.32027051589848e-001
2.47034455445544e+003	-5.28286634000717e-002,3.33408943424620e-001
2.48034554455445e+003	-5.32626116910598e-002,3.34791233264733e-001
2.49034653465346e+003	-5.36982607939491e-002,3.36173922590754e-001
2.50034752475247e+003	-5.41356099446560e-002,3.37557012880243e-001
2.51034851485148e+003	-5.45746583770012e-002,3.38940505608181e-001
2.52034950495049e+003	-5.50154053228452e-002,3.40324402246220e-001
2.53035049504950e+003	-5.54578500119856e-002,3.41708704263345e-001
2.54035148514851e+003	-5.59019916720947e-002,3.43093413125917e-001
2.55035247524752e+003	-5.63478295290007e-002,3.44478530297078e-001
2.56035346534653e+003	-5.67953628063942e-002,3.45864057237253e-001
2.57035445544554e+003	-5.72445907260537e-002,3.47249995404201e-001
2.58035544554455e+003	-5.76955125078110e-002,3.48636346252566e-001
2.59035643564356e+003	-5.81481273694229e-002,3.50023111234326e-001
2.60035742574257e+003	-5.86024345267669e-002,3.51410291798591e-001
2.61035841584158e+003	-5.90584331937182e-002,3.52797889391898e-001
2.62035940594059e+003	-5.95161225823720e-002,3.54185905457429e-001
2.63036039603960e+003	-5.99755019026192e-002,3.55574341436222e-001
2.64036138613861e+003	-6.04365703626932e-002,3.56963198765991e-001
2.65036237623762e+003	-6.08993271688834e-002,3.58352478881881e-001
2.66036336633663e+003	-6.13637715253681e-002,3.59742183216468e-001
2.67036435643564e+003	-6.18299026348091e-002,3.61132313198957e-001
2.68036534653465e+003	-6.22977196976150e-002,3.62522870256477e-001
2.69036633663366e+003	-6.27672219124980e-002,3.63913855812982e-001
2.70036732673267e+003	-6.32384084763784e-002,3.65305271289718e-001
2.71036831683168e+003	-6.37112785842536e-002,3.66697118105191e-001
2.72036930693069e+003	-6.41858314292899e-002,3.68089397675113e-001
2.73037029702970e+003	-6.46620662028143e-002,3.69482111412592e-001
2.74037128712871e+003	-6.51399820942842e-002,3.70875260727952e-001
2.75037227722772e+003	-6.56195782914489e-002,3.72268847028720e-001
2.76037326732673e+003	-6.61008539801300e-002,3.73662871719696e-001
2.77037425742574e+003	-6.65838083444686e-002,3.75057336203018e-001
2.78037524752475e+003	-6.70684405668221e-002,3.76452241877899e-001
2.79037623762376e+003	-6.75547498276671e-002,3.77847590141057e-001
2.80037722772277e+003	-6.80427353057350e-002,3.79243382386464e-001
2.81037821782178e+003	-6.85323961780468e-002,3.80639620005312e-001
2.82037920792079e+003	-6.90237316198881e-002,3.82036304386064e-001
2.83038019801980e+003	-6.95167408045838e-002,3.83433436914702e-001
2.84038118811880e+003	-7.00114229040386e-002,3.84831018974116e-001
2.85038217821781e+003	-7.05077770881920e-002,3.86229051944865e-001
2.86038316831682e+003	-7.10058025253691e-002,3.87627537204553e-001
2.87038415841583e+003	-7.15054983820990e-002,3.89026476128346e-001
2.88038514851484e+003	-7.20068638233501e-002,3.90425870088407e-001
2.89038613861385e+003	-7.25098980121254e-002,3.91825720454667e-001
2.90038712871286e+003	-7.30146001100440e-002,3.93226028593805e-001
2.91038811881187e+003	-7.35209692768211e-002,3.94626795870298e-001
2.92038910891088e+003	-7.40290046705508e-002,3.96028023645776e-001
2.93039009900989e+003	-7.45387054476996e-002,3.97429713279161e-001
2.94039108910890e+003	-7.50500707630696e-002,3.98831866126674e-001
2.95039207920791e+003	-7.55630997696499e-002,4.00234483542180e-001
2.96039306930692e+003	-7.60777916191354e-002,4.01637566876227e-001
2.97039405940593e+003	-7.65941454610458e-002,4.03041117477607e-001
