time	V(vout)	-I(Rl)
0.000000000000000e+000	2.027857e+000	2.048135e-010
2.000000000000000e-002	2.027857e+000	2.048135e-010
2.000007812500000e-002	1.707623e+000	5.158354e-001
2.000023437500000e-002	1.696223e+000	8.481117e-001
2.000023481566896e-002	1.696915e+000	8.484575e-001
2.000023569700687e-002	1.698386e+000	8.491929e-001
2.000023591734134e-002	1.698668e+000	8.493339e-001
2.000023635801030e-002	1.699149e+000	8.495744e-001
2.000023723934821e-002	1.700097e+000	8.500484e-001
2.000023745968269e-002	1.700323e+000	8.501613e-001
2.000023790035164e-002	1.700758e+000	8.503792e-001
2.000023801051888e-002	1.700867e+000	8.504335e-001
2.000023823085336e-002	1.701083e+000	8.505415e-001
2.000023867152231e-002	1.701515e+000	8.507573e-001
2.000023955286022e-002	1.702379e+000	8.511897e-001
2.000023977319470e-002	1.702597e+000	8.512987e-001
2.000024021386366e-002	1.703040e+000	8.515202e-001
2.000024109520156e-002	1.703942e+000	8.519708e-001
2.000024131553604e-002	1.704171e+000	8.520856e-001
2.000024175620500e-002	1.704643e+000	8.523213e-001
2.000024263754291e-002	1.705623e+000	8.528116e-001
2.000024440021873e-002	1.707668e+000	8.538338e-001
2.000024484088768e-002	1.708203e+000	8.541015e-001
2.000024572222559e-002	1.709337e+000	8.546687e-001
2.000024748490141e-002	1.711791e+000	8.558955e-001
2.000025101025306e-002	1.717483e+000	8.587415e-001
2.000025806095634e-002	1.731879e+000	8.659396e-001
2.000026948107063e-002	1.762307e+000	8.811535e-001
2.000028114459539e-002	1.802498e+000	9.012488e-001
2.000029709395050e-002	1.869281e+000	9.346407e-001
2.000031506767481e-002	1.952942e+000	9.764708e-001
2.000033496689871e-002	2.048150e+000	1.024075e+000
2.000034798840615e-002	2.107372e+000	1.053686e+000
2.000036079685598e-002	2.161148e+000	1.080574e+000
2.000036274008804e-002	2.168653e+000	1.084327e+000
2.000036662655216e-002	2.182484e+000	1.091242e+000
2.000037439948039e-002	2.207587e+000	1.103794e+000
2.000038733642875e-002	2.244138e+000	1.122069e+000
2.000039327485639e-002	2.258442e+000	1.129221e+000
2.000039698386712e-002	2.266191e+000	1.133096e+000
2.000039725563082e-002	2.266718e+000	1.133359e+000
2.000039779915822e-002	2.267727e+000	1.133864e+000
2.000039888621301e-002	2.269688e+000	1.134844e+000
2.000040072778724e-002	2.272911e+000	1.136456e+000
2.000040105213235e-002	2.273461e+000	1.136730e+000
2.000040170082256e-002	2.274523e+000	1.137261e+000
2.000040299820300e-002	2.276561e+000	1.138281e+000
2.000040559296386e-002	2.280290e+000	1.140145e+000
2.000041078248560e-002	2.286557e+000	1.143278e+000
2.000041871610371e-002	2.293592e+000	1.146796e+000
2.000042771804993e-002	2.298928e+000	1.149464e+000
2.000042888541134e-002	2.299330e+000	1.149665e+000
2.000043122013416e-002	2.299693e+000	1.149847e+000
2.000043588957982e-002	2.299674e+000	1.149837e+000
2.000044522847112e-002	2.297472e+000	1.148736e+000
2.000046031075848e-002	2.290837e+000	1.145419e+000
2.000047508695667e-002	2.283072e+000	1.141536e+000
2.000048747915174e-002	2.276942e+000	1.138471e+000
2.000050196469153e-002	2.270585e+000	1.135292e+000
2.000050219751018e-002	2.270489e+000	1.135245e+000
2.000050266314749e-002	2.270305e+000	1.135153e+000
2.000050359442210e-002	2.269936e+000	1.134968e+000
2.000050545697133e-002	2.269199e+000	1.134599e+000
2.000050592260863e-002	2.269015e+000	1.134507e+000
2.000050685388325e-002	2.268648e+000	1.134324e+000
2.000050871643247e-002	2.267918e+000	1.133959e+000
2.000051244153092e-002	2.266473e+000	1.133236e+000
2.000051989172783e-002	2.263622e+000	1.131811e+000
2.000053479212164e-002	2.258019e+000	1.129010e+000
2.000054986388544e-002	2.252621e+000	1.126311e+000
2.000056711030742e-002	2.247236e+000	1.123618e+000
2.000058395180688e-002	2.242893e+000	1.121447e+000
2.000060201970641e-002	2.238494e+000	1.119247e+000
2.000062053191881e-002	2.233662e+000	1.116831e+000
2.000062068661413e-002	2.233620e+000	1.116810e+000
2.000062099600477e-002	2.233531e+000	1.116766e+000
2.000062161478606e-002	2.233351e+000	1.116676e+000
2.000062285234862e-002	2.232988e+000	1.116494e+000
2.000062532747374e-002	2.232254e+000	1.116127e+000
2.000063027772400e-002	2.230752e+000	1.115376e+000
2.000064017822450e-002	2.227688e+000	1.113844e+000
2.000064053509680e-002	2.227576e+000	1.113788e+000
2.000064124884139e-002	2.227349e+000	1.113674e+000
2.000064267633057e-002	2.226892e+000	1.113446e+000
2.000064553130893e-002	2.225972e+000	1.112986e+000
2.000065124126564e-002	2.224109e+000	1.112054e+000
2.000065989974372e-002	2.221238e+000	1.110619e+000
2.000067079734109e-002	2.217578e+000	1.108789e+000
2.000067237245102e-002	2.217044e+000	1.108522e+000
2.000067631022583e-002	2.215700e+000	1.107850e+000
2.000067788533575e-002	2.215160e+000	1.107580e+000
2.000068103555560e-002	2.214079e+000	1.107039e+000
2.000068733599530e-002	2.211907e+000	1.105954e+000
2.000069993687470e-002	2.207543e+000	1.103772e+000
2.000071828919367e-002	2.201168e+000	1.100584e+000
2.000073629109968e-002	2.194912e+000	1.097456e+000
2.000075697812670e-002	2.187747e+000	1.093874e+000
2.000077746961220e-002	2.180691e+000	1.090346e+000
2.000079943405698e-002	2.173190e+000	1.086595e+000
2.000082309844746e-002	2.165197e+000	1.082598e+000
2.000086238526152e-002	2.152116e+000	1.076058e+000
2.000090665590695e-002	2.137634e+000	1.068817e+000
2.000095396424012e-002	2.122406e+000	1.061203e+000
2.000096172831278e-002	2.119941e+000	1.059971e+000
2.000097725645808e-002	2.115068e+000	1.057534e+000
2.000100831274869e-002	2.105448e+000	1.052724e+000
2.000107042532991e-002	2.086462e+000	1.043231e+000
2.000107794898955e-002	2.084190e+000	1.042095e+000
2.000107982990446e-002	2.083627e+000	1.041814e+000
2.000108359173428e-002	2.082503e+000	1.041251e+000
2.000109111539392e-002	2.080261e+000	1.040131e+000
2.000110616271321e-002	2.075795e+000	1.037897e+000
2.000111744820267e-002	2.072469e+000	1.036234e+000
2.000113249552195e-002	2.068067e+000	1.034034e+000
2.000116259016052e-002	2.059374e+000	1.029687e+000
2.000122277943766e-002	2.042304e+000	1.021152e+000
2.000128602297713e-002	2.024846e+000	1.012423e+000
2.000139025282507e-002	1.996958e+000	9.984791e-001
2.000147075519873e-002	1.976059e+000	9.880295e-001
2.000153830492075e-002	1.958930e+000	9.794650e-001
2.000153954953502e-002	1.958619e+000	9.793093e-001
2.000153986068859e-002	1.958541e+000	9.792706e-001
2.000154048299572e-002	1.958386e+000	9.791932e-001
2.000154172760999e-002	1.958077e+000	9.790386e-001
2.000154421683853e-002	1.957459e+000	9.787295e-001
2.000154919529560e-002	1.956225e+000	9.781125e-001
2.000155915220974e-002	1.953761e+000	9.768804e-001
2.000156164143828e-002	1.953146e+000	9.765730e-001
2.000156661989535e-002	1.951919e+000	9.759597e-001
2.000157657680950e-002	1.949474e+000	9.747369e-001
2.000159649063778e-002	1.944615e+000	9.723073e-001
2.000163631829436e-002	1.934962e+000	9.674811e-001
2.000164334455266e-002	1.933272e+000	9.666359e-001
2.000165739706925e-002	1.929918e+000	9.649589e-001
2.000168550210243e-002	1.923244e+000	9.616219e-001
2.000169237592123e-002	1.921619e+000	9.608097e-001
2.000169259072807e-002	1.921569e+000	9.607844e-001
2.000169302034175e-002	1.921468e+000	9.607338e-001
2.000169387956910e-002	1.921265e+000	9.606327e-001
2.000169559802380e-002	1.920861e+000	9.604306e-001
2.000169903493320e-002	1.920054e+000	9.600269e-001
2.000170762720670e-002	1.918038e+000	9.590191e-001
2.000171106411611e-002	1.917234e+000	9.586172e-001
2.000171793793491e-002	1.915631e+000	9.578153e-001
2.000173168557252e-002	1.912439e+000	9.562193e-001
2.000175918084773e-002	1.906119e+000	9.530596e-001
2.000181417139817e-002	1.893678e+000	9.468390e-001
2.000186855544311e-002	1.881657e+000	9.408283e-001
2.000192588958723e-002	1.869281e+000	9.346403e-001
2.000193328085132e-002	1.867718e+000	9.338588e-001
2.000193882429939e-002	1.866563e+000	9.332817e-001
2.000194621556348e-002	1.865037e+000	9.325184e-001
2.000196099809167e-002	1.862032e+000	9.310161e-001
2.000199056314804e-002	1.856137e+000	9.280685e-001
2.000199795441213e-002	1.854701e+000	9.273504e-001
2.000201273694031e-002	1.851935e+000	9.259677e-001
2.000204230199668e-002	1.846842e+000	9.234209e-001
2.000210143210942e-002	1.838523e+000	9.192613e-001
2.000216635843798e-002	1.833105e+000	9.165524e-001
2.000223227044171e-002	1.832606e+000	9.163029e-001
2.000227985073219e-002	1.835835e+000	9.179177e-001
2.000231957242959e-002	1.840949e+000	9.204743e-001
2.000236485238140e-002	1.848513e+000	9.242566e-001
2.000240635944940e-002	1.856330e+000	9.281651e-001
2.000245879938780e-002	1.866616e+000	9.333080e-001
2.000252282152835e-002	1.878936e+000	9.394680e-001
2.000259322592124e-002	1.891832e+000	9.459161e-001
2.000265676775171e-002	1.902847e+000	9.514233e-001
2.000272558876074e-002	1.914282e+000	9.571411e-001
2.000279884165747e-002	1.926110e+000	9.630550e-001
2.000289604055454e-002	1.941308e+000	9.706541e-001
2.000300434942301e-002	1.957282e+000	9.786412e-001
2.000311648091620e-002	1.972045e+000	9.860223e-001
2.000324349287391e-002	1.986088e+000	9.930441e-001
2.000334597355189e-002	1.994860e+000	9.974300e-001
2.000348303521285e-002	2.003222e+000	1.001611e+000
2.000361891493485e-002	2.008736e+000	1.004368e+000
2.000377290123076e-002	2.012534e+000	1.006267e+000
2.000392145275823e-002	2.014676e+000	1.007338e+000
2.000408784448009e-002	2.015993e+000	1.007997e+000
2.000432223407474e-002	2.016989e+000	1.008495e+000
2.000451667283559e-002	2.017426e+000	1.008713e+000
2.000472837960836e-002	2.017673e+000	1.008837e+000
2.000504037586486e-002	2.017904e+000	1.008952e+000
2.000533914677484e-002	2.018072e+000	1.009036e+000
2.000564468491121e-002	2.018221e+000	1.009110e+000
2.000595625901624e-002	2.018364e+000	1.009182e+000
2.000623878903960e-002	2.018491e+000	1.009245e+000
2.000659444033813e-002	2.018647e+000	1.009324e+000
2.000709665777676e-002	2.018862e+000	1.009431e+000
2.000810109265401e-002	2.019273e+000	1.009636e+000
2.001010996240851e-002	2.020038e+000	1.010019e+000
2.001235657836199e-002	2.020816e+000	1.010408e+000
2.001504683487417e-002	2.021633e+000	1.010816e+000
2.001885034853851e-002	2.022610e+000	1.011305e+000
2.002412601084392e-002	2.023681e+000	1.011840e+000
2.003284482834609e-002	2.024976e+000	1.012488e+000
2.004169686046285e-002	2.025856e+000	1.012928e+000
2.005353002023780e-002	2.026575e+000	1.013288e+000
2.006427428894517e-002	2.026952e+000	1.013476e+000
2.007998753317104e-002	2.027238e+000	1.013619e+000
2.009445922006384e-002	2.027368e+000	1.013684e+000
2.011640951117466e-002	2.027447e+000	1.013724e+000
2.013733044435200e-002	2.027476e+000	1.013738e+000
2.017225656424544e-002	2.027487e+000	1.013744e+000
2.020780608412049e-002	2.027490e+000	1.013745e+000
2.025780608412049e-002	2.027490e+000	1.013745e+000
2.030780608412049e-002	2.027490e+000	1.013745e+000
2.035780608412049e-002	2.027490e+000	1.013745e+000
2.040780608412050e-002	2.027490e+000	1.013745e+000
2.045780608412050e-002	2.027490e+000	1.013745e+000
2.050780608412050e-002	2.027490e+000	1.013745e+000
2.055780608412050e-002	2.027490e+000	1.013745e+000
2.060780608412050e-002	2.027490e+000	1.013745e+000
2.065780608412050e-002	2.027490e+000	1.013745e+000
2.070780608412050e-002	2.027490e+000	1.013745e+000
2.075780608412051e-002	2.027490e+000	1.013745e+000
2.080780608412051e-002	2.027490e+000	1.013745e+000
2.085780608412051e-002	2.027490e+000	1.013745e+000
2.090780608412051e-002	2.027490e+000	1.013745e+000
2.095780608412051e-002	2.027490e+000	1.013745e+000
2.100780608412051e-002	2.027490e+000	1.013745e+000
2.105780608412051e-002	2.027490e+000	1.013745e+000
2.110780608412052e-002	2.027490e+000	1.013745e+000
2.115780608412052e-002	2.027490e+000	1.013745e+000
2.120780608412052e-002	2.027490e+000	1.013745e+000
2.125780608412052e-002	2.027490e+000	1.013745e+000
2.130780608412052e-002	2.027490e+000	1.013745e+000
2.135780608412052e-002	2.027490e+000	1.013745e+000
2.140780608412052e-002	2.027490e+000	1.013745e+000
2.145780608412053e-002	2.027490e+000	1.013745e+000
2.150780608412053e-002	2.027490e+000	1.013745e+000
2.155780608412053e-002	2.027490e+000	1.013745e+000
2.160780608412053e-002	2.027490e+000	1.013745e+000
2.165780608412053e-002	2.027490e+000	1.013745e+000
2.170780608412053e-002	2.027490e+000	1.013745e+000
2.175780608412054e-002	2.027490e+000	1.013745e+000
2.180780608412054e-002	2.027490e+000	1.013745e+000
2.185780608412054e-002	2.027490e+000	1.013745e+000
2.190780608412054e-002	2.027490e+000	1.013745e+000
2.195780608412054e-002	2.027490e+000	1.013745e+000
2.200780608412054e-002	2.027490e+000	1.013745e+000
2.205780608412054e-002	2.027490e+000	1.013745e+000
2.210780608412055e-002	2.027490e+000	1.013745e+000
2.215780608412055e-002	2.027490e+000	1.013745e+000
2.220780608412055e-002	2.027490e+000	1.013745e+000
2.225780608412055e-002	2.027490e+000	1.013745e+000
2.230780608412055e-002	2.027490e+000	1.013745e+000
2.235780608412055e-002	2.027490e+000	1.013745e+000
2.240780608412055e-002	2.027490e+000	1.013745e+000
2.245780608412056e-002	2.027490e+000	1.013745e+000
2.250780608412056e-002	2.027490e+000	1.013745e+000
2.255780608412056e-002	2.027490e+000	1.013745e+000
2.260780608412056e-002	2.027490e+000	1.013745e+000
2.265780608412056e-002	2.027490e+000	1.013745e+000
2.270780608412056e-002	2.027490e+000	1.013745e+000
2.275780608412056e-002	2.027490e+000	1.013745e+000
2.280780608412057e-002	2.027490e+000	1.013745e+000
2.285780608412057e-002	2.027490e+000	1.013745e+000
2.290780608412057e-002	2.027490e+000	1.013745e+000
2.295780608412057e-002	2.027490e+000	1.013745e+000
2.300780608412057e-002	2.027490e+000	1.013745e+000
2.305780608412057e-002	2.027490e+000	1.013745e+000
2.310780608412057e-002	2.027490e+000	1.013745e+000
2.315780608412058e-002	2.027490e+000	1.013745e+000
2.320780608412058e-002	2.027490e+000	1.013745e+000
2.325780608412058e-002	2.027490e+000	1.013745e+000
2.330780608412058e-002	2.027490e+000	1.013745e+000
2.335780608412058e-002	2.027490e+000	1.013745e+000
2.340780608412058e-002	2.027490e+000	1.013745e+000
2.345780608412058e-002	2.027490e+000	1.013745e+000
2.350780608412059e-002	2.027490e+000	1.013745e+000
2.355780608412059e-002	2.027490e+000	1.013745e+000
2.360780608412059e-002	2.027490e+000	1.013745e+000
2.365780608412059e-002	2.027490e+000	1.013745e+000
2.370780608412059e-002	2.027490e+000	1.013745e+000
2.375780608412059e-002	2.027490e+000	1.013745e+000
2.380780608412059e-002	2.027490e+000	1.013745e+000
2.385780608412060e-002	2.027490e+000	1.013745e+000
2.390780608412060e-002	2.027490e+000	1.013745e+000
2.395780608412060e-002	2.027490e+000	1.013745e+000
2.400780608412060e-002	2.027490e+000	1.013745e+000
2.405780608412060e-002	2.027490e+000	1.013745e+000
2.410780608412060e-002	2.027490e+000	1.013745e+000
2.415780608412060e-002	2.027490e+000	1.013745e+000
2.420780608412061e-002	2.027490e+000	1.013745e+000
2.425780608412061e-002	2.027490e+000	1.013745e+000
2.430780608412061e-002	2.027490e+000	1.013745e+000
2.435780608412061e-002	2.027490e+000	1.013745e+000
2.440780608412061e-002	2.027490e+000	1.013745e+000
2.445780608412061e-002	2.027490e+000	1.013745e+000
2.450780608412061e-002	2.027490e+000	1.013745e+000
2.455780608412062e-002	2.027490e+000	1.013745e+000
2.460780608412062e-002	2.027490e+000	1.013745e+000
2.465780608412062e-002	2.027490e+000	1.013745e+000
2.470780608412062e-002	2.027490e+000	1.013745e+000
2.475780608412062e-002	2.027490e+000	1.013745e+000
2.480780608412062e-002	2.027490e+000	1.013745e+000
2.485780608412062e-002	2.027490e+000	1.013745e+000
2.490780608412063e-002	2.027490e+000	1.013745e+000
2.495780608412063e-002	2.027490e+000	1.013745e+000
2.500780608412063e-002	2.027490e+000	1.013745e+000
2.505780608412063e-002	2.027490e+000	1.013745e+000
2.510780608412063e-002	2.027490e+000	1.013745e+000
2.515780608412063e-002	2.027490e+000	1.013745e+000
2.520780608412063e-002	2.027490e+000	1.013745e+000
2.525780608412064e-002	2.027490e+000	1.013745e+000
2.530780608412064e-002	2.027490e+000	1.013745e+000
2.535780608412064e-002	2.027490e+000	1.013745e+000
2.540780608412064e-002	2.027490e+000	1.013745e+000
2.545780608412064e-002	2.027490e+000	1.013745e+000
2.550780608412064e-002	2.027490e+000	1.013745e+000
2.555780608412064e-002	2.027490e+000	1.013745e+000
2.560780608412065e-002	2.027490e+000	1.013745e+000
2.565780608412065e-002	2.027490e+000	1.013745e+000
2.570780608412065e-002	2.027490e+000	1.013745e+000
2.575780608412065e-002	2.027490e+000	1.013745e+000
2.580780608412065e-002	2.027490e+000	1.013745e+000
2.585780608412065e-002	2.027490e+000	1.013745e+000
2.590780608412065e-002	2.027490e+000	1.013745e+000
2.600780608412066e-002	2.027490e+000	1.013745e+000
2.605780608412066e-002	2.027490e+000	1.013745e+000
2.610780608412066e-002	2.027490e+000	1.013745e+000
2.615780608412066e-002	2.027490e+000	1.013745e+000
2.620780608412066e-002	2.027490e+000	1.013745e+000
2.625780608412066e-002	2.027490e+000	1.013745e+000
2.630780608412067e-002	2.027490e+000	1.013745e+000
2.635780608412067e-002	2.027490e+000	1.013745e+000
2.640780608412067e-002	2.027490e+000	1.013745e+000
2.645780608412067e-002	2.027490e+000	1.013745e+000
2.650780608412067e-002	2.027490e+000	1.013745e+000
2.655780608412067e-002	2.027490e+000	1.013745e+000
2.660780608412067e-002	2.027490e+000	1.013745e+000
2.665780608412068e-002	2.027490e+000	1.013745e+000
2.670780608412068e-002	2.027490e+000	1.013745e+000
2.675780608412068e-002	2.027490e+000	1.013745e+000
2.680780608412068e-002	2.027490e+000	1.013745e+000
2.685780608412068e-002	2.027490e+000	1.013745e+000
2.690780608412068e-002	2.027490e+000	1.013745e+000
2.695780608412068e-002	2.027490e+000	1.013745e+000
2.700780608412069e-002	2.027490e+000	1.013745e+000
2.705780608412069e-002	2.027490e+000	1.013745e+000
2.710780608412069e-002	2.027490e+000	1.013745e+000
2.715780608412069e-002	2.027490e+000	1.013745e+000
2.720780608412069e-002	2.027490e+000	1.013745e+000
2.725780608412069e-002	2.027490e+000	1.013745e+000
2.730780608412069e-002	2.027490e+000	1.013745e+000
2.735780608412070e-002	2.027490e+000	1.013745e+000
2.740780608412070e-002	2.027490e+000	1.013745e+000
2.745780608412070e-002	2.027490e+000	1.013745e+000
2.755780608412070e-002	2.027490e+000	1.013745e+000
2.760780608412070e-002	2.027490e+000	1.013745e+000
2.765780608412070e-002	2.027490e+000	1.013745e+000
2.770780608412071e-002	2.027490e+000	1.013745e+000
2.775780608412071e-002	2.027490e+000	1.013745e+000
2.780780608412071e-002	2.027490e+000	1.013745e+000
2.785780608412071e-002	2.027490e+000	1.013745e+000
2.790780608412071e-002	2.027490e+000	1.013745e+000
2.795780608412071e-002	2.027490e+000	1.013745e+000
2.805780608412072e-002	2.027490e+000	1.013745e+000
2.810780608412072e-002	2.027490e+000	1.013745e+000
2.815780608412072e-002	2.027490e+000	1.013745e+000
2.820780608412072e-002	2.027490e+000	1.013745e+000
2.825780608412072e-002	2.027490e+000	1.013745e+000
2.830780608412072e-002	2.027490e+000	1.013745e+000
2.835780608412072e-002	2.027490e+000	1.013745e+000
2.840780608412073e-002	2.027490e+000	1.013745e+000
2.845780608412073e-002	2.027490e+000	1.013745e+000
2.850780608412073e-002	2.027490e+000	1.013745e+000
2.855780608412073e-002	2.027490e+000	1.013745e+000
2.860780608412073e-002	2.027490e+000	1.013745e+000
2.865780608412073e-002	2.027490e+000	1.013745e+000
2.870780608412073e-002	2.027490e+000	1.013745e+000
2.875780608412074e-002	2.027490e+000	1.013745e+000
2.880780608412074e-002	2.027490e+000	1.013745e+000
2.885780608412074e-002	2.027490e+000	1.013745e+000
2.890780608412074e-002	2.027490e+000	1.013745e+000
2.895780608412074e-002	2.027490e+000	1.013745e+000
2.900780608412074e-002	2.027490e+000	1.013745e+000
2.910780608412075e-002	2.027490e+000	1.013745e+000
2.915780608412075e-002	2.027490e+000	1.013745e+000
2.920780608412075e-002	2.027490e+000	1.013745e+000
2.925780608412075e-002	2.027490e+000	1.013745e+000
2.930780608412075e-002	2.027490e+000	1.013745e+000
2.935780608412075e-002	2.027490e+000	1.013745e+000
2.940780608412075e-002	2.027490e+000	1.013745e+000
2.945780608412076e-002	2.027490e+000	1.013745e+000
2.950780608412076e-002	2.027490e+000	1.013745e+000
2.960780608412076e-002	2.027490e+000	1.013745e+000
2.965780608412076e-002	2.027490e+000	1.013745e+000
2.970780608412076e-002	2.027490e+000	1.013745e+000
