time	V(vout)	V(n001)
0.000000000000000e+000	2.007463e+000	2.000000e+001
9.999999439624929e-011	2.951757e+000	2.094444e+001
1.124999936957805e-010	3.007296e+000	2.100000e+001
1.374999922948428e-010	3.007269e+000	2.100000e+001
1.874999894929674e-010	3.007215e+000	2.100000e+001
2.874999838892167e-010	3.007114e+000	2.100000e+001
4.874999726817153e-010	3.006928e+000	2.100000e+001
8.874999502667125e-010	3.006606e+000	2.100000e+001
1.687499905436707e-009	3.006056e+000	2.100000e+001
3.287499815776696e-009	3.005088e+000	2.100000e+001
6.487499636456673e-009	3.003256e+000	2.100000e+001
1.226017788439873e-007	2.942692e+000	2.099999e+001
2.387160580515180e-007	2.887574e+000	2.099998e+001
3.548303372590486e-007	2.837902e+000	2.099996e+001
4.709446164665792e-007	2.793675e+000	2.099995e+001
5.870588956741098e-007	2.754893e+000	2.099994e+001
7.031731748816405e-007	2.721557e+000	2.099993e+001
8.192874540891709e-007	2.693667e+000	2.099992e+001
1.638487408183245e-006	2.550507e+000	2.099984e+001
3.276887316371394e-006	2.429542e+000	2.099967e+001
5.195397697415725e-006	2.384613e+000	2.099948e+001
8.150988556154399e-006	2.361336e+000	2.099919e+001
1.261927711277060e-005	2.331823e+000	2.099874e+001
2.155585422600301e-005	2.275751e+000	2.099784e+001
3.155585422600301e-005	2.216274e+000	2.099685e+001
4.155585422600301e-005	2.157251e+000	2.099584e+001
5.155585422600301e-005	2.097909e+000	2.099484e+001
6.155585422600301e-005	2.046281e+000	2.099384e+001
7.155585422600301e-005	2.006411e+000	2.099284e+001
8.155585422600300e-005	1.970858e+000	2.099184e+001
9.155585422600300e-005	1.934072e+000	2.099084e+001
1.015558542260030e-004	1.897282e+000	2.098985e+001
1.115558542260030e-004	1.862317e+000	2.098884e+001
1.215558542260030e-004	1.829408e+000	2.098784e+001
1.315558542260030e-004	1.798368e+000	2.098685e+001
1.415558542260030e-004	1.773206e+000	2.098584e+001
1.515558542260030e-004	1.782828e+000	2.098484e+001
1.615558542260030e-004	1.857271e+000	2.098384e+001
1.715558542260030e-004	1.956651e+000	2.098285e+001
1.815558542260030e-004	2.014169e+000	2.098184e+001
1.915558542260030e-004	2.024638e+000	2.098084e+001
2.015558542260030e-004	2.017161e+000	2.097985e+001
2.115558542260030e-004	2.008855e+000	2.097884e+001
2.215558542260030e-004	2.004865e+000	2.097784e+001
2.315558542260030e-004	2.004744e+000	2.097684e+001
2.415558542260030e-004	2.006204e+000	2.097585e+001
2.515558542260030e-004	2.007446e+000	2.097484e+001
2.615558542260030e-004	2.007927e+000	2.097384e+001
2.715558542260031e-004	2.007861e+000	2.097285e+001
2.815558542260031e-004	2.007636e+000	2.097184e+001
2.915558542260031e-004	2.007481e+000	2.097084e+001
3.015558542260032e-004	2.007442e+000	2.096984e+001
3.115558542260032e-004	2.007468e+000	2.096885e+001
3.215558542260032e-004	2.007507e+000	2.096784e+001
3.415558542260033e-004	2.007536e+000	2.096585e+001
3.715558542260033e-004	2.007538e+000	2.096284e+001
4.015558542260034e-004	2.007541e+000	2.095984e+001
4.315558542260035e-004	2.007543e+000	2.095684e+001
4.615558542260036e-004	2.007545e+000	2.095384e+001
4.915558542260037e-004	2.007547e+000	2.095084e+001
5.215558542260038e-004	2.007549e+000	2.094784e+001
5.515558542260038e-004	2.007551e+000	2.094485e+001
8.072701399402902e-004	2.007550e+000	2.091927e+001
1.062984425654577e-003	2.007549e+000	2.089370e+001
1.318698711368863e-003	2.007547e+000	2.086813e+001
1.574412997083150e-003	2.007545e+000	2.084256e+001
1.830127282797436e-003	2.007543e+000	2.081699e+001
2.085841568511723e-003	2.007540e+000	2.079142e+001
2.341555854226008e-003	2.007537e+000	2.076584e+001
9.990000000000002e-003	2.007461e+000	2.000100e+001
1.000000000000000e-002	2.152470e+000	2.028551e+001
1.000751250219189e-002	2.329433e+000	2.075569e+001
1.001464776242585e-002	2.346247e+000	2.099854e+001
1.002061748109040e-002	2.299916e+000	2.099794e+001
1.002698546224702e-002	2.268265e+000	2.099730e+001
1.003442890919702e-002	2.220229e+000	2.099656e+001
1.004442890919702e-002	2.163359e+000	2.099556e+001
1.005442890919702e-002	2.103654e+000	2.099456e+001
1.006442890919702e-002	2.051735e+000	2.099356e+001
1.007442890919702e-002	2.010335e+000	2.099256e+001
1.008442890919702e-002	1.974382e+000	2.099156e+001
1.009442890919702e-002	1.937672e+000	2.099056e+001
1.010442890919702e-002	1.900813e+000	2.098956e+001
1.011442890919702e-002	1.865583e+000	2.098856e+001
1.012442890919702e-002	1.832531e+000	2.098756e+001
1.013442890919702e-002	1.801286e+000	2.098656e+001
1.014442890919702e-002	1.774408e+000	2.098556e+001
1.015442890919702e-002	1.778892e+000	2.098456e+001
1.016442890919701e-002	1.848751e+000	2.098356e+001
1.017442890919701e-002	1.949348e+000	2.098256e+001
1.018442890919701e-002	2.011395e+000	2.098156e+001
1.019442890919701e-002	2.024716e+000	2.098056e+001
1.020442890919701e-002	2.017899e+000	2.097956e+001
1.021442890919701e-002	2.009397e+000	2.097856e+001
1.022442890919701e-002	2.005032e+000	2.097756e+001
1.023442890919701e-002	2.004655e+000	2.097656e+001
1.024442890919701e-002	2.006070e+000	2.097556e+001
1.025442890919701e-002	2.007385e+000	2.097456e+001
1.026442890919701e-002	2.007933e+000	2.097356e+001
1.027442890919701e-002	2.007889e+000	2.097256e+001
1.028442890919701e-002	2.007655e+000	2.097156e+001
1.029442890919701e-002	2.007486e+000	2.097056e+001
1.030442890919701e-002	2.007438e+000	2.096956e+001
1.031442890919701e-002	2.007464e+000	2.096856e+001
1.032442890919701e-002	2.007504e+000	2.096756e+001
1.034442890919701e-002	2.007536e+000	2.096556e+001
1.036871462348272e-002	2.007538e+000	2.096313e+001
1.039300033776843e-002	2.007539e+000	2.096070e+001
1.041728605205415e-002	2.007541e+000	2.095827e+001
1.044157176633986e-002	2.007543e+000	2.095584e+001
1.046585748062557e-002	2.007545e+000	2.095341e+001
1.049014319491129e-002	2.007547e+000	2.095099e+001
1.051442890919700e-002	2.007550e+000	2.094856e+001
1.065300033776842e-002	2.007551e+000	2.093470e+001
1.079157176633985e-002	2.007551e+000	2.092084e+001
1.093014319491127e-002	2.007551e+000	2.090699e+001
1.106871462348269e-002	2.007550e+000	2.089313e+001
1.120728605205412e-002	2.007549e+000	2.087927e+001
1.134585748062554e-002	2.007547e+000	2.086541e+001
1.148442890919696e-002	2.007545e+000	2.085156e+001
1.999000000000003e-002	2.007461e+000	2.000100e+001
2.000000000000003e-002	2.157707e+000	2.029201e+001
2.000712299771906e-002	2.334411e+000	2.075736e+001
2.001380052401754e-002	2.351861e+000	2.099862e+001
2.001950176205656e-002	2.305407e+000	2.099805e+001
2.002565330373375e-002	2.275050e+000	2.099743e+001
2.003281573831571e-002	2.228303e+000	2.099672e+001
2.004281573831571e-002	2.171549e+000	2.099572e+001
2.005281573831571e-002	2.111830e+000	2.099472e+001
2.006281573831571e-002	2.058404e+000	2.099372e+001
2.007281573831571e-002	2.015502e+000	2.099272e+001
2.008281573831571e-002	1.979434e+000	2.099172e+001
2.009281573831571e-002	1.942944e+000	2.099072e+001
2.010281573831571e-002	1.905912e+000	2.098972e+001
2.011281573831571e-002	1.870383e+000	2.098872e+001
2.012281573831571e-002	1.837048e+000	2.098772e+001
2.013281573831571e-002	1.805551e+000	2.098672e+001
2.014281573831571e-002	1.776836e+000	2.098572e+001
2.015281573831571e-002	1.774598e+000	2.098472e+001
2.016281573831570e-002	1.836192e+000	2.098372e+001
2.017281573831570e-002	1.936508e+000	2.098272e+001
2.018281573831570e-002	2.005611e+000	2.098172e+001
2.019281573831570e-002	2.024470e+000	2.098072e+001
2.020281573831570e-002	2.019209e+000	2.097972e+001
2.021281573831570e-002	2.010482e+000	2.097872e+001
2.022281573831570e-002	2.005443e+000	2.097772e+001
2.023281573831570e-002	2.004575e+000	2.097672e+001
2.024281573831570e-002	2.005850e+000	2.097572e+001
2.025281573831570e-002	2.007236e+000	2.097472e+001
2.026281573831570e-002	2.007894e+000	2.097372e+001
2.027281573831570e-002	2.007911e+000	2.097272e+001
2.028281573831570e-002	2.007688e+000	2.097172e+001
2.029281573831570e-002	2.007503e+000	2.097072e+001
2.030281573831570e-002	2.007440e+000	2.096972e+001
2.031281573831570e-002	2.007459e+000	2.096872e+001
2.032281573831570e-002	2.007499e+000	2.096772e+001
2.034281573831570e-002	2.007536e+000	2.096572e+001
2.036567288117284e-002	2.007537e+000	2.096343e+001
2.038853002402998e-002	2.007538e+000	2.096115e+001
2.041138716688712e-002	2.007540e+000	2.095886e+001
2.043424430974427e-002	2.007542e+000	2.095658e+001
2.045710145260141e-002	2.007544e+000	2.095429e+001
2.047995859545855e-002	2.007546e+000	2.095200e+001
2.050281573831569e-002	2.007549e+000	2.094972e+001
2.062424430974426e-002	2.007550e+000	2.093758e+001
2.074567288117282e-002	2.007551e+000	2.092543e+001
2.086710145260139e-002	2.007551e+000	2.091329e+001
2.098853002402996e-002	2.007551e+000	2.090115e+001
2.110995859545852e-002	2.007550e+000	2.088900e+001
2.123138716688709e-002	2.007549e+000	2.087686e+001
2.135281573831566e-002	2.007547e+000	2.086472e+001
2.999000000000004e-002	2.007461e+000	2.000100e+001
3.000000000000004e-002	2.154688e+000	2.028828e+001
3.000734424142841e-002	2.331537e+000	2.075637e+001
3.001428247288390e-002	2.348647e+000	2.099857e+001
3.002013749282601e-002	2.302279e+000	2.099799e+001
3.002641328967405e-002	2.271168e+000	2.099736e+001
3.003373753152614e-002	2.223671e+000	2.099663e+001
3.004373753152614e-002	2.166853e+000	2.099563e+001
3.005373753152614e-002	2.107131e+000	2.099463e+001
3.006373753152614e-002	2.054560e+000	2.099363e+001
3.007373753152614e-002	2.012530e+000	2.099263e+001
3.008373753152614e-002	1.976543e+000	2.099163e+001
3.009373753152613e-002	1.939924e+000	2.099063e+001
3.010373753152613e-002	1.902986e+000	2.098963e+001
3.011373753152613e-002	1.867630e+000	2.098863e+001
3.012373753152613e-002	1.834457e+000	2.098763e+001
3.013373753152613e-002	1.803105e+000	2.098663e+001
3.014373753152613e-002	1.775325e+000	2.098563e+001
3.015373753152613e-002	1.776756e+000	2.098463e+001
3.016373753152613e-002	1.843230e+000	2.098363e+001
3.017373753152613e-002	1.944051e+000	2.098263e+001
3.018373753152613e-002	2.009179e+000	2.098163e+001
3.019373753152613e-002	2.024731e+000	2.098063e+001
3.020373753152613e-002	2.018476e+000	2.097963e+001
3.021373753152613e-002	2.009834e+000	2.097863e+001
3.022373753152613e-002	2.005178e+000	2.097763e+001
3.023373753152613e-002	2.004606e+000	2.097663e+001
3.024373753152613e-002	2.005974e+000	2.097563e+001
3.025373753152613e-002	2.007325e+000	2.097463e+001
3.026373753152613e-002	2.007920e+000	2.097363e+001
3.027373753152613e-002	2.007900e+000	2.097263e+001
3.028373753152613e-002	2.007669e+000	2.097163e+001
3.029373753152613e-002	2.007493e+000	2.097063e+001
3.030373753152613e-002	2.007439e+000	2.096963e+001
3.031373753152613e-002	2.007462e+000	2.096863e+001
3.032373753152613e-002	2.007502e+000	2.096763e+001
3.034373753152612e-002	2.007536e+000	2.096563e+001
3.035659467438327e-002	2.007535e+000	2.096434e+001
3.036945181724041e-002	2.007535e+000	2.096305e+001
3.038230896009755e-002	2.007535e+000	2.096177e+001
3.039516610295470e-002	2.007536e+000	2.096048e+001
3.040802324581184e-002	2.007538e+000	2.095920e+001
3.042088038866898e-002	2.007540e+000	2.095791e+001
3.043373753152612e-002	2.007544e+000	2.095663e+001
3.044373753152612e-002	2.007545e+000	2.095563e+001
3.051659467438326e-002	2.007548e+000	2.094834e+001
3.058945181724040e-002	2.007550e+000	2.094105e+001
3.066230896009754e-002	2.007552e+000	2.093377e+001
3.073516610295468e-002	2.007553e+000	2.092648e+001
3.080802324581182e-002	2.007553e+000	2.091920e+001
3.088088038866896e-002	2.007552e+000	2.091191e+001
3.095373753152610e-002	2.007551e+000	2.090463e+001
3.999000000000006e-002	2.007461e+000	2.000100e+001
4.000000000000006e-002	2.156387e+000	2.029038e+001
4.000721864943032e-002	2.333152e+000	2.075692e+001
4.001400913787750e-002	2.350462e+000	2.099860e+001
4.001977729398304e-002	2.304051e+000	2.099802e+001
4.002598299777731e-002	2.273362e+000	2.099740e+001
4.003321610427220e-002	2.226286e+000	2.099668e+001
4.004321610427220e-002	2.169506e+000	2.099568e+001
4.005321610427221e-002	2.109781e+000	2.099468e+001
4.006321610427221e-002	2.056723e+000	2.099368e+001
4.007321610427221e-002	2.014205e+000	2.099268e+001
4.008321610427221e-002	1.978177e+000	2.099168e+001
4.009321610427222e-002	1.941630e+000	2.099068e+001
4.010321610427222e-002	1.904637e+000	2.098968e+001
4.011321610427222e-002	1.869184e+000	2.098868e+001
4.012321610427223e-002	1.835920e+000	2.098768e+001
4.013321610427223e-002	1.804486e+000	2.098668e+001
4.014321610427223e-002	1.776137e+000	2.098568e+001
4.015321610427224e-002	1.775442e+000	2.098468e+001
4.016321610427224e-002	1.839211e+000	2.098368e+001
4.017321610427224e-002	1.939826e+000	2.098268e+001
4.018321610427224e-002	2.007208e+000	2.098168e+001
4.019321610427225e-002	2.024627e+000	2.098068e+001
4.020321610427225e-002	2.018928e+000	2.097968e+001
4.021321610427225e-002	2.010215e+000	2.097868e+001
4.022321610427226e-002	2.005326e+000	2.097768e+001
4.023321610427226e-002	2.004580e+000	2.097668e+001
4.024321610427226e-002	2.005898e+000	2.097568e+001
4.025321610427227e-002	2.007273e+000	2.097468e+001
4.026321610427227e-002	2.007906e+000	2.097368e+001
4.027321610427227e-002	2.007908e+000	2.097268e+001
4.028321610427228e-002	2.007681e+000	2.097168e+001
4.029321610427228e-002	2.007499e+000	2.097068e+001
4.030321610427228e-002	2.007439e+000	2.096968e+001
4.031321610427228e-002	2.007460e+000	2.096868e+001
4.032321610427229e-002	2.007500e+000	2.096768e+001
4.034321610427229e-002	2.007536e+000	2.096568e+001
4.036607324712944e-002	2.007537e+000	2.096339e+001
4.038893038998660e-002	2.007538e+000	2.096111e+001
4.041178753284375e-002	2.007540e+000	2.095882e+001
4.043464467570089e-002	2.007542e+000	2.095653e+001
4.045750181855804e-002	2.007544e+000	2.095425e+001
4.048035896141519e-002	2.007547e+000	2.095196e+001
4.050321610427234e-002	2.007549e+000	2.094968e+001
4.066321610427239e-002	2.007552e+000	2.093368e+001
4.999000000000008e-002	2.007461e+000	2.000100e+001
5.000000000000009e-002	2.155418e+000	2.028918e+001
5.000728995838296e-002	2.332230e+000	2.075661e+001
5.001416440902414e-002	2.349429e+000	2.099858e+001
5.001998202066451e-002	2.303044e+000	2.099800e+001
5.002622766118897e-002	2.272114e+000	2.099738e+001
5.003351274131729e-002	2.224796e+000	2.099665e+001
5.004351274131730e-002	2.167995e+000	2.099565e+001
5.005351274131730e-002	2.108271e+000	2.099465e+001
5.006351274131730e-002	2.055489e+000	2.099365e+001
5.007351274131731e-002	2.013250e+000	2.099265e+001
5.008351274131731e-002	1.977247e+000	2.099165e+001
5.009351274131731e-002	1.940659e+000	2.099065e+001
5.010351274131732e-002	1.903697e+000	2.098965e+001
5.011351274131732e-002	1.868299e+000	2.098865e+001
5.012351274131732e-002	1.835087e+000	2.098765e+001
5.013351274131733e-002	1.803699e+000	2.098665e+001
5.014351274131733e-002	1.775661e+000	2.098565e+001
5.015351274131733e-002	1.776159e+000	2.098465e+001
5.016351274131733e-002	1.841492e+000	2.098365e+001
5.017351274131734e-002	1.942261e+000	2.098265e+001
5.018351274131734e-002	2.008354e+000	2.098165e+001
5.019351274131734e-002	2.024689e+000	2.098065e+001
5.020351274131735e-002	2.018665e+000	2.097965e+001
5.021351274131735e-002	2.009993e+000	2.097865e+001
5.022351274131735e-002	2.005240e+000	2.097765e+001
5.023351274131736e-002	2.004595e+000	2.097665e+001
5.024351274131736e-002	2.005943e+000	2.097565e+001
5.025351274131736e-002	2.007303e+000	2.097465e+001
5.026351274131737e-002	2.007914e+000	2.097365e+001
5.027351274131737e-002	2.007903e+000	2.097265e+001
5.028351274131737e-002	2.007674e+000	2.097165e+001
5.029351274131737e-002	2.007495e+000	2.097065e+001
5.030351274131738e-002	2.007439e+000	2.096965e+001
5.031351274131738e-002	2.007461e+000	2.096865e+001
5.032351274131738e-002	2.007501e+000	2.096765e+001
5.034351274131739e-002	2.007536e+000	2.096565e+001
5.036636988417454e-002	2.007537e+000	2.096336e+001
5.038922702703169e-002	2.007539e+000	2.096108e+001
5.041208416988884e-002	2.007540e+000	2.095879e+001
5.043494131274599e-002	2.007542e+000	2.095651e+001
5.045779845560314e-002	2.007544e+000	2.095422e+001
5.048065559846029e-002	2.007547e+000	2.095193e+001
5.050351274131744e-002	2.007549e+000	2.094965e+001
5.055636988417460e-002	2.007551e+000	2.094436e+001
5.060922702703176e-002	2.007552e+000	2.093908e+001
5.066208416988892e-002	2.007552e+000	2.093379e+001
5.071494131274607e-002	2.007552e+000	2.092851e+001
5.076779845560323e-002	2.007552e+000	2.092322e+001
5.082065559846039e-002	2.007552e+000	2.091793e+001
5.087351274131755e-002	2.007551e+000	2.091265e+001
5.088351274131756e-002	2.007551e+000	2.091165e+001
5.999000000000011e-002	2.007461e+000	2.000100e+001
6.000000000000011e-002	2.155967e+000	2.028986e+001
6.000724947724145e-002	2.332752e+000	2.075678e+001
6.001407628894328e-002	2.350014e+000	2.099859e+001
6.001986586966769e-002	2.303615e+000	2.099801e+001
6.002608888402376e-002	2.272822e+000	2.099739e+001
6.003334453336087e-002	2.225640e+000	2.099667e+001
6.004334453336087e-002	2.168851e+000	2.099566e+001
6.005334453336087e-002	2.109127e+000	2.099467e+001
6.006334453336087e-002	2.056188e+000	2.099367e+001
6.007334453336088e-002	2.013791e+000	2.099267e+001
6.008334453336088e-002	1.977775e+000	2.099166e+001
6.009334453336088e-002	1.941209e+000	2.099067e+001
6.010334453336089e-002	1.904230e+000	2.098967e+001
6.011334453336089e-002	1.868800e+000	2.098866e+001
6.012334453336089e-002	1.835559e+000	2.098767e+001
6.013334453336090e-002	1.804145e+000	2.098667e+001
6.014334453336090e-002	1.775927e+000	2.098567e+001
6.015334453336090e-002	1.775743e+000	2.098466e+001
6.016334453336091e-002	1.840196e+000	2.098367e+001
6.017334453336091e-002	1.940890e+000	2.098267e+001
6.018334453336091e-002	2.007713e+000	2.098166e+001
6.019334453336091e-002	2.024654e+000	2.098067e+001
6.020334453336092e-002	2.018812e+000	2.097967e+001
6.021334453336092e-002	2.010117e+000	2.097867e+001
6.022334453336092e-002	2.005288e+000	2.097766e+001
6.023334453336093e-002	2.004587e+000	2.097667e+001
6.024334453336093e-002	2.005918e+000	2.097567e+001
6.025334453336093e-002	2.007286e+000	2.097466e+001
6.026334453336094e-002	2.007910e+000	2.097367e+001
6.027334453336094e-002	2.007906e+000	2.097267e+001
6.028334453336094e-002	2.007678e+000	2.097167e+001
6.029334453336094e-002	2.007497e+000	2.097066e+001
6.030334453336095e-002	2.007439e+000	2.096967e+001
6.031334453336095e-002	2.007460e+000	2.096867e+001
6.032334453336095e-002	2.007501e+000	2.096766e+001
6.034334453336096e-002	2.007536e+000	2.096567e+001
6.036620167621811e-002	2.007537e+000	2.096338e+001
6.038905881907526e-002	2.007539e+000	2.096109e+001
6.041191596193241e-002	2.007540e+000	2.095881e+001
6.043477310478956e-002	2.007542e+000	2.095652e+001
6.045763024764671e-002	2.007544e+000	2.095424e+001
6.048048739050386e-002	2.007547e+000	2.095195e+001
6.050334453336101e-002	2.007549e+000	2.094967e+001
6.058763024764675e-002	2.007551e+000	2.094124e+001
6.067191596193249e-002	2.007552e+000	2.093281e+001
6.075620167621823e-002	2.007552e+000	2.092438e+001
6.084048739050397e-002	2.007552e+000	2.091595e+001
6.092477310478971e-002	2.007552e+000	2.090752e+001
6.100905881907545e-002	2.007551e+000	2.089909e+001
6.109334453336119e-002	2.007549e+000	2.089067e+001
6.110334453336119e-002	2.007549e+000	2.088967e+001
6.999000000000014e-002	2.007461e+000	2.000100e+001
7.000000000000012e-002	2.155654e+000	2.028948e+001
7.000727245976339e-002	2.332455e+000	2.075668e+001
7.001412632573199e-002	2.349682e+000	2.099859e+001
7.001993183468988e-002	2.303291e+000	2.099801e+001
7.002616770915283e-002	2.272419e+000	2.099738e+001
7.003344009116043e-002	2.225161e+000	2.099666e+001
7.004344009116043e-002	2.168365e+000	2.099566e+001
7.005344009116042e-002	2.108640e+000	2.099466e+001
7.006344009116042e-002	2.055790e+000	2.099366e+001
7.007344009116041e-002	2.013483e+000	2.099266e+001
7.008344009116041e-002	1.977475e+000	2.099166e+001
7.009344009116041e-002	1.940897e+000	2.099066e+001
7.010344009116040e-002	1.903927e+000	2.098966e+001
7.011344009116040e-002	1.868515e+000	2.098866e+001
7.012344009116039e-002	1.835291e+000	2.098766e+001
7.013344009116039e-002	1.803892e+000	2.098666e+001
7.014344009116039e-002	1.775774e+000	2.098566e+001
7.015344009116038e-002	1.775976e+000	2.098466e+001
