Freq.	V(Vout,N004)/-I(V3)-V(n004)/I(Rl)
1.00000000000000e-001	(-2.52716000151300e+001dB,4.66056098341738e-004°)
1.00230523807790e-001	(-2.52716000151293e+001dB,4.67130468606055e-004°)
1.00461579027840e-001	(-2.52716000151274e+001dB,4.68207315549555e-004°)
1.00693166885180e-001	(-2.52716000151260e+001dB,4.69286644881673e-004°)
1.00925288607668e-001	(-2.52716000151247e+001dB,4.70368462324838e-004°)
1.01157945425990e-001	(-2.52716000151233e+001dB,4.71452773614791e-004°)
1.01391138573668e-001	(-2.52716000151231e+001dB,4.72539584500462e-004°)
1.01624869287070e-001	(-2.52716000151217e+001dB,4.73628900743925e-004°)
1.01859138805412e-001	(-2.52716000151198e+001dB,4.74720728120640e-004°)
1.02093948370768e-001	(-2.52716000151184e+001dB,4.75815072419427e-004°)
1.02329299228075e-001	(-2.52716000151176e+001dB,4.76911939442376e-004°)
1.02565192625141e-001	(-2.52716000151157e+001dB,4.78011335004907e-004°)
1.02801629812647e-001	(-2.52716000151143e+001dB,4.79113264935972e-004°)
1.03038612044162e-001	(-2.52716000151129e+001dB,4.80217735077875e-004°)
1.03276140576140e-001	(-2.52716000151109e+001dB,4.81324751286383e-004°)
1.03514216667934e-001	(-2.52716000151095e+001dB,4.82434319430825e-004°)
1.03752841581801e-001	(-2.52716000151081e+001dB,4.83546445394023e-004°)
1.03992016582906e-001	(-2.52716000151066e+001dB,4.84661135072316e-004°)
1.04231742939330e-001	(-2.52716000151063e+001dB,4.85778394375765e-004°)
1.04472021922080e-001	(-2.52716000151043e+001dB,4.86898229227822e-004°)
1.04712854805090e-001	(-2.52716000151023e+001dB,4.88020645565819e-004°)
1.04954242865232e-001	(-2.52716000151014e+001dB,4.89145649340756e-004°)
1.05196187382322e-001	(-2.52716000151000e+001dB,4.90273246517195e-004°)
1.05438689639126e-001	(-2.52716000150985e+001dB,4.91403443073588e-004°)
1.05681750921366e-001	(-2.52716000150970e+001dB,4.92536245002121e-004°)
1.05925372517729e-001	(-2.52716000150955e+001dB,4.93671658308783e-004°)
1.06169555719872e-001	(-2.52716000150935e+001dB,4.94809689013407e-004°)
1.06414301822431e-001	(-2.52716000150920e+001dB,4.95950343149774e-004°)
1.06659612123026e-001	(-2.52716000150910e+001dB,4.97093626765540e-004°)
1.06905487922266e-001	(-2.52716000150895e+001dB,4.98239545922164e-004°)
1.07151930523760e-001	(-2.52716000150869e+001dB,4.99388106695225e-004°)
1.07398941234124e-001	(-2.52716000150859e+001dB,5.00539315174402e-004°)
1.07646521362983e-001	(-2.52716000150844e+001dB,5.01693177463177e-004°)
1.07894672222983e-001	(-2.52716000150829e+001dB,5.02849699679222e-004°)
1.08143395129794e-001	(-2.52716000150819e+001dB,5.04008887954360e-004°)
1.08392691402120e-001	(-2.52716000150803e+001dB,5.05170748434405e-004°)
1.08642562361706e-001	(-2.52716000150782e+001dB,5.06335287279439e-004°)
1.08893009333343e-001	(-2.52716000150766e+001dB,5.07502510663815e-004°)
1.09144033644875e-001	(-2.52716000150751e+001dB,5.08672424775959e-004°)
1.09395636627209e-001	(-2.52716000150735e+001dB,5.09845035818661e-004°)
1.09647819614318e-001	(-2.52716000150719e+001dB,5.11020350009004e-004°)
1.09900583943252e-001	(-2.52716000150697e+001dB,5.12198373578321e-004°)
1.10153930954141e-001	(-2.52716000150693e+001dB,5.13379112772543e-004°)
1.10407861990207e-001	(-2.52716000150671e+001dB,5.14562573851603e-004°)
1.10662378397766e-001	(-2.52716000150649e+001dB,5.15748763090215e-004°)
1.10917481526240e-001	(-2.52716000150639e+001dB,5.16937686777489e-004°)
1.11173172728159e-001	(-2.52716000150622e+001dB,5.18129351216885e-004°)
1.11429453359173e-001	(-2.52716000150606e+001dB,5.19323762726517e-004°)
1.11686324778056e-001	(-2.52716000150589e+001dB,5.20520927639047e-004°)
1.11943788346715e-001	(-2.52716000150578e+001dB,5.21720852301745e-004°)
1.12201845430196e-001	(-2.52716000150562e+001dB,5.22923543076445e-004°)
1.12460497396692e-001	(-2.52716000150534e+001dB,5.24129006339656e-004°)
1.12719745617551e-001	(-2.52716000150528e+001dB,5.25337248482783e-004°)
1.12979591467279e-001	(-2.52716000150506e+001dB,5.26548275911635e-004°)
1.13240036323555e-001	(-2.52716000150489e+001dB,5.27762095047035e-004°)
1.13501081567231e-001	(-2.52716000150466e+001dB,5.28978712324514e-004°)
1.13762728582343e-001	(-2.52716000150461e+001dB,5.30198134194567e-004°)
1.14024978756117e-001	(-2.52716000150438e+001dB,5.31420367122231e-004°)
1.14287833478977e-001	(-2.52716000150415e+001dB,5.32645417587794e-004°)
1.14551294144553e-001	(-2.52716000150403e+001dB,5.33873292086400e-004°)
1.14815362149688e-001	(-2.52716000150386e+001dB,5.35103997128013e-004°)
1.15080038894443e-001	(-2.52716000150368e+001dB,5.36337539237757e-004°)
1.15345325782109e-001	(-2.52716000150351e+001dB,5.37573924955740e-004°)
1.15611224219209e-001	(-2.52716000150333e+001dB,5.38813160837159e-004°)
1.15877735615512e-001	(-2.52716000150310e+001dB,5.40055253452293e-004°)
1.16144861384034e-001	(-2.52716000150298e+001dB,5.41300209386680e-004°)
1.16412602941049e-001	(-2.52716000150280e+001dB,5.42548035240860e-004°)
1.16680961706096e-001	(-2.52716000150250e+001dB,5.43798737630631e-004°)
1.16949939101987e-001	(-2.52716000150232e+001dB,5.45052323187264e-004°)
1.17219536554813e-001	(-2.52716000150220e+001dB,5.46308798557093e-004°)
1.17489755493952e-001	(-2.52716000150202e+001dB,5.47568170401740e-004°)
1.17760597352080e-001	(-2.52716000150189e+001dB,5.48830445398354e-004°)
1.18032063565172e-001	(-2.52716000150171e+001dB,5.50095630239319e-004°)
1.18304155572516e-001	(-2.52716000150146e+001dB,5.51363731632505e-004°)
1.18576874816716e-001	(-2.52716000150133e+001dB,5.52634756301401e-004°)
1.18850222743701e-001	(-2.52716000150104e+001dB,5.53908710984652e-004°)
1.19124200802737e-001	(-2.52716000150085e+001dB,5.55185602436808e-004°)
1.19398810446427e-001	(-2.52716000150072e+001dB,5.56465437427800e-004°)
1.19674053130724e-001	(-2.52716000150053e+001dB,5.57748222743113e-004°)
1.19949930314937e-001	(-2.52716000150034e+001dB,5.59033965183987e-004°)
1.20226443461741e-001	(-2.52716000150003e+001dB,5.60322671567220e-004°)
1.20503594037179e-001	(-2.52716000149990e+001dB,5.61614348725559e-004°)
1.20781383510677e-001	(-2.52716000149976e+001dB,5.62909003507293e-004°)
1.21059813355048e-001	(-2.52716000149951e+001dB,5.64206642776462e-004°)
1.21338885046497e-001	(-2.52716000149937e+001dB,5.65507273413144e-004°)
1.21618600064636e-001	(-2.52716000149918e+001dB,5.66810902313068e-004°)
1.21898959892486e-001	(-2.52716000149898e+001dB,5.68117536387950e-004°)
1.22179966016487e-001	(-2.52716000149873e+001dB,5.69427182565427e-004°)
1.22461619926504e-001	(-2.52716000149853e+001dB,5.70739847789189e-004°)
1.22743923115840e-001	(-2.52716000149833e+001dB,5.72055539018796e-004°)
1.23026877081238e-001	(-2.52716000149819e+001dB,5.73374263229964e-004°)
1.23310483322890e-001	(-2.52716000149793e+001dB,5.74696027414332e-004°)
1.23594743344450e-001	(-2.52716000149773e+001dB,5.76020838579853e-004°)
1.23879658653036e-001	(-2.52716000149753e+001dB,5.77348703750530e-004°)
1.24165230759240e-001	(-2.52716000149732e+001dB,5.78679629966551e-004°)
1.24451461177138e-001	(-2.52716000149718e+001dB,5.80013624284395e-004°)
1.24738351424294e-001	(-2.52716000149697e+001dB,5.81350693776698e-004°)
1.25025903021771e-001	(-2.52716000149671e+001dB,5.82690845532490e-004°)
1.25314117494141e-001	(-2.52716000149661e+001dB,5.84034086657219e-004°)
1.25602996369487e-001	(-2.52716000149629e+001dB,5.85380424272415e-004°)
1.25892541179416e-001	(-2.52716000149608e+001dB,5.86729865516413e-004°)
1.26182753459066e-001	(-2.52716000149593e+001dB,5.88082417543785e-004°)
1.26473634747114e-001	(-2.52716000149572e+001dB,5.89438087525553e-004°)
1.26765186585784e-001	(-2.52716000149551e+001dB,5.90796882649378e-004°)
1.27057410520853e-001	(-2.52716000149529e+001dB,5.92158810119474e-004°)
1.27350308101665e-001	(-2.52716000149502e+001dB,5.93523877156595e-004°)
1.27643880881134e-001	(-2.52716000149486e+001dB,5.94892090998299e-004°)
1.27938130415752e-001	(-2.52716000149459e+001dB,5.96263458898570e-004°)
1.28233058265601e-001	(-2.52716000149437e+001dB,5.97637988128376e-004°)
1.28528665994361e-001	(-2.52716000149416e+001dB,5.99015685975300e-004°)
1.28824955169313e-001	(-2.52716000149399e+001dB,6.00396559743812e-004°)
1.29121927361353e-001	(-2.52716000149372e+001dB,6.01780616755047e-004°)
1.29419584144998e-001	(-2.52716000149344e+001dB,6.03167864347193e-004°)
1.29717927098395e-001	(-2.52716000149333e+001dB,6.04558309875413e-004°)
1.30016957803328e-001	(-2.52716000149305e+001dB,6.05951960711521e-004°)
1.30316677845229e-001	(-2.52716000149283e+001dB,6.07348824244617e-004°)
1.30617088813183e-001	(-2.52716000149254e+001dB,6.08748907880689e-004°)
1.30918192299940e-001	(-2.52716000149237e+001dB,6.10152219042951e-004°)
1.31219989901919e-001	(-2.52716000149215e+001dB,6.11558765171494e-004°)
1.31522483219223e-001	(-2.52716000149192e+001dB,6.12968553723724e-004°)
1.31825673855640e-001	(-2.52716000149169e+001dB,6.14381592174235e-004°)
1.32129563418657e-001	(-2.52716000149151e+001dB,6.15797888014798e-004°)
1.32434153519466e-001	(-2.52716000149123e+001dB,6.17217448754379e-004°)
1.32739445772973e-001	(-2.52716000149099e+001dB,6.18640281919480e-004°)
1.33045441797808e-001	(-2.52716000149076e+001dB,6.20066395053784e-004°)
1.33352143216331e-001	(-2.52716000149053e+001dB,6.21495795718378e-004°)
1.33659551654643e-001	(-2.52716000149023e+001dB,6.22928491491764e-004°)
1.33967668742593e-001	(-2.52716000149000e+001dB,6.24364489970038e-004°)
1.34276496113785e-001	(-2.52716000148981e+001dB,6.25803798766744e-004°)
1.34586035405594e-001	(-2.52716000148952e+001dB,6.27246425512788e-004°)
1.34896288259164e-001	(-2.52716000148928e+001dB,6.28692377856992e-004°)
1.35207256319427e-001	(-2.52716000148904e+001dB,6.30141663465608e-004°)
1.35518941235103e-001	(-2.52716000148879e+001dB,6.31594290022588e-004°)
1.35831344658714e-001	(-2.52716000148855e+001dB,6.33050265229594e-004°)
1.36144468246594e-001	(-2.52716000148836e+001dB,6.34509596806139e-004°)
1.36458313658891e-001	(-2.52716000148800e+001dB,6.35972292489298e-004°)
1.36772882559584e-001	(-2.52716000148787e+001dB,6.37438360034403e-004°)
1.37088176616484e-001	(-2.52716000148757e+001dB,6.38907807214110e-004°)
1.37404197501250e-001	(-2.52716000148737e+001dB,6.40380641819489e-004°)
1.37720946889394e-001	(-2.52716000148707e+001dB,6.41856871659189e-004°)
1.38038426460287e-001	(-2.52716000148687e+001dB,6.43336504560191e-004°)
1.38356637897177e-001	(-2.52716000148662e+001dB,6.44819548367307e-004°)
1.38675582887188e-001	(-2.52716000148631e+001dB,6.46306010943402e-004°)
1.38995263121334e-001	(-2.52716000148605e+001dB,6.47795900169692e-004°)
1.39315680294529e-001	(-2.52716000148580e+001dB,6.49289223945339e-004°)
1.39636836105593e-001	(-2.52716000148554e+001dB,6.50785990187822e-004°)
1.39958732257261e-001	(-2.52716000148528e+001dB,6.52286206832817e-004°)
1.40281370456195e-001	(-2.52716000148502e+001dB,6.53789881834371e-004°)
1.40604752412990e-001	(-2.52716000148476e+001dB,6.55297023164794e-004°)
1.40928879842186e-001	(-2.52716000148450e+001dB,6.56807638814801e-004°)
1.41253754462274e-001	(-2.52716000148423e+001dB,6.58321736793522e-004°)
1.41579377995707e-001	(-2.52716000148403e+001dB,6.59839325128581e-004°)
1.41905752168908e-001	(-2.52716000148376e+001dB,6.61360411866018e-004°)
1.42232878712281e-001	(-2.52716000148338e+001dB,6.62885005070482e-004°)
1.42560759360218e-001	(-2.52716000148311e+001dB,6.64413112825303e-004°)
1.42889395851109e-001	(-2.52716000148284e+001dB,6.65944743232295e-004°)
1.43218789927353e-001	(-2.52716000148257e+001dB,6.67479904412026e-004°)
1.43548943335364e-001	(-2.52716000148236e+001dB,6.69018604503799e-004°)
1.43879857825583e-001	(-2.52716000148203e+001dB,6.70560851665535e-004°)
1.44211535152486e-001	(-2.52716000148175e+001dB,6.72106654074234e-004°)
1.44543977074591e-001	(-2.52716000148153e+001dB,6.73656019925497e-004°)
1.44877185354475e-001	(-2.52716000148120e+001dB,6.75208957433855e-004°)
1.45211161758773e-001	(-2.52716000148092e+001dB,6.76765474832926e-004°)
1.45545908058195e-001	(-2.52716000148064e+001dB,6.78325580375164e-004°)
1.45881426027534e-001	(-2.52716000148036e+001dB,6.79889282332118e-004°)
1.46217717445671e-001	(-2.52716000148008e+001dB,6.81456588994366e-004°)
1.46554784095590e-001	(-2.52716000147979e+001dB,6.83027508671614e-004°)
1.46892627764385e-001	(-2.52716000147951e+001dB,6.84602049692690e-004°)
1.47231250243271e-001	(-2.52716000147928e+001dB,6.86180220405737e-004°)
1.47570653327588e-001	(-2.52716000147893e+001dB,6.87762029177928e-004°)
1.47910838816819e-001	(-2.52716000147865e+001dB,6.89347484395964e-004°)
1.48251808514594e-001	(-2.52716000147836e+001dB,6.90936594465756e-004°)
1.48593564228699e-001	(-2.52716000147812e+001dB,6.92529367812610e-004°)
1.48936107771090e-001	(-2.52716000147777e+001dB,6.94125812881146e-004°)
1.49279440957898e-001	(-2.52716000147742e+001dB,6.95725938135672e-004°)
1.49623565609442e-001	(-2.52716000147718e+001dB,6.97329752059934e-004°)
1.49968483550236e-001	(-2.52716000147688e+001dB,6.98937263157060e-004°)
1.50314196609001e-001	(-2.52716000147659e+001dB,7.00548479949997e-004°)
1.50660706618673e-001	(-2.52716000147623e+001dB,7.02163410981183e-004°)
1.51008015416413e-001	(-2.52716000147593e+001dB,7.03782064812930e-004°)
1.51356124843619e-001	(-2.52716000147563e+001dB,7.05404450027111e-004°)
1.51705036745932e-001	(-2.52716000147532e+001dB,7.07030575225463e-004°)
1.52054752973248e-001	(-2.52716000147507e+001dB,7.08660449029578e-004°)
1.52405275379728e-001	(-2.52716000147465e+001dB,7.10294080080734e-004°)
1.52756605823806e-001	(-2.52716000147435e+001dB,7.11931477040491e-004°)
1.53108746168202e-001	(-2.52716000147409e+001dB,7.13572648590099e-004°)
1.53461698279928e-001	(-2.52716000147373e+001dB,7.15217603430744e-004°)
1.53815464030302e-001	(-2.52716000147341e+001dB,7.16866350283980e-004°)
1.54170045294954e-001	(-2.52716000147316e+001dB,7.18518897891311e-004°)
1.54525443953840e-001	(-2.52716000147290e+001dB,7.20175255014283e-004°)
1.54881661891247e-001	(-2.52716000147252e+001dB,7.21835430434682e-004°)
1.55238700995807e-001	(-2.52716000147215e+001dB,7.23499432954670e-004°)
1.55596563160506e-001	(-2.52716000147189e+001dB,7.25167271396716e-004°)
1.55955250282694e-001	(-2.52716000147151e+001dB,7.26838954603366e-004°)
1.56314764264094e-001	(-2.52716000147119e+001dB,7.28514491437835e-004°)
1.56675107010813e-001	(-2.52716000147086e+001dB,7.30193890783625e-004°)
1.57036280433354e-001	(-2.52716000147065e+001dB,7.31877161544813e-004°)
1.57398286446620e-001	(-2.52716000147032e+001dB,7.33564312645769e-004°)
1.57761126969933e-001	(-2.52716000146994e+001dB,7.35255353031641e-004°)
1.58124803927037e-001	(-2.52716000146961e+001dB,7.36950291668251e-004°)
1.58489319246110e-001	(-2.52716000146928e+001dB,7.38649137541930e-004°)
1.58854674859776e-001	(-2.52716000146889e+001dB,7.40351899659747e-004°)
1.59220872705115e-001	(-2.52716000146849e+001dB,7.42058587049668e-004°)
1.59587914723672e-001	(-2.52716000146827e+001dB,7.43769208760471e-004°)
1.59955802861465e-001	(-2.52716000146793e+001dB,7.45483773861477e-004°)
1.60324539069002e-001	(-2.52716000146754e+001dB,7.47202291443183e-004°)
1.60694125301286e-001	(-2.52716000146720e+001dB,7.48924770617137e-004°)
1.61064563517825e-001	(-2.52716000146685e+001dB,7.50651220515635e-004°)
1.61435855682647e-001	(-2.52716000146645e+001dB,7.52381650292145e-004°)
1.61808003764305e-001	(-2.52716000146616e+001dB,7.54116069121355e-004°)
1.62181009735891e-001	(-2.52716000146582e+001dB,7.55854486198856e-004°)
1.62554875575047e-001	(-2.52716000146541e+001dB,7.57596910741546e-004°)
1.62929603263970e-001	(-2.52716000146512e+001dB,7.59343351987725e-004°)
1.63305194789432e-001	(-2.52716000146477e+001dB,7.61093819196712e-004°)
1.63681652142779e-001	(-2.52716000146441e+001dB,7.62848321649375e-004°)
1.64058977319952e-001	(-2.52716000146406e+001dB,7.64606868647911e-004°)
1.64437172321491e-001	(-2.52716000146370e+001dB,7.66369469515919e-004°)
1.64816239152549e-001	(-2.52716000146328e+001dB,7.68136133598532e-004°)
1.65196179822900e-001	(-2.52716000146298e+001dB,7.69906870262532e-004°)
1.65576996346951e-001	(-2.52716000146268e+001dB,7.71681688896135e-004°)
1.65958690743754e-001	(-2.52716000146225e+001dB,7.73460598909143e-004°)
1.66341265037015e-001	(-2.52716000146178e+001dB,7.75243609733183e-004°)
1.66724721255104e-001	(-2.52716000146152e+001dB,7.77030730821866e-004°)
1.67109061431069e-001	(-2.52716000146115e+001dB,7.78821971650045e-004°)
1.67494287602642e-001	(-2.52716000146067e+001dB,7.80617341714696e-004°)
1.67880401812254e-001	(-2.52716000146036e+001dB,7.82416850534883e-004°)
1.68267406107045e-001	(-2.52716000145992e+001dB,7.84220507651249e-004°)
1.68655302538872e-001	(-2.52716000145966e+001dB,7.86028322626837e-004°)
1.69044093164324e-001	(-2.52716000145923e+001dB,7.87840305046190e-004°)
1.69433780044731e-001	(-2.52716000145885e+001dB,7.89656464516441e-004°)
1.69824365246172e-001	(-2.52716000145853e+001dB,7.91476810666734e-004°)
1.70215850839493e-001	(-2.52716000145803e+001dB,7.93301353148125e-004°)
1.70608238900310e-001	(-2.52716000145770e+001dB,7.95130101634466e-004°)
1.71001531509027e-001	(-2.52716000145732e+001dB,7.96963065821404e-004°)
1.71395730750840e-001	(-2.52716000145693e+001dB,7.98800255427190e-004°)
1.71790838715757e-001	(-2.52716000145654e+001dB,8.00641680192384e-004°)
1.72186857498599e-001	(-2.52716000145609e+001dB,8.02487349880016e-004°)
1.72583789199018e-001	(-2.52716000145575e+001dB,8.04337274275809e-004°)
1.72981635921508e-001	(-2.52716000145536e+001dB,8.06191463187710e-004°)
1.73380399775412e-001	(-2.52716000145491e+001dB,8.08049926446436e-004°)
1.73780082874935e-001	(-2.52716000145456e+001dB,8.09912673905500e-004°)
1.74180687339159e-001	(-2.52716000145416e+001dB,8.11779715440930e-004°)
1.74582215292048e-001	(-2.52716000145370e+001dB,8.13651060951507e-004°)
1.74984668862463e-001	(-2.52716000145330e+001dB,8.15526720359098e-004°)
1.75388050184174e-001	(-2.52716000145289e+001dB,8.17406703608159e-004°)
1.75792361395867e-001	(-2.52716000145254e+001dB,8.19291020666233e-004°)
1.76197604641161e-001	(-2.52716000145207e+001dB,8.21179681523669e-004°)
1.76603782068614e-001	(-2.52716000145172e+001dB,8.23072696194077e-004°)
1.77010895831740e-001	(-2.52716000145125e+001dB,8.24970074713904e-004°)
1.77418948089014e-001	(-2.52716000145083e+001dB,8.26871827143038e-004°)
1.77827941003890e-001	(-2.52716000145042e+001dB,8.28777963564206e-004°)
1.78237876744807e-001	(-2.52716000145000e+001dB,8.30688494083687e-004°)
1.78648757485203e-001	(-2.52716000144952e+001dB,8.32603428830815e-004°)
1.79060585403527e-001	(-2.52716000144915e+001dB,8.34522777958516e-004°)
1.79473362683250e-001	(-2.52716000144867e+001dB,8.36446551642826e-004°)
1.79887091512876e-001	(-2.52716000144830e+001dB,8.38374760083578e-004°)
1.80301774085954e-001	(-2.52716000144787e+001dB,8.40307413503788e-004°)
1.80717412601090e-001	(-2.52716000144738e+001dB,8.42244522150198e-004°)
1.81134009261958e-001	(-2.52716000144695e+001dB,8.44186096293263e-004°)
1.81551566277311e-001	(-2.52716000144651e+001dB,8.46132146227008e-004°)
1.81970085860996e-001	(-2.52716000144608e+001dB,8.48082682269136e-004°)
1.82389570231961e-001	(-2.52716000144569e+001dB,8.50037714761247e-004°)
1.82810021614272e-001	(-2.52716000144514e+001dB,8.51997254068597e-004°)
1.83231442237119e-001	(-2.52716000144475e+001dB,8.53961310580726e-004°)
1.83653834334832e-001	(-2.52716000144431e+001dB,8.55929894710612e-004°)
1.84077200146893e-001	(-2.52716000144386e+001dB,8.57903016895627e-004°)
1.84501541917945e-001	(-2.52716000144341e+001dB,8.59880687597031e-004°)
1.84926861897805e-001	(-2.52716000144296e+001dB,8.61862917300216e-004°)
1.85353162341479e-001	(-2.52716000144245e+001dB,8.63849716514757e-004°)
1.85780445509167e-001	(-2.52716000144205e+001dB,8.65841095774618e-004°)
1.86208713666284e-001	(-2.52716000144159e+001dB,8.67837065637676e-004°)
1.86637969083464e-001	(-2.52716000144113e+001dB,8.69837636686510e-004°)
1.87068214036577e-001	(-2.52716000144061e+001dB,8.71842819527829e-004°)
1.87499450806739e-001	(-2.52716000144021e+001dB,8.73852624793070e-004°)
1.87931681680324e-001	(-2.52716000143974e+001dB,8.75867063137918e-004°)
1.88364908948977e-001	(-2.52716000143922e+001dB,8.77886145242657e-004°)
1.88799134909627e-001	(-2.52716000143886e+001dB,8.79909881812516e-004°)
