time	V(vout)	-I(Rl)
0.000000000000000e+000	2.007461e+000	2.027536e-010
2.000000000000000e-002	2.007461e+000	2.027536e-010
2.000007812500000e-002	5.363506e-001	2.474535e-001
2.000008148966788e-002	5.147028e-001	2.573514e-001
2.000008821900364e-002	5.511572e-001	2.755786e-001
2.000010167767517e-002	6.138103e-001	3.069052e-001
2.000012202716012e-002	6.776978e-001	3.388489e-001
2.000015333366516e-002	7.341794e-001	3.670897e-001
2.000019072559430e-002	7.749774e-001	3.874887e-001
2.000024117157511e-002	9.155013e-001	4.577506e-001
2.000031755546143e-002	1.579637e+000	7.898185e-001
2.000041114153329e-002	2.994192e+000	1.497096e+000
2.000042274153820e-002	3.207085e+000	1.603543e+000
2.000044594154803e-002	3.648006e+000	1.824003e+000
2.000049234156768e-002	4.475683e+000	2.237841e+000
2.000058514160698e-002	5.852791e+000	2.926395e+000
2.000072502658252e-002	7.431921e+000	3.715961e+000
2.000075980680585e-002	7.694784e+000	3.847392e+000
2.000082936725251e-002	7.993655e+000	3.996828e+000
2.000096848814582e-002	8.271701e+000	4.135850e+000
2.000119819045855e-002	8.248960e+000	4.124480e+000
2.000144917592340e-002	7.907238e+000	3.953619e+000
2.000177031491983e-002	7.330546e+000	3.665273e+000
2.000220261566212e-002	6.600336e+000	3.300168e+000
2.000292913830610e-002	5.594982e+000	2.797491e+000
2.000396462412006e-002	4.529980e+000	2.264990e+000
2.000551814155623e-002	3.330266e+000	1.665133e+000
2.000570734741821e-002	3.213660e+000	1.606830e+000
2.000608575914216e-002	3.019386e+000	1.509693e+000
2.000684258259006e-002	2.676891e+000	1.338445e+000
2.000835622948587e-002	2.142158e+000	1.071079e+000
2.001105462185764e-002	1.610793e+000	8.053964e-001
2.001402400593290e-002	1.569456e+000	7.847278e-001
2.001612206570668e-002	1.694486e+000	8.472432e-001
2.001836841867125e-002	1.702321e+000	8.511606e-001
2.002000361216343e-002	1.712143e+000	8.560715e-001
2.002165840895814e-002	1.804844e+000	9.024218e-001
2.002315563188643e-002	1.818705e+000	9.093525e-001
2.002434837811175e-002	1.778664e+000	8.893318e-001
2.002565918085000e-002	1.782790e+000	8.913950e-001
2.002730739947068e-002	1.817809e+000	9.089044e-001
2.002897195014644e-002	1.837459e+000	9.187297e-001
2.003068282526327e-002	1.858895e+000	9.294473e-001
2.003358585092871e-002	1.889653e+000	9.448265e-001
2.003758675326716e-002	1.920763e+000	9.603816e-001
2.004148635421164e-002	1.944946e+000	9.724730e-001
2.004672374311165e-002	1.965901e+000	9.829503e-001
2.005259729232187e-002	1.981964e+000	9.909819e-001
2.006011684580869e-002	1.993119e+000	9.965593e-001
2.007007945535361e-002	2.000859e+000	1.000430e+000
2.008363359763338e-002	2.005000e+000	1.002500e+000
2.010353819991588e-002	2.006789e+000	1.003395e+000
2.013408917774498e-002	2.007187e+000	1.003593e+000
2.018199192915535e-002	2.007167e+000	1.003584e+000
2.023199192915535e-002	2.007116e+000	1.003558e+000
2.028199192915535e-002	2.007105e+000	1.003552e+000
2.033199192915535e-002	2.007096e+000	1.003548e+000
2.043199192915536e-002	2.007080e+000	1.003540e+000
2.053913478629822e-002	2.007077e+000	1.003538e+000
2.064627764344108e-002	2.007074e+000	1.003537e+000
2.075342050058394e-002	2.007073e+000	1.003536e+000
2.086056335772680e-002	2.007071e+000	1.003536e+000
2.096770621486966e-002	2.007071e+000	1.003535e+000
2.107484907201252e-002	2.007071e+000	1.003535e+000
2.118199192915538e-002	2.007071e+000	1.003536e+000
2.123913478629824e-002	2.007068e+000	1.003534e+000
2.129627764344109e-002	2.007066e+000	1.003533e+000
2.135342050058395e-002	2.007065e+000	1.003533e+000
2.141056335772681e-002	2.007066e+000	1.003533e+000
2.146770621486967e-002	2.007068e+000	1.003534e+000
2.152484907201253e-002	2.007072e+000	1.003536e+000
2.158199192915539e-002	2.007077e+000	1.003538e+000
2.223199192915541e-002	2.007052e+000	1.003526e+000
2.233199192915541e-002	2.007081e+000	1.003540e+000
2.248199192915542e-002	2.007059e+000	1.003530e+000
2.258199192915542e-002	2.007080e+000	1.003540e+000
2.268199192915542e-002	2.007081e+000	1.003541e+000
2.278199192915542e-002	2.007081e+000	1.003540e+000
2.288199192915543e-002	2.007079e+000	1.003539e+000
2.298199192915543e-002	2.007075e+000	1.003537e+000
2.308199192915543e-002	2.007069e+000	1.003534e+000
2.318199192915544e-002	2.007061e+000	1.003531e+000
2.328199192915544e-002	2.007052e+000	1.003526e+000
2.338199192915544e-002	2.007076e+000	1.003538e+000
2.343199192915544e-002	2.007092e+000	1.003546e+000
2.353199192915545e-002	2.007080e+000	1.003540e+000
2.359627764344116e-002	2.007073e+000	1.003537e+000
2.366056335772688e-002	2.007069e+000	1.003535e+000
2.372484907201259e-002	2.007068e+000	1.003534e+000
2.378913478629831e-002	2.007069e+000	1.003535e+000
2.385342050058403e-002	2.007073e+000	1.003537e+000
2.391770621486974e-002	2.007080e+000	1.003540e+000
2.398199192915546e-002	2.007090e+000	1.003545e+000
2.403199192915546e-002	2.007106e+000	1.003553e+000
2.408199192915546e-002	2.007082e+000	1.003541e+000
2.430342050058404e-002	2.007076e+000	1.003538e+000
2.452484907201262e-002	2.007072e+000	1.003536e+000
2.474627764344119e-002	2.007071e+000	1.003536e+000
2.496770621486977e-002	2.007073e+000	1.003536e+000
2.518913478629835e-002	2.007077e+000	1.003538e+000
2.541056335772693e-002	2.007084e+000	1.003542e+000
2.563199192915551e-002	2.007094e+000	1.003547e+000
2.573199192915551e-002	2.007054e+000	1.003527e+000
2.583199192915551e-002	2.007097e+000	1.003549e+000
2.593199192915551e-002	2.007073e+000	1.003536e+000
2.653199192915553e-002	2.007056e+000	1.003528e+000
2.663199192915553e-002	2.007097e+000	1.003549e+000
2.673199192915554e-002	2.007056e+000	1.003528e+000
2.683199192915554e-002	2.007078e+000	1.003539e+000
2.712484907201269e-002	2.007080e+000	1.003540e+000
2.741770621486984e-002	2.007080e+000	1.003540e+000
2.771056335772699e-002	2.007078e+000	1.003539e+000
2.800342050058415e-002	2.007075e+000	1.003538e+000
2.829627764344130e-002	2.007070e+000	1.003535e+000
2.858913478629845e-002	2.007064e+000	1.003532e+000
2.888199192915560e-002	2.007056e+000	1.003528e+000
2.898199192915560e-002	2.007074e+000	1.003537e+000
2.921770621486990e-002	2.007071e+000	1.003536e+000
2.945342050058419e-002	2.007070e+000	1.003535e+000
2.968913478629848e-002	2.007071e+000	1.003536e+000
2.992484907201277e-002	2.007074e+000	1.003537e+000
3.016056335772707e-002	2.007078e+000	1.003539e+000
3.039627764344136e-002	2.007085e+000	1.003542e+000
3.063199192915565e-002	2.007092e+000	1.003546e+000
3.073199192915565e-002	2.007082e+000	1.003541e+000
3.403199192915574e-002	2.007057e+000	1.003529e+000
3.413199192915575e-002	2.007071e+000	1.003535e+000
3.466056335772719e-002	2.007073e+000	1.003536e+000
3.518913478629863e-002	2.007074e+000	1.003537e+000
3.571770621487008e-002	2.007075e+000	1.003538e+000
3.624627764344152e-002	2.007076e+000	1.003538e+000
3.677484907201296e-002	2.007076e+000	1.003538e+000
3.730342050058441e-002	2.007075e+000	1.003538e+000
3.783199192915585e-002	2.007075e+000	1.003537e+000
3.859627764344159e-002	2.007075e+000	1.003537e+000
3.936056335772732e-002	2.007075e+000	1.003538e+000
4.012484907201306e-002	2.007075e+000	1.003538e+000
4.088913478629880e-002	2.007075e+000	1.003538e+000
4.165342050058454e-002	2.007075e+000	1.003538e+000
4.241770621487027e-002	2.007075e+000	1.003538e+000
4.318199192915601e-002	2.007075e+000	1.003537e+000
4.788199192915614e-002	2.007075e+000	1.003537e+000
4.997203228337518e-002	2.007074e+000	1.003537e+000
4.998390314987442e-002	2.007128e+000	1.003564e+000
4.998993946867151e-002	2.007078e+000	1.003539e+000
4.999647881403502e-002	2.007071e+000	1.003535e+000
4.999999803505245e-002	2.007079e+000	1.003539e+000
4.999999999999983e-002	2.527513e+000	5.169748e-001
5.000000006140443e-002	2.930374e+000	3.345131e-001
5.000000018421365e-002	4.313769e+000	4.356906e-010
5.000000021491595e-002	4.603073e+000	4.649102e-010
5.000000027632055e-002	5.131372e+000	5.182684e-010
5.000000039912977e-002	6.084411e+000	6.145253e-010
5.000000064474819e-002	7.675545e+000	7.752299e-010
5.000000113598503e-002	1.032330e+001	1.042653e-009
5.000000122166400e-002	1.071292e+001	1.082005e-009
5.000000143586143e-002	1.156005e+001	1.167565e-009
5.000000152154040e-002	1.186886e+001	1.198755e-009
5.000000169289835e-002	1.244686e+001	1.257133e-009
5.000000203561423e-002	1.347189e+001	1.360661e-009
5.000000272104600e-002	1.513166e+001	1.528297e-009
5.000000408114903e-002	1.756710e+001	1.774277e-009
5.000000533394877e-002	1.903829e+001	1.922866e-009
5.000000650922998e-002	1.972753e+001	1.992480e-009
5.000000766458880e-002	1.993332e+001	2.013265e-009
5.000000997530642e-002	1.999078e+001	2.019068e-009
5.000001165459266e-002	2.000859e+001	2.020867e-009
5.000001254325288e-002	2.001456e+001	2.021470e-009
5.000001343044636e-002	2.001913e+001	2.021932e-009
5.000001460994199e-002	2.002405e+001	2.022429e-009
5.000001612716871e-002	2.002906e+001	2.022936e-009
5.000001796175772e-002	2.003374e+001	2.023407e-009
5.000001990570343e-002	2.003752e+001	2.023789e-009
5.000002204144869e-002	2.004067e+001	2.024108e-009
5.000002462662481e-002	2.004356e+001	2.024399e-009
5.000002761235321e-002	2.004603e+001	2.024648e-009
5.000003097534617e-002	2.004805e+001	2.024852e-009
5.000003448450131e-002	2.004954e+001	2.025003e-009
5.000003827529381e-002	2.005066e+001	2.025117e-009
5.000004219826554e-002	2.005144e+001	2.025196e-009
5.000004656704998e-002	2.005199e+001	2.025250e-009
5.000005122792091e-002	2.005231e+001	2.025283e-009
5.000005688890735e-002	2.005247e+001	2.025299e-009
5.000006343121637e-002	2.005245e+001	2.025297e-009
5.000007208853322e-002	2.005223e+001	2.025274e-009
5.000008274555390e-002	2.005179e+001	2.025230e-009
5.000009836851211e-002	2.005102e+001	2.025153e-009
5.000012089830978e-002	2.004988e+001	2.025037e-009
5.000014809280114e-002	2.004856e+001	2.024904e-009
5.000017525379519e-002	2.004734e+001	2.024781e-009
5.000020738992942e-002	2.004601e+001	2.024646e-009
5.000024495505349e-002	2.004458e+001	2.024502e-009
5.000029154099852e-002	2.004296e+001	2.024338e-009
5.000034526111683e-002	2.004125e+001	2.024166e-009
5.000041197106830e-002	2.003931e+001	2.023970e-009
5.000049119871083e-002	2.003717e+001	2.023754e-009
5.000059108891831e-002	2.003466e+001	2.023500e-009
5.000071177440003e-002	2.003177e+001	2.023208e-009
5.000086607075078e-002	2.002817e+001	2.022845e-009
5.000105600045939e-002	2.002368e+001	2.022391e-009
5.000130251248124e-002	2.001742e+001	2.021760e-009
5.000160985325886e-002	2.000813e+001	2.020821e-009
5.000200995149645e-002	1.999002e+001	2.018991e-009
5.000248491255215e-002	1.995097e+001	2.015048e-009
5.000278150190474e-002	1.990102e+001	2.010003e-009
5.000300117513167e-002	1.982694e+001	2.002522e-009
5.000329352263068e-002	1.966107e+001	1.985769e-009
5.000358460898048e-002	1.941426e+001	1.960840e-009
5.000390701159071e-002	1.903086e+001	1.922117e-009
5.000433337524161e-002	1.836255e+001	1.854617e-009
5.000486437389945e-002	1.731895e+001	1.749214e-009
5.000557608004265e-002	1.567011e+001	1.582681e-009
5.000650888558511e-002	1.339217e+001	1.352609e-009
5.000781028122652e-002	1.068031e+001	1.078711e-009
5.000925803409275e-002	8.848887e+000	8.937374e-010
5.001081417526865e-002	8.029403e+000	8.109695e-010
5.001227263527285e-002	7.704996e+000	7.782044e-010
5.001382628706736e-002	7.468362e+000	7.543044e-010
5.001693359065637e-002	7.093454e+000	7.164387e-010
5.002133436291677e-002	6.642005e+000	6.708423e-010
5.002555080997739e-002	6.252033e+000	6.314551e-010
5.003047193213297e-002	5.824489e+000	5.882732e-010
5.003613116533794e-002	5.353922e+000	5.407460e-010
5.004410360227411e-002	4.719147e+000	4.766338e-010
5.005375057266810e-002	3.987145e+000	4.027017e-010
5.006375027146154e-002	3.291487e+000	3.324401e-010
5.007511249823892e-002	2.670041e+000	2.696741e-010
5.008489639688828e-002	2.360864e+000	2.384473e-010
5.009543632726880e-002	2.206361e+000	2.228424e-010
5.010163705977518e-002	2.158094e+000	2.179675e-010
5.011217558676170e-002	2.111398e+000	2.132511e-010
5.012241368088267e-002	2.082750e+000	2.103577e-010
5.014056743823444e-002	2.051924e+000	2.072442e-010
5.015840468593982e-002	2.031729e+000	2.052045e-010
5.017672089058548e-002	2.014644e+000	2.034790e-010
5.019437627902531e-002	1.990994e+000	2.010904e-010
5.021216420403755e-002	1.942141e+000	1.961563e-010
5.022726441334138e-002	1.880279e+000	1.899082e-010
5.024378493753789e-002	1.814394e+000	1.832538e-010
5.026856311454618e-002	1.777101e+000	1.794871e-010
5.028161624125854e-002	1.850641e+000	1.869147e-010
5.029398082763830e-002	1.964562e+000	1.984207e-010
5.030801945820429e-002	2.023924e+000	2.044163e-010
5.032116831411566e-002	2.019575e+000	2.039771e-010
5.033376749367339e-002	2.007664e+000	2.027740e-010
5.034877061693940e-002	2.004978e+000	2.025027e-010
5.036668868509200e-002	2.006968e+000	2.027036e-010
5.040187731194230e-002	2.008312e+000	2.028394e-010
5.045187731194230e-002	2.007704e+000	2.027781e-010
5.050187731194231e-002	2.007661e+000	2.027738e-010
5.055187731194231e-002	2.007580e+000	2.027655e-010
5.060187731194231e-002	2.007496e+000	2.027570e-010
5.065187731194231e-002	2.007515e+000	2.027590e-010
5.070187731194231e-002	2.007472e+000	2.027546e-010
5.075187731194231e-002	2.007478e+000	2.027552e-010
5.085187731194232e-002	2.007463e+000	2.027538e-010
5.102330588337090e-002	2.007462e+000	2.027537e-010
5.119473445479947e-002	2.007461e+000	2.027536e-010
5.136616302622805e-002	2.007461e+000	2.027535e-010
5.153759159765662e-002	2.007460e+000	2.027535e-010
5.170902016908520e-002	2.007460e+000	2.027535e-010
5.188044874051377e-002	2.007460e+000	2.027534e-010
5.205187731194235e-002	2.007461e+000	2.027534e-010
9.205187731193940e-002	2.007461e+000	2.027535e-010
9.995187731193853e-002	2.007461e+000	2.027535e-010
1.000000000000000e-001	2.007461e+000	2.027535e-010
