Freq.	V(vout)
1.00000000000000e-001	(-3.18948173052220e-002dB,-1.39874913912585e-006°)
1.00230523807790e-001	(-3.18948173052201e-002dB,-1.40197358890281e-006°)
1.00461579027840e-001	(-3.18948173052201e-002dB,-1.40520547180415e-006°)
1.00693166885180e-001	(-3.18948173052240e-002dB,-1.40844480496504e-006°)
1.00925288607668e-001	(-3.18948173052240e-002dB,-1.41169160556005e-006°)
1.01157945425990e-001	(-3.18948173052240e-002dB,-1.41494589080342e-006°)
1.01391138573668e-001	(-3.18948173052220e-002dB,-1.41820767794908e-006°)
1.01624869287070e-001	(-3.18948173052230e-002dB,-1.42147698429066e-006°)
1.01859138805412e-001	(-3.18948173052211e-002dB,-1.42475382716171e-006°)
1.02093948370768e-001	(-3.18948173052211e-002dB,-1.42803822393572e-006°)
1.02329299228075e-001	(-3.18948173052230e-002dB,-1.43133019202623e-006°)
1.02565192625141e-001	(-3.18948173052230e-002dB,-1.43462974888694e-006°)
1.02801629812647e-001	(-3.18948173052211e-002dB,-1.43793691201175e-006°)
1.03038612044162e-001	(-3.18948173052230e-002dB,-1.44125169893495e-006°)
1.03276140576140e-001	(-3.18948173052230e-002dB,-1.44457412723115e-006°)
1.03514216667934e-001	(-3.18948173052230e-002dB,-1.44790421451559e-006°)
1.03752841581801e-001	(-3.18948173052230e-002dB,-1.45124197844407e-006°)
1.03992016582906e-001	(-3.18948173052211e-002dB,-1.45458743671302e-006°)
1.04231742939330e-001	(-3.18948173052230e-002dB,-1.45794060705977e-006°)
1.04472021922080e-001	(-3.18948173052230e-002dB,-1.46130150726245e-006°)
1.04712854805090e-001	(-3.18948173052230e-002dB,-1.46467015514031e-006°)
1.04954242865232e-001	(-3.18948173052230e-002dB,-1.46804656855348e-006°)
1.05196187382322e-001	(-3.18948173052230e-002dB,-1.47143076540346e-006°)
1.05438689639126e-001	(-3.18948173052230e-002dB,-1.47482276363286e-006°)
1.05681750921366e-001	(-3.18948173052230e-002dB,-1.47822258122573e-006°)
1.05925372517729e-001	(-3.18948173052230e-002dB,-1.48163023620757e-006°)
1.06169555719872e-001	(-3.18948173052230e-002dB,-1.48504574664545e-006°)
1.06414301822431e-001	(-3.18948173052269e-002dB,-1.48846913064803e-006°)
1.06659612123026e-001	(-3.18948173052230e-002dB,-1.49190040636579e-006°)
1.06905487922266e-001	(-3.18948173052230e-002dB,-1.49533959199099e-006°)
1.07151930523760e-001	(-3.18948173052230e-002dB,-1.49878670575785e-006°)
1.07398941234124e-001	(-3.18948173052230e-002dB,-1.50224176594259e-006°)
1.07646521362983e-001	(-3.18948173052230e-002dB,-1.50570479086365e-006°)
1.07894672222983e-001	(-3.18948173052230e-002dB,-1.50917579888162e-006°)
1.08143395129794e-001	(-3.18948173052230e-002dB,-1.51265480839947e-006°)
1.08392691402120e-001	(-3.18948173052230e-002dB,-1.51614183786250e-006°)
1.08642562361706e-001	(-3.18948173052230e-002dB,-1.51963690575864e-006°)
1.08893009333343e-001	(-3.18948173052230e-002dB,-1.52314003061837e-006°)
1.09144033644875e-001	(-3.18948173052230e-002dB,-1.52665123101493e-006°)
1.09395636627209e-001	(-3.18948173052230e-002dB,-1.53017052556436e-006°)
1.09647819614318e-001	(-3.18948173052230e-002dB,-1.53369793292555e-006°)
1.09900583943252e-001	(-3.18948173052230e-002dB,-1.53723347180052e-006°)
1.10153930954141e-001	(-3.18948173052249e-002dB,-1.54077716093434e-006°)
1.10407861990207e-001	(-3.18948173052230e-002dB,-1.54432901911528e-006°)
1.10662378397766e-001	(-3.18948173052230e-002dB,-1.54788906517494e-006°)
1.10917481526240e-001	(-3.18948173052230e-002dB,-1.55145731798836e-006°)
1.11173172728159e-001	(-3.18948173052230e-002dB,-1.55503379647405e-006°)
1.11429453359173e-001	(-3.18948173052230e-002dB,-1.55861851959407e-006°)
1.11686324778056e-001	(-3.18948173052230e-002dB,-1.56221150635436e-006°)
1.11943788346715e-001	(-3.18948173052230e-002dB,-1.56581277580453e-006°)
1.12201845430196e-001	(-3.18948173052230e-002dB,-1.56942234703820e-006°)
1.12460497396692e-001	(-3.18948173052230e-002dB,-1.57304023919289e-006°)
1.12719745617551e-001	(-3.18948173052230e-002dB,-1.57666647145035e-006°)
1.12979591467279e-001	(-3.18948173052240e-002dB,-1.58030106303648e-006°)
1.13240036323555e-001	(-3.18948173052230e-002dB,-1.58394403322153e-006°)
1.13501081567231e-001	(-3.18948173052240e-002dB,-1.58759540132019e-006°)
1.13762728582343e-001	(-3.18948173052240e-002dB,-1.59125518669161e-006°)
1.14024978756117e-001	(-3.18948173052240e-002dB,-1.59492340873962e-006°)
1.14287833478977e-001	(-3.18948173052259e-002dB,-1.59860008691277e-006°)
1.14551294144553e-001	(-3.18948173052259e-002dB,-1.60228524070447e-006°)
1.14815362149688e-001	(-3.18948173052240e-002dB,-1.60597888965300e-006°)
1.15080038894443e-001	(-3.18948173052259e-002dB,-1.60968105334171e-006°)
1.15345325782109e-001	(-3.18948173052240e-002dB,-1.61339175139917e-006°)
1.15611224219209e-001	(-3.18948173052240e-002dB,-1.61711100349907e-006°)
1.15877735615512e-001	(-3.18948173052259e-002dB,-1.62083882936051e-006°)
1.16144861384034e-001	(-3.18948173052259e-002dB,-1.62457524874810e-006°)
1.16412602941049e-001	(-3.18948173052230e-002dB,-1.62832028147191e-006°)
1.16680961706096e-001	(-3.18948173052240e-002dB,-1.63207394738777e-006°)
1.16949939101987e-001	(-3.18948173052259e-002dB,-1.63583626639727e-006°)
1.17219536554813e-001	(-3.18948173052259e-002dB,-1.63960725844776e-006°)
1.17489755493952e-001	(-3.18948173052240e-002dB,-1.64338694353272e-006°)
1.17760597352080e-001	(-3.18948173052259e-002dB,-1.64717534169170e-006°)
1.18032063565172e-001	(-3.18948173052259e-002dB,-1.65097247301034e-006°)
1.18304155572516e-001	(-3.18948173052259e-002dB,-1.65477835762069e-006°)
1.18576874816716e-001	(-3.18948173052259e-002dB,-1.65859301570115e-006°)
1.18850222743701e-001	(-3.18948173052259e-002dB,-1.66241646747667e-006°)
1.19124200802737e-001	(-3.18948173052259e-002dB,-1.66624873321884e-006°)
1.19398810446427e-001	(-3.18948173052240e-002dB,-1.67008983324591e-006°)
1.19674053130724e-001	(-3.18948173052259e-002dB,-1.67393978792298e-006°)
1.19949930314937e-001	(-3.18948173052259e-002dB,-1.67779861766227e-006°)
1.20226443461741e-001	(-3.18948173052259e-002dB,-1.68166634292272e-006°)
1.20503594037179e-001	(-3.18948173052259e-002dB,-1.68554298421076e-006°)
1.20781383510677e-001	(-3.18948173052259e-002dB,-1.68942856207987e-006°)
1.21059813355048e-001	(-3.18948173052259e-002dB,-1.69332309713107e-006°)
1.21338885046497e-001	(-3.18948173052259e-002dB,-1.69722661001279e-006°)
1.21618600064636e-001	(-3.18948173052220e-002dB,-1.70113912142102e-006°)
1.21898959892486e-001	(-3.18948173052220e-002dB,-1.70506065209952e-006°)
1.22179966016487e-001	(-3.18948173052240e-002dB,-1.70899122283988e-006°)
1.22461619926504e-001	(-3.18948173052259e-002dB,-1.71293085448155e-006°)
1.22743923115840e-001	(-3.18948173052259e-002dB,-1.71687956791212e-006°)
1.23026877081238e-001	(-3.18948173052240e-002dB,-1.72083738406724e-006°)
1.23310483322890e-001	(-3.18948173052240e-002dB,-1.72480432393085e-006°)
1.23594743344450e-001	(-3.18948173052259e-002dB,-1.72878040853528e-006°)
1.23879658653036e-001	(-3.18948173052259e-002dB,-1.73276565896141e-006°)
1.24165230759240e-001	(-3.18948173052259e-002dB,-1.73676009633850e-006°)
1.24451461177138e-001	(-3.18948173052240e-002dB,-1.74076374184474e-006°)
1.24738351424294e-001	(-3.18948173052259e-002dB,-1.74477661670711e-006°)
1.25025903021771e-001	(-3.18948173052259e-002dB,-1.74879874220133e-006°)
1.25314117494141e-001	(-3.18948173052259e-002dB,-1.75283013965247e-006°)
1.25602996369487e-001	(-3.18948173052240e-002dB,-1.75687083043448e-006°)
1.25892541179416e-001	(-3.18948173052259e-002dB,-1.76092083597075e-006°)
1.26182753459066e-001	(-3.18948173052259e-002dB,-1.76498017773399e-006°)
1.26473634747114e-001	(-3.18948173052249e-002dB,-1.76904887724643e-006°)
1.26765186585784e-001	(-3.18948173052288e-002dB,-1.77312695607995e-006°)
1.27057410520853e-001	(-3.18948173052269e-002dB,-1.77721443585602e-006°)
1.27350308101665e-001	(-3.18948173052269e-002dB,-1.78131133824614e-006°)
1.27643880881134e-001	(-3.18948173052288e-002dB,-1.78541768497167e-006°)
1.27938130415752e-001	(-3.18948173052288e-002dB,-1.78953349780403e-006°)
1.28233058265601e-001	(-3.18948173052288e-002dB,-1.79365879856487e-006°)
1.28528665994361e-001	(-3.18948173052288e-002dB,-1.79779360912604e-006°)
1.28824955169313e-001	(-3.18948173052298e-002dB,-1.80193795141003e-006°)
1.29121927361353e-001	(-3.18948173052288e-002dB,-1.80609184738962e-006°)
1.29419584144998e-001	(-3.18948173052288e-002dB,-1.81025531908843e-006°)
1.29717927098395e-001	(-3.18948173052288e-002dB,-1.81442838858069e-006°)
1.30016957803328e-001	(-3.18948173052288e-002dB,-1.81861107799166e-006°)
1.30316677845229e-001	(-3.18948173052288e-002dB,-1.82280340949756e-006°)
1.30617088813183e-001	(-3.18948173052288e-002dB,-1.82700540532567e-006°)
1.30918192299940e-001	(-3.18948173052288e-002dB,-1.83121708775457e-006°)
1.31219989901919e-001	(-3.18948173052288e-002dB,-1.83543847911412e-006°)
1.31522483219223e-001	(-3.18948173052288e-002dB,-1.83966960178583e-006°)
1.31825673855640e-001	(-3.18948173052298e-002dB,-1.84391047820262e-006°)
1.32129563418657e-001	(-3.18948173052298e-002dB,-1.84816113084918e-006°)
1.32434153519466e-001	(-3.18948173052288e-002dB,-1.85242158226215e-006°)
1.32739445772973e-001	(-3.18948173052288e-002dB,-1.85669185502988e-006°)
1.33045441797808e-001	(-3.18948173052298e-002dB,-1.86097197179303e-006°)
1.33352143216331e-001	(-3.18948173052298e-002dB,-1.86526195524430e-006°)
1.33659551654643e-001	(-3.18948173052288e-002dB,-1.86956182812880e-006°)
1.33967668742593e-001	(-3.18948173052298e-002dB,-1.87387161324400e-006°)
1.34276496113785e-001	(-3.18948173052288e-002dB,-1.87819133343993e-006°)
1.34586035405594e-001	(-3.18948173052298e-002dB,-1.88252101161935e-006°)
1.34896288259164e-001	(-3.18948173052269e-002dB,-1.88686067073779e-006°)
1.35207256319427e-001	(-3.18948173052269e-002dB,-1.89121033380368e-006°)
1.35518941235103e-001	(-3.18948173052288e-002dB,-1.89557002387848e-006°)
1.35831344658714e-001	(-3.18948173052269e-002dB,-1.89993976407686e-006°)
1.36144468246594e-001	(-3.18948173052269e-002dB,-1.90431957756670e-006°)
1.36458313658891e-001	(-3.18948173052269e-002dB,-1.90870948756941e-006°)
1.36772882559584e-001	(-3.18948173052269e-002dB,-1.91310951735981e-006°)
1.37088176616484e-001	(-3.18948173052288e-002dB,-1.91751969026640e-006°)
1.37404197501250e-001	(-3.18948173052288e-002dB,-1.92194002967153e-006°)
1.37720946889394e-001	(-3.18948173052269e-002dB,-1.92637055901137e-006°)
1.38038426460287e-001	(-3.18948173052269e-002dB,-1.93081130177615e-006°)
1.38356637897177e-001	(-3.18948173052269e-002dB,-1.93526228151023e-006°)
1.38675582887188e-001	(-3.18948173052269e-002dB,-1.93972352181229e-006°)
1.38995263121334e-001	(-3.18948173052269e-002dB,-1.94419504633541e-006°)
1.39315680294529e-001	(-3.18948173052269e-002dB,-1.94867687878702e-006°)
1.39636836105593e-001	(-3.18948173052288e-002dB,-1.95316904292956e-006°)
1.39958732257261e-001	(-3.18948173052288e-002dB,-1.95767156257991e-006°)
1.40281370456195e-001	(-3.18948173052317e-002dB,-1.96218446160995e-006°)
1.40604752412990e-001	(-3.18948173052307e-002dB,-1.96670776394677e-006°)
1.40928879842186e-001	(-3.18948173052288e-002dB,-1.97124149357231e-006°)
1.41253754462274e-001	(-3.18948173052288e-002dB,-1.97578567452401e-006°)
1.41579377995707e-001	(-3.18948173052307e-002dB,-1.98034033089468e-006°)
1.41905752168908e-001	(-3.18948173052307e-002dB,-1.98490548683268e-006°)
1.42232878712281e-001	(-3.18948173052288e-002dB,-1.98948116654195e-006°)
1.42560759360218e-001	(-3.18948173052307e-002dB,-1.99406739428230e-006°)
1.42889395851109e-001	(-3.18948173052288e-002dB,-1.99866419436951e-006°)
1.43218789927353e-001	(-3.18948173052288e-002dB,-2.00327159117532e-006°)
1.43548943335364e-001	(-3.18948173052307e-002dB,-2.00788960912765e-006°)
1.43879857825583e-001	(-3.18948173052288e-002dB,-2.01251827271083e-006°)
1.44211535152486e-001	(-3.18948173052307e-002dB,-2.01715760646553e-006°)
1.44543977074591e-001	(-3.18948173052307e-002dB,-2.02180763498913e-006°)
1.44877185354475e-001	(-3.18948173052307e-002dB,-2.02646838293550e-006°)
1.45211161758773e-001	(-3.18948173052307e-002dB,-2.03113987501547e-006°)
1.45545908058195e-001	(-3.18948173052307e-002dB,-2.03582213599692e-006°)
1.45881426027534e-001	(-3.18948173052307e-002dB,-2.04051519070463e-006°)
1.46217717445671e-001	(-3.18948173052307e-002dB,-2.04521906402082e-006°)
1.46554784095590e-001	(-3.18948173052307e-002dB,-2.04993378088483e-006°)
1.46892627764385e-001	(-3.18948173052307e-002dB,-2.05465936629366e-006°)
1.47231250243271e-001	(-3.18948173052278e-002dB,-2.05939584530199e-006°)
1.47570653327588e-001	(-3.18948173052278e-002dB,-2.06414324302205e-006°)
1.47910838816819e-001	(-3.18948173052278e-002dB,-2.06890158462407e-006°)
1.48251808514594e-001	(-3.18948173052278e-002dB,-2.07367089533639e-006°)
1.48593564228699e-001	(-3.18948173052288e-002dB,-2.07845120044535e-006°)
1.48936107771090e-001	(-3.18948173052307e-002dB,-2.08324252529567e-006°)
1.49279440957898e-001	(-3.18948173052307e-002dB,-2.08804489529051e-006°)
1.49623565609442e-001	(-3.18948173052307e-002dB,-2.09285833589149e-006°)
1.49968483550236e-001	(-3.18948173052307e-002dB,-2.09768287261901e-006°)
1.50314196609001e-001	(-3.18948173052307e-002dB,-2.10251853105236e-006°)
1.50660706618673e-001	(-3.18948173052307e-002dB,-2.10736533682961e-006°)
1.51008015416413e-001	(-3.18948173052307e-002dB,-2.11222331564813e-006°)
1.51356124843619e-001	(-3.18948173052327e-002dB,-2.11709249326436e-006°)
1.51705036745932e-001	(-3.18948173052356e-002dB,-2.12197289549430e-006°)
1.52054752973248e-001	(-3.18948173052327e-002dB,-2.12686454821324e-006°)
1.52405275379728e-001	(-3.18948173052327e-002dB,-2.13176747735633e-006°)
1.52756605823806e-001	(-3.18948173052327e-002dB,-2.13668170891836e-006°)
1.53108746168202e-001	(-3.18948173052356e-002dB,-2.14160726895406e-006°)
1.53461698279928e-001	(-3.18948173052346e-002dB,-2.14654418357841e-006°)
1.53815464030302e-001	(-3.18948173052317e-002dB,-2.15149247896630e-006°)
1.54170045294954e-001	(-3.18948173052346e-002dB,-2.15645218135311e-006°)
1.54525443953840e-001	(-3.18948173052346e-002dB,-2.16142331703474e-006°)
1.54881661891247e-001	(-3.18948173052346e-002dB,-2.16640591236760e-006°)
1.55238700995807e-001	(-3.18948173052346e-002dB,-2.17139999376900e-006°)
1.55596563160506e-001	(-3.18948173052346e-002dB,-2.17640558771699e-006°)
1.55955250282694e-001	(-3.18948173052346e-002dB,-2.18142272075074e-006°)
1.56314764264094e-001	(-3.18948173052346e-002dB,-2.18645141947061e-006°)
1.56675107010813e-001	(-3.18948173052346e-002dB,-2.19149171053826e-006°)
1.57036280433354e-001	(-3.18948173052346e-002dB,-2.19654362067682e-006°)
1.57398286446620e-001	(-3.18948173052346e-002dB,-2.20160717667094e-006°)
1.57761126969933e-001	(-3.18948173052346e-002dB,-2.20668240536719e-006°)
1.58124803927037e-001	(-3.18948173052346e-002dB,-2.21176933367386e-006°)
1.58489319246110e-001	(-3.18948173052298e-002dB,-2.21686798856138e-006°)
1.58854674859776e-001	(-3.18948173052298e-002dB,-2.22197839706229e-006°)
1.59220872705115e-001	(-3.18948173052298e-002dB,-2.22710058627147e-006°)
1.59587914723672e-001	(-3.18948173052298e-002dB,-2.23223458334627e-006°)
1.59955802861465e-001	(-3.18948173052317e-002dB,-2.23738041550657e-006°)
1.60324539069002e-001	(-3.18948173052317e-002dB,-2.24253811003514e-006°)
1.60694125301286e-001	(-3.18948173052346e-002dB,-2.24770769427757e-006°)
1.61064563517825e-001	(-3.18948173052317e-002dB,-2.25288919564239e-006°)
1.61435855682647e-001	(-3.18948173052346e-002dB,-2.25808264160147e-006°)
1.61808003764305e-001	(-3.18948173052346e-002dB,-2.26328805968995e-006°)
1.62181009735891e-001	(-3.18948173052346e-002dB,-2.26850547750637e-006°)
1.62554875575047e-001	(-3.18948173052366e-002dB,-2.27373492271305e-006°)
1.62929603263970e-001	(-3.18948173052346e-002dB,-2.27897642303596e-006°)
1.63305194789432e-001	(-3.18948173052346e-002dB,-2.28423000626496e-006°)
1.63681652142779e-001	(-3.18948173052385e-002dB,-2.28949570025410e-006°)
1.64058977319952e-001	(-3.18948173052404e-002dB,-2.29477353292149e-006°)
1.64437172321491e-001	(-3.18948173052385e-002dB,-2.30006353224974e-006°)
1.64816239152549e-001	(-3.18948173052385e-002dB,-2.30536572628589e-006°)
1.65196179822900e-001	(-3.18948173052395e-002dB,-2.31068014314159e-006°)
1.65576996346951e-001	(-3.18948173052375e-002dB,-2.31600681099341e-006°)
1.65958690743754e-001	(-3.18948173052395e-002dB,-2.32134575808279e-006°)
1.66341265037015e-001	(-3.18948173052375e-002dB,-2.32669701271627e-006°)
1.66724721255104e-001	(-3.18948173052375e-002dB,-2.33206060326573e-006°)
1.67109061431069e-001	(-3.18948173052375e-002dB,-2.33743655816835e-006°)
1.67494287602642e-001	(-3.18948173052414e-002dB,-2.34282490592694e-006°)
1.67880401812254e-001	(-3.18948173052414e-002dB,-2.34822567510992e-006°)
1.68267406107045e-001	(-3.18948173052414e-002dB,-2.35363889435169e-006°)
1.68655302538872e-001	(-3.18948173052414e-002dB,-2.35906459235256e-006°)
1.69044093164324e-001	(-3.18948173052375e-002dB,-2.36450279787910e-006°)
1.69433780044731e-001	(-3.18948173052375e-002dB,-2.36995353976407e-006°)
1.69824365246172e-001	(-3.18948173052375e-002dB,-2.37541684690676e-006°)
1.70215850839493e-001	(-3.18948173052375e-002dB,-2.38089274827316e-006°)
1.70608238900310e-001	(-3.18948173052375e-002dB,-2.38638127289588e-006°)
1.71001531509027e-001	(-3.18948173052375e-002dB,-2.39188244987453e-006°)
1.71395730750840e-001	(-3.18948173052375e-002dB,-2.39739630837587e-006°)
1.71790838715757e-001	(-3.18948173052395e-002dB,-2.40292287763373e-006°)
1.72186857498599e-001	(-3.18948173052395e-002dB,-2.40846218694953e-006°)
1.72583789199018e-001	(-3.18948173052395e-002dB,-2.41401426569203e-006°)
1.72981635921508e-001	(-3.18948173052395e-002dB,-2.41957914329791e-006°)
1.73380399775412e-001	(-3.18948173052395e-002dB,-2.42515684927153e-006°)
1.73780082874935e-001	(-3.18948173052395e-002dB,-2.43074741318532e-006°)
1.74180687339159e-001	(-3.18948173052395e-002dB,-2.43635086467997e-006°)
1.74582215292048e-001	(-3.18948173052414e-002dB,-2.44196723346435e-006°)
1.74984668862463e-001	(-3.18948173052414e-002dB,-2.44759654931594e-006°)
1.75388050184174e-001	(-3.18948173052414e-002dB,-2.45323884208074e-006°)
1.75792361395867e-001	(-3.18948173052414e-002dB,-2.45889414167370e-006°)
1.76197604641161e-001	(-3.18948173052404e-002dB,-2.46456247807861e-006°)
1.76603782068614e-001	(-3.18948173052404e-002dB,-2.47024388134842e-006°)
1.77010895831740e-001	(-3.18948173052404e-002dB,-2.47593838160542e-006°)
1.77418948089014e-001	(-3.18948173052404e-002dB,-2.48164600904121e-006°)
1.77827941003890e-001	(-3.18948173052443e-002dB,-2.48736679391712e-006°)
1.78237876744807e-001	(-3.18948173052443e-002dB,-2.49310076656419e-006°)
1.78648757485203e-001	(-3.18948173052443e-002dB,-2.49884795738331e-006°)
1.79060585403527e-001	(-3.18948173052404e-002dB,-2.50460839684553e-006°)
1.79473362683250e-001	(-3.18948173052404e-002dB,-2.51038211549219e-006°)
1.79887091512876e-001	(-3.18948173052404e-002dB,-2.51616914393491e-006°)
1.80301774085954e-001	(-3.18948173052404e-002dB,-2.52196951285593e-006°)
1.80717412601090e-001	(-3.18948173052404e-002dB,-2.52778325300826e-006°)
1.81134009261958e-001	(-3.18948173052424e-002dB,-2.53361039521577e-006°)
1.81551566277311e-001	(-3.18948173052443e-002dB,-2.53945097037339e-006°)
1.81970085860996e-001	(-3.18948173052443e-002dB,-2.54530500944725e-006°)
1.82389570231961e-001	(-3.18948173052443e-002dB,-2.55117254347490e-006°)
1.82810021614272e-001	(-3.18948173052424e-002dB,-2.55705360356542e-006°)
1.83231442237119e-001	(-3.18948173052443e-002dB,-2.56294822089958e-006°)
1.83653834334832e-001	(-3.18948173052424e-002dB,-2.56885642673010e-006°)
1.84077200146893e-001	(-3.18948173052424e-002dB,-2.57477825238164e-006°)
1.84501541917945e-001	(-3.18948173052443e-002dB,-2.58071372925118e-006°)
1.84926861897805e-001	(-3.18948173052443e-002dB,-2.58666288880799e-006°)
1.85353162341479e-001	(-3.18948173052443e-002dB,-2.59262576259394e-006°)
1.85780445509167e-001	(-3.18948173052443e-002dB,-2.59860238222366e-006°)
1.86208713666284e-001	(-3.18948173052443e-002dB,-2.60459277938447e-006°)
1.86637969083464e-001	(-3.18948173052453e-002dB,-2.61059698583692e-006°)
1.87068214036577e-001	(-3.18948173052433e-002dB,-2.61661503341473e-006°)
