rl	V(vout)	-I(Rl)
1.000000000000000e-010	2.004109e-010	2.004109e+000
1.000000010000000e-002	2.004108e-002	2.004108e+000
2.000000010000000e-002	4.008212e-002	2.004106e+000
3.000000010000000e-002	6.012313e-002	2.004104e+000
4.000000010000000e-002	8.016410e-002	2.004102e+000
5.000000010000000e-002	1.002050e-001	2.004101e+000
6.000000010000001e-002	1.202459e-001	2.004099e+000
7.000000010000000e-002	1.402868e-001	2.004097e+000
8.000000010000000e-002	1.603277e-001	2.004096e+000
9.000000009999999e-002	1.803685e-001	2.004094e+000
1.000000001000000e-001	2.004092e-001	2.004092e+000
1.100000001000000e-001	2.204500e-001	2.004091e+000
1.200000001000000e-001	2.404907e-001	2.004089e+000
1.300000001000000e-001	2.605313e-001	2.004087e+000
1.400000001000000e-001	2.805720e-001	2.004086e+000
1.500000001000000e-001	3.006126e-001	2.004084e+000
1.600000001000000e-001	3.206531e-001	2.004082e+000
1.700000001000000e-001	3.406937e-001	2.004080e+000
1.800000001000000e-001	3.607341e-001	2.004079e+000
1.900000001000000e-001	3.807746e-001	2.004077e+000
2.000000001000001e-001	4.008150e-001	2.004075e+000
2.100000001000001e-001	4.208554e-001	2.004073e+000
2.200000001000001e-001	4.408958e-001	2.004072e+000
2.300000001000001e-001	4.609361e-001	2.004070e+000
2.400000001000001e-001	4.809764e-001	2.004068e+000
2.500000001000001e-001	5.010167e-001	2.004067e+000
2.600000001000001e-001	5.210569e-001	2.004065e+000
2.700000001000001e-001	5.410970e-001	2.004063e+000
2.800000001000001e-001	5.611372e-001	2.004061e+000
2.900000001000001e-001	5.811773e-001	2.004060e+000
3.000000001000001e-001	6.012174e-001	2.004058e+000
3.100000001000001e-001	6.212575e-001	2.004056e+000
3.200000001000001e-001	6.412975e-001	2.004055e+000
3.300000001000001e-001	6.613374e-001	2.004053e+000
3.400000001000001e-001	6.813774e-001	2.004051e+000
3.500000001000002e-001	7.014173e-001	2.004050e+000
3.600000001000002e-001	7.214572e-001	2.004048e+000
3.700000001000002e-001	7.414970e-001	2.004046e+000
3.800000001000002e-001	7.615368e-001	2.004044e+000
3.900000001000002e-001	7.815766e-001	2.004043e+000
4.000000001000002e-001	8.016164e-001	2.004041e+000
4.100000001000002e-001	8.216560e-001	2.004039e+000
4.200000001000002e-001	8.416957e-001	2.004037e+000
4.300000001000002e-001	8.617353e-001	2.004036e+000
4.400000001000002e-001	8.817750e-001	2.004034e+000
4.500000001000002e-001	9.018145e-001	2.004032e+000
4.600000001000003e-001	9.218541e-001	2.004031e+000
4.700000001000003e-001	9.418936e-001	2.004029e+000
4.800000001000003e-001	9.619330e-001	2.004027e+000
4.900000001000003e-001	9.819725e-001	2.004025e+000
5.000000001000002e-001	1.002012e+000	2.004024e+000
5.100000001000002e-001	1.022051e+000	2.004022e+000
5.200000001000003e-001	1.042091e+000	2.004020e+000
5.300000001000003e-001	1.062130e+000	2.004019e+000
5.400000001000003e-001	1.082169e+000	2.004017e+000
5.500000001000003e-001	1.102208e+000	2.004015e+000
5.600000001000003e-001	1.122247e+000	2.004013e+000
5.700000001000003e-001	1.142287e+000	2.004012e+000
5.800000001000003e-001	1.162326e+000	2.004010e+000
5.900000001000003e-001	1.182365e+000	2.004008e+000
6.000000001000003e-001	1.202404e+000	2.004006e+000
6.100000001000003e-001	1.222443e+000	2.004004e+000
6.200000001000003e-001	1.242481e+000	2.004002e+000
6.300000001000004e-001	1.262520e+000	2.004000e+000
6.400000001000004e-001	1.282559e+000	2.003998e+000
6.500000001000004e-001	1.302597e+000	2.003996e+000
6.600000001000004e-001	1.322635e+000	2.003993e+000
6.700000001000004e-001	1.342673e+000	2.003990e+000
6.800000001000004e-001	1.362710e+000	2.003986e+000
6.900000001000004e-001	1.382746e+000	2.003980e+000
7.000000001000004e-001	1.402781e+000	2.003974e+000
7.100000001000004e-001	1.422815e+000	2.003964e+000
7.200000001000004e-001	1.442845e+000	2.003952e+000
7.300000001000004e-001	1.462872e+000	2.003934e+000
7.400000001000004e-001	1.482892e+000	2.003908e+000
7.500000001000005e-001	1.502904e+000	2.003872e+000
7.600000001000005e-001	1.522902e+000	2.003819e+000
7.700000001000005e-001	1.542881e+000	2.003742e+000
7.800000001000005e-001	1.562832e+000	2.003631e+000
7.900000001000005e-001	1.582741e+000	2.003469e+000
8.000000001000005e-001	1.602589e+000	2.003237e+000
8.100000001000005e-001	1.622351e+000	2.002903e+000
8.200000001000005e-001	1.641992e+000	2.002429e+000
8.300000001000005e-001	1.661467e+000	2.001767e+000
8.400000001000005e-001	1.680719e+000	2.000856e+000
8.500000001000005e-001	1.699686e+000	1.999631e+000
8.600000001000006e-001	1.718301e+000	1.998025e+000
8.700000001000006e-001	1.736501e+000	1.995978e+000
8.800000001000006e-001	1.754230e+000	1.993443e+000
8.900000001000006e-001	1.771445e+000	1.990388e+000
9.000000001000006e-001	1.788118e+000	1.986797e+000
9.100000001000006e-001	1.804226e+000	1.982666e+000
9.200000001000006e-001	1.819757e+000	1.977997e+000
9.300000001000006e-001	1.834698e+000	1.972794e+000
9.400000001000006e-001	1.849039e+000	1.967063e+000
9.500000001000006e-001	1.862767e+000	1.960808e+000
9.600000001000006e-001	1.875869e+000	1.954030e+000
9.700000001000007e-001	1.888326e+000	1.946728e+000
9.800000001000007e-001	1.900122e+000	1.938900e+000
9.900000001000007e-001	1.911238e+000	1.930544e+000
1.000000000100001e+000	1.921656e+000	1.921656e+000
1.010000000100001e+000	1.931361e+000	1.912239e+000
1.020000000100001e+000	1.940340e+000	1.902294e+000
1.030000000100001e+000	1.948586e+000	1.891831e+000
1.040000000100001e+000	1.956100e+000	1.880866e+000
1.050000000100001e+000	1.962890e+000	1.869419e+000
1.060000000100001e+000	1.968972e+000	1.857521e+000
1.070000000100001e+000	1.974374e+000	1.845210e+000
1.080000000100001e+000	1.979131e+000	1.832529e+000
1.090000000100001e+000	1.983285e+000	1.819528e+000
1.100000000100001e+000	1.986885e+000	1.806259e+000
1.110000000100001e+000	1.989983e+000	1.792778e+000
1.120000000100001e+000	1.992633e+000	1.779136e+000
1.130000000100001e+000	1.994886e+000	1.765386e+000
1.140000000100001e+000	1.996795e+000	1.751575e+000
1.150000000100001e+000	1.998406e+000	1.737744e+000
1.160000000100001e+000	1.999762e+000	1.723933e+000
1.170000000100001e+000	2.000901e+000	1.710172e+000
1.180000000100001e+000	2.001857e+000	1.696489e+000
1.190000000100001e+000	2.002659e+000	1.682907e+000
1.200000000100001e+000	2.003331e+000	1.669443e+000
1.210000000100001e+000	2.003896e+000	1.656112e+000
1.220000000100001e+000	2.004369e+000	1.642926e+000
1.230000000100001e+000	2.004768e+000	1.629892e+000
1.240000000100001e+000	2.005103e+000	1.617019e+000
1.250000000100001e+000	2.005386e+000	1.604308e+000
1.260000000100001e+000	2.005624e+000	1.591765e+000
1.270000000100001e+000	2.005826e+000	1.579391e+000
1.280000000100001e+000	2.005997e+000	1.567186e+000
1.290000000100001e+000	2.006143e+000	1.555149e+000
1.300000000100001e+000	2.006267e+000	1.543282e+000
1.310000000100001e+000	2.006372e+000	1.531582e+000
1.320000000100001e+000	2.006462e+000	1.520047e+000
1.330000000100001e+000	2.006539e+000	1.508676e+000
1.340000000100001e+000	2.006606e+000	1.497467e+000
1.350000000100001e+000	2.006663e+000	1.486417e+000
1.360000000100001e+000	2.006712e+000	1.475523e+000
1.370000000100001e+000	2.006754e+000	1.464784e+000
1.380000000100001e+000	2.006791e+000	1.454196e+000
1.390000000100001e+000	2.006758e+000	1.443711e+000
1.400000000100001e+000	2.006851e+000	1.433465e+000
1.410000000100001e+000	2.006875e+000	1.423316e+000
1.420000000100001e+000	2.006896e+000	1.413307e+000
1.430000000100001e+000	2.006915e+000	1.403437e+000
1.440000000100001e+000	2.006931e+000	1.393702e+000
1.450000000100001e+000	2.006945e+000	1.384100e+000
1.460000000100001e+000	2.006958e+000	1.374628e+000
1.470000000100001e+000	2.006969e+000	1.365285e+000
1.480000000100001e+000	2.006979e+000	1.356066e+000
1.490000000100001e+000	2.006987e+000	1.346971e+000
1.500000000100001e+000	2.006995e+000	1.337997e+000
1.510000000100001e+000	2.007002e+000	1.329140e+000
1.520000000100001e+000	2.007008e+000	1.320400e+000
1.530000000100001e+000	2.007013e+000	1.311773e+000
1.540000000100001e+000	2.007018e+000	1.303259e+000
1.550000000100001e+000	2.007023e+000	1.294853e+000
1.560000000100001e+000	2.007027e+000	1.286556e+000
1.570000000100001e+000	2.007030e+000	1.278363e+000
1.580000000100001e+000	2.007034e+000	1.270274e+000
1.590000000100001e+000	2.007036e+000	1.262287e+000
1.600000000100001e+000	2.007039e+000	1.254400e+000
1.610000000100001e+000	2.007042e+000	1.246610e+000
1.620000000100001e+000	2.007044e+000	1.238916e+000
1.630000000100001e+000	2.007046e+000	1.231317e+000
1.640000000100001e+000	2.007048e+000	1.223810e+000
1.650000000100001e+000	2.007050e+000	1.216394e+000
1.660000000100001e+000	2.007051e+000	1.209067e+000
1.670000000100001e+000	2.007053e+000	1.201828e+000
1.680000000100001e+000	2.007054e+000	1.194675e+000
1.690000000100001e+000	2.007056e+000	1.187607e+000
1.700000000100001e+000	2.007055e+000	1.180621e+000
1.710000000100001e+000	2.007058e+000	1.173718e+000
1.720000000100001e+000	2.007059e+000	1.166895e+000
1.730000000100001e+000	2.007060e+000	1.160150e+000
1.740000000100001e+000	2.007061e+000	1.153483e+000
1.750000000100001e+000	2.007062e+000	1.146892e+000
1.760000000100001e+000	2.007062e+000	1.140376e+000
1.770000000100001e+000	2.007063e+000	1.133934e+000
1.780000000100001e+000	2.007064e+000	1.127564e+000
1.790000000100001e+000	2.007065e+000	1.121265e+000
1.800000000100001e+000	2.007065e+000	1.115036e+000
1.810000000100001e+000	2.007066e+000	1.108876e+000
1.820000000100001e+000	2.007067e+000	1.102784e+000
1.830000000100001e+000	2.007067e+000	1.096758e+000
1.840000000100001e+000	2.007068e+000	1.090798e+000
1.850000000100001e+000	2.007068e+000	1.084902e+000
1.860000000100001e+000	2.007069e+000	1.079069e+000
1.870000000100001e+000	2.007069e+000	1.073299e+000
1.880000000100002e+000	2.007070e+000	1.067590e+000
1.890000000100002e+000	2.007070e+000	1.061942e+000
1.900000000100002e+000	2.007071e+000	1.056353e+000
1.910000000100002e+000	2.007071e+000	1.050823e+000
1.920000000100002e+000	2.007072e+000	1.045350e+000
1.930000000100002e+000	2.007072e+000	1.039934e+000
1.940000000100002e+000	2.007073e+000	1.034574e+000
1.950000000100002e+000	2.007073e+000	1.029268e+000
1.960000000100002e+000	2.007073e+000	1.024017e+000
1.970000000100002e+000	2.007074e+000	1.018819e+000
1.980000000100002e+000	2.007074e+000	1.013674e+000
1.990000000100002e+000	2.007075e+000	1.008580e+000
2.000000000100001e+000	2.007075e+000	1.003537e+000
2.010000000100001e+000	2.007075e+000	9.985449e-001
2.020000000100001e+000	2.007075e+000	9.936014e-001
2.030000000100001e+000	2.007076e+000	9.887074e-001
2.040000000100001e+000	2.007076e+000	9.838610e-001
2.050000000100000e+000	2.007077e+000	9.790618e-001
2.060000000100000e+000	2.007077e+000	9.743092e-001
2.070000000100000e+000	2.007077e+000	9.696026e-001
2.080000000100000e+000	2.007078e+000	9.649411e-001
2.090000000099999e+000	2.007078e+000	9.603244e-001
2.100000000099999e+000	2.007078e+000	9.557515e-001
2.110000000099999e+000	2.007079e+000	9.512221e-001
2.120000000099999e+000	2.007079e+000	9.467353e-001
2.130000000099999e+000	2.007079e+000	9.422907e-001
2.140000000099998e+000	2.007079e+000	9.378876e-001
2.150000000099998e+000	2.007080e+000	9.335254e-001
2.160000000099998e+000	2.007080e+000	9.292037e-001
2.170000000099998e+000	2.007080e+000	9.249218e-001
2.180000000099998e+000	2.007081e+000	9.206792e-001
2.190000000099997e+000	2.007081e+000	9.164753e-001
2.200000000099997e+000	2.007081e+000	9.123096e-001
2.210000000099997e+000	2.007082e+000	9.081816e-001
2.220000000099997e+000	2.007082e+000	9.040908e-001
2.230000000099996e+000	2.007082e+000	9.000368e-001
2.240000000099996e+000	2.007082e+000	8.960188e-001
2.250000000099996e+000	2.007082e+000	8.920366e-001
2.260000000099996e+000	2.007083e+000	8.880897e-001
2.270000000099996e+000	2.007083e+000	8.841775e-001
2.280000000099995e+000	2.007080e+000	8.802983e-001
2.290000000099995e+000	2.007083e+000	8.764557e-001
2.300000000099995e+000	2.007084e+000	8.726451e-001
2.310000000099995e+000	2.007084e+000	8.688673e-001
2.320000000099995e+000	2.007084e+000	8.651225e-001
2.330000000099994e+000	2.007084e+000	8.614096e-001
2.340000000099994e+000	2.007085e+000	8.577285e-001
2.350000000099994e+000	2.007085e+000	8.540787e-001
2.360000000099994e+000	2.007085e+000	8.504598e-001
2.370000000099994e+000	2.007085e+000	8.468714e-001
2.380000000099993e+000	2.007086e+000	8.433133e-001
2.390000000099993e+000	2.007086e+000	8.397849e-001
2.400000000099993e+000	2.007026e+000	8.362607e-001
2.410000000099993e+000	2.007086e+000	8.328159e-001
2.420000000099992e+000	2.007087e+000	8.293746e-001
2.430000000099992e+000	2.007087e+000	8.259616e-001
2.440000000099992e+000	2.007087e+000	8.225766e-001
2.450000000099992e+000	2.007087e+000	8.192192e-001
2.460000000099992e+000	2.007087e+000	8.158891e-001
2.470000000099991e+000	2.007087e+000	8.125860e-001
2.480000000099991e+000	2.007088e+000	8.093095e-001
2.490000000099991e+000	2.007088e+000	8.060594e-001
2.500000000099991e+000	2.007088e+000	8.028352e-001
2.510000000099991e+000	2.007088e+000	7.996367e-001
2.520000000099990e+000	2.007088e+000	7.964637e-001
2.530000000099990e+000	2.007089e+000	7.933157e-001
2.540000000099990e+000	2.007089e+000	7.901925e-001
2.550000000099990e+000	2.007089e+000	7.870938e-001
2.560000000099989e+000	2.007089e+000	7.840193e-001
2.570000000099989e+000	2.007090e+000	7.809687e-001
2.580000000099989e+000	2.007090e+000	7.779418e-001
2.590000000099989e+000	2.007090e+000	7.749382e-001
2.600000000099989e+000	2.007090e+000	7.719578e-001
2.610000000099988e+000	2.007090e+000	7.690001e-001
2.620000000099988e+000	2.007091e+000	7.660651e-001
2.630000000099988e+000	2.007091e+000	7.631524e-001
2.640000000099988e+000	2.007091e+000	7.602617e-001
2.650000000099988e+000	2.007091e+000	7.573928e-001
2.660000000099987e+000	2.007091e+000	7.545456e-001
2.670000000099987e+000	2.007091e+000	7.517196e-001
2.680000000099987e+000	2.007092e+000	7.489148e-001
2.690000000099987e+000	2.007092e+000	7.461308e-001
2.700000000099986e+000	2.007092e+000	7.433674e-001
2.710000000099986e+000	2.007092e+000	7.406244e-001
2.720000000099986e+000	2.007092e+000	7.379016e-001
2.730000000099986e+000	2.007092e+000	7.351987e-001
2.740000000099986e+000	2.007093e+000	7.325156e-001
2.750000000099985e+000	2.007093e+000	7.298519e-001
2.760000000099985e+000	2.007093e+000	7.272076e-001
2.770000000099985e+000	2.007093e+000	7.245824e-001
2.780000000099985e+000	2.007093e+000	7.219760e-001
2.790000000099985e+000	2.007093e+000	7.193883e-001
2.800000000099984e+000	2.007094e+000	7.168192e-001
2.810000000099984e+000	2.007094e+000	7.142683e-001
2.820000000099984e+000	2.007094e+000	7.117354e-001
2.830000000099984e+000	2.007094e+000	7.092205e-001
2.840000000099983e+000	2.007094e+000	7.067233e-001
2.850000000099983e+000	2.007094e+000	7.042437e-001
2.860000000099983e+000	2.007095e+000	7.017813e-001
2.870000000099983e+000	2.007095e+000	6.993362e-001
2.880000000099983e+000	2.007095e+000	6.969079e-001
2.890000000099982e+000	2.007095e+000	6.944966e-001
2.900000000099982e+000	2.007095e+000	6.921018e-001
2.910000000099982e+000	2.007095e+000	6.897235e-001
2.920000000099982e+000	2.007096e+000	6.873615e-001
2.930000000099982e+000	2.007096e+000	6.850156e-001
2.940000000099981e+000	2.007096e+000	6.826857e-001
2.950000000099981e+000	2.007096e+000	6.803715e-001
2.960000000099981e+000	2.007096e+000	6.780730e-001
2.970000000099981e+000	2.007096e+000	6.757900e-001
2.980000000099981e+000	2.007097e+000	6.735223e-001
2.990000000099980e+000	2.007097e+000	6.712698e-001
3.000000000099980e+000	2.007097e+000	6.690322e-001
3.010000000099980e+000	2.007097e+000	6.668096e-001
3.020000000099980e+000	2.007097e+000	6.646017e-001
3.030000000099979e+000	2.007097e+000	6.624083e-001
3.040000000099979e+000	2.007097e+000	6.602294e-001
3.050000000099979e+000	2.007097e+000	6.580647e-001
3.060000000099979e+000	2.007091e+000	6.559119e-001
3.070000000099979e+000	2.007098e+000	6.537778e-001
3.080000000099978e+000	2.007098e+000	6.516551e-001
3.090000000099978e+000	2.007040e+000	6.495274e-001
3.100000000099978e+000	2.007098e+000	6.474510e-001
3.110000000099978e+000	2.007098e+000	6.453692e-001
3.120000000099978e+000	2.007098e+000	6.433008e-001
3.130000000099977e+000	2.007098e+000	6.412455e-001
3.140000000099977e+000	2.007099e+000	6.392034e-001
3.150000000099977e+000	2.007099e+000	6.371742e-001
3.160000000099977e+000	2.007099e+000	6.351579e-001
3.170000000099976e+000	2.007099e+000	6.331543e-001
3.180000000099976e+000	2.007099e+000	6.311633e-001
3.190000000099976e+000	2.007099e+000	6.291847e-001
3.200000000099976e+000	2.007099e+000	6.272186e-001
3.210000000099976e+000	2.007100e+000	6.252646e-001
3.220000000099975e+000	2.007100e+000	6.233229e-001
3.230000000099975e+000	2.007100e+000	6.213931e-001
3.240000000099975e+000	2.007100e+000	6.194753e-001
3.250000000099975e+000	2.007100e+000	6.175693e-001
3.260000000099975e+000	2.007100e+000	6.156749e-001
3.270000000099974e+000	2.007100e+000	6.137922e-001
3.280000000099974e+000	2.007101e+000	6.119209e-001
3.290000000099974e+000	2.007101e+000	6.100610e-001
3.300000000099974e+000	2.007101e+000	6.082124e-001
3.310000000099973e+000	2.007101e+000	6.063749e-001
3.320000000099973e+000	2.007101e+000	6.045484e-001
3.330000000099973e+000	2.007101e+000	6.027331e-001
3.340000000099973e+000	2.007043e+000	6.009110e-001
3.350000000099973e+000	2.007101e+000	5.991347e-001
3.360000000099972e+000	2.007102e+000	5.973516e-001
3.370000000099972e+000	2.007102e+000	5.955791e-001
3.380000000099972e+000	2.007102e+000	5.938171e-001
3.390000000099972e+000	2.007102e+000	5.920655e-001
3.400000000099972e+000	2.007102e+000	5.903241e-001
3.410000000099971e+000	2.007102e+000	5.885929e-001
3.420000000099971e+000	2.007102e+000	5.868720e-001
3.430000000099971e+000	2.007102e+000	5.851610e-001
3.440000000099971e+000	2.007102e+000	5.834600e-001
3.450000000099970e+000	2.007102e+000	5.817688e-001
3.460000000099970e+000	2.007102e+000	5.800874e-001
3.470000000099970e+000	2.007103e+000	5.784158e-001
3.480000000099970e+000	2.007102e+000	5.767536e-001
3.490000000099970e+000	2.007103e+000	5.751011e-001
3.500000000099969e+000	2.007103e+000	5.734580e-001
3.510000000099969e+000	2.007103e+000	5.718243e-001
3.520000000099969e+000	2.007103e+000	5.701998e-001
3.530000000099969e+000	2.007103e+000	5.685845e-001
3.540000000099969e+000	2.007103e+000	5.669784e-001
3.550000000099968e+000	2.007104e+000	5.653813e-001
3.560000000099968e+000	2.007104e+000	5.637932e-001
3.570000000099968e+000	2.007104e+000	5.622140e-001
3.580000000099968e+000	2.007104e+000	5.606436e-001
3.590000000099967e+000	2.007104e+000	5.590819e-001
3.600000000099967e+000	2.007104e+000	5.575289e-001
3.610000000099967e+000	2.007104e+000	5.559846e-001
3.620000000099967e+000	2.007104e+000	5.544487e-001
3.630000000099967e+000	2.007104e+000	5.529214e-001
3.640000000099966e+000	2.007105e+000	5.514023e-001
3.650000000099966e+000	2.007105e+000	5.498917e-001
3.660000000099966e+000	2.007105e+000	5.483893e-001
3.670000000099966e+000	2.007105e+000	5.468951e-001
3.680000000099966e+000	2.007105e+000	5.454090e-001
3.690000000099965e+000	2.007105e+000	5.439309e-001
3.700000000099965e+000	2.007105e+000	5.424609e-001
3.710000000099965e+000	2.007105e+000	5.409987e-001
3.720000000099965e+000	2.007105e+000	5.395445e-001
3.730000000099965e+000	2.007048e+000	5.380825e-001
3.740000000099964e+000	2.007106e+000	5.366592e-001
3.750000000099964e+000	2.007105e+000	5.352281e-001
3.760000000099964e+000	2.007106e+000	5.338047e-001
3.770000000099964e+000	2.007106e+000	5.323888e-001
3.780000000099963e+000	2.007106e+000	5.309804e-001
3.790000000099963e+000	2.007106e+000	5.295795e-001
3.800000000099963e+000	2.007106e+000	5.281858e-001
3.810000000099963e+000	2.007106e+000	5.267994e-001
3.820000000099963e+000	2.007106e+000	5.254205e-001
3.830000000099962e+000	2.007107e+000	5.240487e-001
3.840000000099962e+000	2.007107e+000	5.226840e-001
3.850000000099962e+000	2.007107e+000	5.213264e-001
3.860000000099962e+000	2.007107e+000	5.199758e-001
3.870000000099962e+000	2.007107e+000	5.186322e-001
3.880000000099961e+000	2.007107e+000	5.172956e-001
3.890000000099961e+000	2.007107e+000	5.159658e-001
3.900000000099961e+000	2.007107e+000	5.146428e-001
