Freq.	V(N004,N006)/-I(V2)-V(n006)/I(R5)
1.00000000000000e-001	(-3.90542183602668e+001dB,4.75306536422301e-003°)
1.00230523807790e-001	(-3.90542183601288e+001dB,4.76402231143667e-003°)
1.00461579027840e-001	(-3.90542183599902e+001dB,4.77500451702267e-003°)
1.00693166885180e-001	(-3.90542183598510e+001dB,4.78601203920660e-003°)
1.00925288607668e-001	(-3.90542183597111e+001dB,4.79704493634867e-003°)
1.01157945425990e-001	(-3.90542183595706e+001dB,4.80810326694643e-003°)
1.01391138573668e-001	(-3.90542183594294e+001dB,4.81918708962711e-003°)
1.01624869287070e-001	(-3.90542183592876e+001dB,4.83029646315888e-003°)
1.01859138805412e-001	(-3.90542183591451e+001dB,4.84143144643803e-003°)
1.02093948370768e-001	(-3.90542183590020e+001dB,4.85259209850712e-003°)
1.02329299228075e-001	(-3.90542183588582e+001dB,4.86377847853655e-003°)
1.02565192625141e-001	(-3.90542183587138e+001dB,4.87499064583405e-003°)
1.02801629812647e-001	(-3.90542183585686e+001dB,4.88622865984473e-003°)
1.03038612044162e-001	(-3.90542183584228e+001dB,4.89749258015281e-003°)
1.03276140576140e-001	(-3.90542183582764e+001dB,4.90878246648071e-003°)
1.03514216667934e-001	(-3.90542183581292e+001dB,4.92009837868275e-003°)
1.03752841581801e-001	(-3.90542183579814e+001dB,4.93144037675766e-003°)
1.03992016582906e-001	(-3.90542183578329e+001dB,4.94280852083532e-003°)
1.04231742939330e-001	(-3.90542183576837e+001dB,4.95420287119185e-003°)
1.04472021922080e-001	(-3.90542183575338e+001dB,4.96562348823884e-003°)
1.04712854805090e-001	(-3.90542183573833e+001dB,4.97707043252927e-003°)
1.04954242865232e-001	(-3.90542183572320e+001dB,4.98854376474911e-003°)
1.05196187382322e-001	(-3.90542183570801e+001dB,5.00004354573005e-003°)
1.05438689639126e-001	(-3.90542183569274e+001dB,5.01156983644250e-003°)
1.05681750921366e-001	(-3.90542183567740e+001dB,5.02312269800118e-003°)
1.05925372517729e-001	(-3.90542183566200e+001dB,5.03470219165541e-003°)
1.06169555719872e-001	(-3.90542183564652e+001dB,5.04630837879875e-003°)
1.06414301822431e-001	(-3.90542183563097e+001dB,5.05794132096542e-003°)
1.06659612123026e-001	(-3.90542183561534e+001dB,5.06960107983461e-003°)
1.06905487922266e-001	(-3.90542183559965e+001dB,5.08128771722109e-003°)
1.07151930523760e-001	(-3.90542183558388e+001dB,5.09300129508973e-003°)
1.07398941234124e-001	(-3.90542183556804e+001dB,5.10474187554589e-003°)
1.07646521362983e-001	(-3.90542183555213e+001dB,5.11650952083136e-003°)
1.07894672222983e-001	(-3.90542183553615e+001dB,5.12830429334218e-003°)
1.08143395129794e-001	(-3.90542183552009e+001dB,5.14012625561165e-003°)
1.08392691402120e-001	(-3.90542183550395e+001dB,5.15197547031530e-003°)
1.08642562361706e-001	(-3.90542183548775e+001dB,5.16385200028325e-003°)
1.08893009333343e-001	(-3.90542183547146e+001dB,5.17575590847821e-003°)
1.09144033644875e-001	(-3.90542183545510e+001dB,5.18768725801410e-003°)
1.09395636627209e-001	(-3.90542183543867e+001dB,5.19964611215278e-003°)
1.09647819614318e-001	(-3.90542183540445e+001dB,5.21163253418811e-003°)
1.09900583943252e-001	(-3.90542183540558e+001dB,5.22364658799561e-003°)
1.10153930954141e-001	(-3.90542183537120e+001dB,5.23568833684217e-003°)
1.10407861990207e-001	(-3.90542183537217e+001dB,5.24775784500023e-003°)
1.10662378397766e-001	(-3.90542183535536e+001dB,5.25985517613936e-003°)
1.10917481526240e-001	(-3.90542183532075e+001dB,5.27198039439963e-003°)
1.11173172728159e-001	(-3.90542183532149e+001dB,5.28413356439128e-003°)
1.11429453359173e-001	(-3.90542183530444e+001dB,5.29631475022165e-003°)
1.11686324778056e-001	(-3.90542183528731e+001dB,5.30852401658781e-003°)
1.11943788346715e-001	(-3.90542183527010e+001dB,5.32076142821660e-003°)
1.12201845430196e-001	(-3.90542183523511e+001dB,5.33302704988580e-003°)
1.12460497396692e-001	(-3.90542183521774e+001dB,5.34532094684171e-003°)
1.12719745617551e-001	(-3.90542183520029e+001dB,5.35764318415470e-003°)
1.12979591467279e-001	(-3.90542183518276e+001dB,5.36999382715623e-003°)
1.13240036323555e-001	(-3.90542183516515e+001dB,5.38237294133385e-003°)
1.13501081567231e-001	(-3.90542183514746e+001dB,5.39478059231220e-003°)
1.13762728582343e-001	(-3.90542183512969e+001dB,5.40721684588302e-003°)
1.14024978756117e-001	(-3.90542183511184e+001dB,5.41968176797799e-003°)
1.14287833478977e-001	(-3.90542183509390e+001dB,5.43217542468387e-003°)
1.14551294144553e-001	(-3.90542183507588e+001dB,5.44469788224510e-003°)
1.14815362149688e-001	(-3.90542183505778e+001dB,5.45724920704905e-003°)
1.15080038894443e-001	(-3.90542183503959e+001dB,5.46982946564635e-003°)
1.15345325782109e-001	(-3.90542183502132e+001dB,5.48243872473196e-003°)
1.15611224219209e-001	(-3.90542183500297e+001dB,5.49507705116202e-003°)
1.15877735615512e-001	(-3.90542183498453e+001dB,5.50774451194465e-003°)
1.16144861384034e-001	(-3.90542183496601e+001dB,5.52044117423633e-003°)
1.16412602941049e-001	(-3.90542183494740e+001dB,5.53316710536011e-003°)
1.16680961706096e-001	(-3.90542183492870e+001dB,5.54592237278314e-003°)
1.16949939101987e-001	(-3.90542183490992e+001dB,5.55870704413520e-003°)
1.17219536554813e-001	(-3.90542183489105e+001dB,5.57152118719654e-003°)
1.17489755493952e-001	(-3.90542183487210e+001dB,5.58436486990710e-003°)
1.17760597352080e-001	(-3.90542183485305e+001dB,5.59723816036269e-003°)
1.18032063565172e-001	(-3.90542183483392e+001dB,5.61014112682044e-003°)
1.18304155572516e-001	(-3.90542183481470e+001dB,5.62307383768443e-003°)
1.18576874816716e-001	(-3.90542183479540e+001dB,5.63603636152695e-003°)
1.18850222743701e-001	(-3.90542183477600e+001dB,5.64902876707064e-003°)
1.19124200802737e-001	(-3.90542183475651e+001dB,5.66205112320450e-003°)
1.19398810446427e-001	(-3.90542183473694e+001dB,5.67510349896762e-003°)
1.19674053130724e-001	(-3.90542183471727e+001dB,5.68818596356409e-003°)
1.19949930314937e-001	(-3.90542183469751e+001dB,5.70129858635358e-003°)
1.20226443461741e-001	(-3.90542183467766e+001dB,5.71444143686057e-003°)
1.20503594037179e-001	(-3.90542183465772e+001dB,5.72761458476852e-003°)
1.20781383510677e-001	(-3.90542183463769e+001dB,5.74081809991590e-003°)
1.21059813355048e-001	(-3.90542183461757e+001dB,5.75405205231042e-003°)
1.21338885046497e-001	(-3.90542183459735e+001dB,5.76731651211353e-003°)
1.21618600064636e-001	(-3.90542183457704e+001dB,5.78061154965335e-003°)
1.21898959892486e-001	(-3.90542183455663e+001dB,5.79393723542156e-003°)
1.22179966016487e-001	(-3.90542183453613e+001dB,5.80729364006602e-003°)
1.22461619926504e-001	(-3.90542183451554e+001dB,5.82068083440210e-003°)
1.22743923115840e-001	(-3.90542183449485e+001dB,5.83409888940837e-003°)
1.23026877081238e-001	(-3.90542183447407e+001dB,5.84754787622519e-003°)
1.23310483322890e-001	(-3.90542183445319e+001dB,5.86102786615787e-003°)
1.23594743344450e-001	(-3.90542183443221e+001dB,5.87453893067713e-003°)
1.23879658653036e-001	(-3.90542183441114e+001dB,5.88808114141281e-003°)
1.24165230759240e-001	(-3.90542183438997e+001dB,5.90165457017190e-003°)
1.24451461177138e-001	(-3.90542183436870e+001dB,5.91525928891237e-003°)
1.24738351424294e-001	(-3.90542183434733e+001dB,5.92889536977061e-003°)
1.25025903021771e-001	(-3.90542183432587e+001dB,5.94256288503635e-003°)
1.25314117494141e-001	(-3.90542183430430e+001dB,5.95626190718299e-003°)
1.25602996369487e-001	(-3.90542183428264e+001dB,5.96999250883144e-003°)
1.25892541179416e-001	(-3.90542183426088e+001dB,5.98375476278911e-003°)
1.26182753459066e-001	(-3.90542183423901e+001dB,5.99754874201563e-003°)
1.26473634747114e-001	(-3.90542183421705e+001dB,6.01137451964867e-003°)
1.26765186585784e-001	(-3.90542183419498e+001dB,6.02523216899037e-003°)
1.27057410520853e-001	(-3.90542183417281e+001dB,6.03912176351217e-003°)
1.27350308101665e-001	(-3.90542183415054e+001dB,6.05304337685456e-003°)
1.27643880881134e-001	(-3.90542183412817e+001dB,6.06699708283017e-003°)
1.27938130415752e-001	(-3.90542183410569e+001dB,6.08098295541816e-003°)
1.28233058265601e-001	(-3.90542183408311e+001dB,6.09500106877298e-003°)
1.28528665994361e-001	(-3.90542183406043e+001dB,6.10905149721525e-003°)
1.28824955169313e-001	(-3.90542183403764e+001dB,6.12313431523869e-003°)
1.29121927361353e-001	(-3.90542183401474e+001dB,6.13724959750974e-003°)
1.29419584144998e-001	(-3.90542183399174e+001dB,6.15139741886813e-003°)
1.29717927098395e-001	(-3.90542183396864e+001dB,6.16557785432015e-003°)
1.30016957803328e-001	(-3.90542183394542e+001dB,6.17979097905267e-003°)
1.30316677845229e-001	(-3.90542183392210e+001dB,6.19403686841939e-003°)
1.30617088813183e-001	(-3.90542183389867e+001dB,6.20831559795520e-003°)
1.30918192299940e-001	(-3.90542183387514e+001dB,6.22262724335728e-003°)
1.31219989901919e-001	(-3.90542183385149e+001dB,6.23697188051160e-003°)
1.31522483219223e-001	(-3.90542183382774e+001dB,6.25134958546728e-003°)
1.31825673855640e-001	(-3.90542183380388e+001dB,6.26576043445380e-003°)
1.32129563418657e-001	(-3.90542183377990e+001dB,6.28020450387812e-003°)
1.32434153519466e-001	(-3.90542183375582e+001dB,6.29468187032280e-003°)
1.32739445772973e-001	(-3.90542183373162e+001dB,6.30919261054001e-003°)
1.33045441797808e-001	(-3.90542183370732e+001dB,6.32373680146937e-003°)
1.33352143216331e-001	(-3.90542183368290e+001dB,6.33831452022021e-003°)
1.33659551654643e-001	(-3.90542183365836e+001dB,6.35292584408192e-003°)
1.33967668742593e-001	(-3.90542183363372e+001dB,6.36757085052249e-003°)
1.34276496113785e-001	(-3.90542183360896e+001dB,6.38224961719076e-003°)
1.34586035405594e-001	(-3.90542183358409e+001dB,6.39696222190832e-003°)
1.34896288259164e-001	(-3.90542183355910e+001dB,6.41170874268276e-003°)
1.35207256319427e-001	(-3.90542183353400e+001dB,6.42648925769527e-003°)
1.35518941235103e-001	(-3.90542183350878e+001dB,6.44130384531528e-003°)
1.35831344658714e-001	(-3.90542183348344e+001dB,6.45615258408623e-003°)
1.36144468246594e-001	(-3.90542183345799e+001dB,6.47103555273134e-003°)
1.36458313658891e-001	(-3.90542183343242e+001dB,6.48595283016527e-003°)
1.36772882559584e-001	(-3.90542183340673e+001dB,6.50090449547298e-003°)
1.37088176616484e-001	(-3.90542183338092e+001dB,6.51589062792702e-003°)
1.37404197501250e-001	(-3.90542183335500e+001dB,6.53091130698354e-003°)
1.37720946889394e-001	(-3.90542183332895e+001dB,6.54596661228127e-003°)
1.38038426460287e-001	(-3.90542183330279e+001dB,6.56105662363943e-003°)
1.38356637897177e-001	(-3.90542183327650e+001dB,6.57618142106739e-003°)
1.38675582887188e-001	(-3.90542183325009e+001dB,6.59134108475484e-003°)
1.38995263121334e-001	(-3.90542183322356e+001dB,6.60653569507184e-003°)
1.39315680294529e-001	(-3.90542183319691e+001dB,6.62176533258394e-003°)
1.39636836105593e-001	(-3.90542183317014e+001dB,6.63703007803383e-003°)
1.39958732257261e-001	(-3.90542183314324e+001dB,6.65233001235761e-003°)
1.40281370456195e-001	(-3.90542183311621e+001dB,6.66766521667179e-003°)
1.40604752412990e-001	(-3.90542183308907e+001dB,6.68303577228059e-003°)
1.40928879842186e-001	(-3.90542183306179e+001dB,6.69844176067770e-003°)
1.41253754462274e-001	(-3.90542183303439e+001dB,6.71388326354471e-003°)
1.41579377995707e-001	(-3.90542183300687e+001dB,6.72936036275350e-003°)
1.41905752168908e-001	(-3.90542183297922e+001dB,6.74487314035753e-003°)
1.42232878712281e-001	(-3.90542183295144e+001dB,6.76042167860985e-003°)
1.42560759360218e-001	(-3.90542183292353e+001dB,6.77600605993928e-003°)
1.42889395851109e-001	(-3.90542183289549e+001dB,6.79162636697714e-003°)
1.43218789927353e-001	(-3.90542183286732e+001dB,6.80728268254253e-003°)
1.43548943335364e-001	(-3.90542183283903e+001dB,6.82297508964286e-003°)
1.43879857825583e-001	(-3.90542183281060e+001dB,6.83870367147538e-003°)
1.44211535152486e-001	(-3.90542183278204e+001dB,6.85446851143028e-003°)
1.44543977074591e-001	(-3.90542183275335e+001dB,6.87026969309558e-003°)
1.44877185354475e-001	(-3.90542183272453e+001dB,6.88610730024589e-003°)
1.45211161758773e-001	(-3.90542183269557e+001dB,6.90198141684931e-003°)
1.45545908058195e-001	(-3.90542183266648e+001dB,6.91789212706978e-003°)
1.45881426027534e-001	(-3.90542183263726e+001dB,6.93383951526368e-003°)
1.46217717445671e-001	(-3.90542183260790e+001dB,6.94982366598333e-003°)
1.46554784095590e-001	(-3.90542183257841e+001dB,6.96584466397666e-003°)
1.46892627764385e-001	(-3.90542183254878e+001dB,6.98190259418115e-003°)
1.47231250243271e-001	(-3.90542183251901e+001dB,6.99799754173737e-003°)
1.47570653327588e-001	(-3.90542183248911e+001dB,7.01412959197852e-003°)
1.47910838816819e-001	(-3.90542183245907e+001dB,7.03029883043699e-003°)
1.48251808514594e-001	(-3.90542183242888e+001dB,7.04650534283665e-003°)
1.48593564228699e-001	(-3.90542183239856e+001dB,7.06274921510329e-003°)
1.48936107771090e-001	(-3.90542183236810e+001dB,7.07903053336167e-003°)
1.49279440957898e-001	(-3.90542183233750e+001dB,7.09534938393494e-003°)
1.49623565609442e-001	(-3.90542183230676e+001dB,7.11170585334406e-003°)
1.49968483550236e-001	(-3.90542183227588e+001dB,7.12810002830742e-003°)
1.50314196609001e-001	(-3.90542183224485e+001dB,7.14453199574474e-003°)
1.50660706618673e-001	(-3.90542183221368e+001dB,7.16100184278074e-003°)
1.51008015416413e-001	(-3.90542183218237e+001dB,7.17750965672903e-003°)
1.51356124843619e-001	(-3.90542183214205e+001dB,7.19405552504592e-003°)
1.51705036745932e-001	(-3.90542183211045e+001dB,7.21063953560465e-003°)
1.52054752973248e-001	(-3.90542183208756e+001dB,7.22726177632756e-003°)
1.52405275379728e-001	(-3.90542183204680e+001dB,7.24392233511850e-003°)
1.52756605823806e-001	(-3.90542183201476e+001dB,7.26062130054300e-003°)
1.53108746168202e-001	(-3.90542183198257e+001dB,7.27735876105485e-003°)
1.53461698279928e-001	(-3.90542183195023e+001dB,7.29413480539539e-003°)
1.53815464030302e-001	(-3.90542183191774e+001dB,7.31094952251185e-003°)
1.54170045294954e-001	(-3.90542183188510e+001dB,7.32780300155378e-003°)
1.54525443953840e-001	(-3.90542183185231e+001dB,7.34469533187620e-003°)
1.54881661891247e-001	(-3.90542183181937e+001dB,7.36162660303707e-003°)
1.55238700995807e-001	(-3.90542183178628e+001dB,7.37859690481061e-003°)
1.55596563160506e-001	(-3.90542183175304e+001dB,7.39560632716884e-003°)
1.55955250282694e-001	(-3.90542183171964e+001dB,7.41265496029261e-003°)
1.56314764264094e-001	(-3.90542183168608e+001dB,7.42974289457635e-003°)
1.56675107010813e-001	(-3.90542183165238e+001dB,7.44687022061131e-003°)
1.57036280433354e-001	(-3.90542183161851e+001dB,7.46403702921349e-003°)
1.57398286446620e-001	(-3.90542183158449e+001dB,7.48124341139115e-003°)
1.57761126969933e-001	(-3.90542183155031e+001dB,7.49848945837805e-003°)
1.58124803927037e-001	(-3.90542183151598e+001dB,7.51577526160478e-003°)
1.58489319246110e-001	(-3.90542183148149e+001dB,7.53310091272142e-003°)
1.58854674859776e-001	(-3.90542183144684e+001dB,7.55046650358993e-003°)
1.59220872705115e-001	(-3.90542183141202e+001dB,7.56787212627879e-003°)
1.59587914723672e-001	(-3.90542183137705e+001dB,7.58531787306928e-003°)
1.59955802861465e-001	(-3.90542183134192e+001dB,7.60280383645764e-003°)
1.60324539069002e-001	(-3.90542183130662e+001dB,7.62033010915301e-003°)
1.60694125301286e-001	(-3.90542183127116e+001dB,7.63789678407950e-003°)
1.61064563517825e-001	(-3.90542183123554e+001dB,7.65550395437339e-003°)
1.61435855682647e-001	(-3.90542183119975e+001dB,7.67315171338255e-003°)
1.61808003764305e-001	(-3.90542183116380e+001dB,7.69084015467912e-003°)
1.62181009735891e-001	(-3.90542183112768e+001dB,7.70856937204001e-003°)
1.62554875575047e-001	(-3.90542183109139e+001dB,7.72633945946853e-003°)
1.62929603263970e-001	(-3.90542183105494e+001dB,7.74415051117533e-003°)
1.63305194789432e-001	(-3.90542183101832e+001dB,7.76200262159599e-003°)
1.63681652142779e-001	(-3.90542183098153e+001dB,7.77989588538091e-003°)
1.64058977319952e-001	(-3.90542183094457e+001dB,7.79783039739488e-003°)
1.64437172321491e-001	(-3.90542183090744e+001dB,7.81580625273107e-003°)
1.64816239152549e-001	(-3.90542183087013e+001dB,7.83382354668891e-003°)
1.65196179822900e-001	(-3.90542183083266e+001dB,7.85188237480110e-003°)
1.65576996346951e-001	(-3.90542183079501e+001dB,7.86998283280687e-003°)
1.65958690743754e-001	(-3.90542183075719e+001dB,7.88812501667429e-003°)
1.66341265037015e-001	(-3.90542183071920e+001dB,7.90630902259632e-003°)
1.66724721255104e-001	(-3.90542183068103e+001dB,7.92453494698058e-003°)
1.67109061431069e-001	(-3.90542183064268e+001dB,7.94280288645420e-003°)
1.67494287602642e-001	(-3.90542183060415e+001dB,7.96111293787682e-003°)
1.67880401812254e-001	(-3.90542183056545e+001dB,7.97946519832926e-003°)
1.68267406107045e-001	(-3.90542183052657e+001dB,7.99785976510650e-003°)
1.68655302538872e-001	(-3.90542183048751e+001dB,8.01629673573840e-003°)
1.69044093164324e-001	(-3.90542183044827e+001dB,8.03477620797509e-003°)
1.69433780044731e-001	(-3.90542183040885e+001dB,8.05329827979508e-003°)
1.69824365246172e-001	(-3.90542183036925e+001dB,8.07186304939523e-003°)
1.70215850839493e-001	(-3.90542183032946e+001dB,8.09047061520938e-003°)
1.70608238900310e-001	(-3.90542183028949e+001dB,8.10912107588999e-003°)
1.71001531509027e-001	(-3.90542183024934e+001dB,8.12781453032108e-003°)
1.71395730750840e-001	(-3.90542183020900e+001dB,8.14655107761486e-003°)
1.71790838715757e-001	(-3.90542183016847e+001dB,8.16533081711004e-003°)
1.72186857498599e-001	(-3.90542183012776e+001dB,8.18415384837168e-003°)
1.72583789199018e-001	(-3.90542183008686e+001dB,8.20302027119937e-003°)
1.72981635921508e-001	(-3.90542183003691e+001dB,8.22193018554195e-003°)
1.73380399775412e-001	(-3.90542183000449e+001dB,8.24088369190216e-003°)
1.73780082874935e-001	(-3.90542182996302e+001dB,8.25988089051968e-003°)
1.74180687339159e-001	(-3.90542182991250e+001dB,8.27892188211956e-003°)
1.74582215292048e-001	(-3.90542182987065e+001dB,8.29800676781875e-003°)
1.74984668862463e-001	(-3.90542182982860e+001dB,8.31713564872395e-003°)
1.75388050184174e-001	(-3.90542182979522e+001dB,8.33630862633342e-003°)
1.75792361395867e-001	(-3.90542182974392e+001dB,8.35552580205027e-003°)
1.76197604641161e-001	(-3.90542182970129e+001dB,8.37478727801574e-003°)
1.76603782068614e-001	(-3.90542182965846e+001dB,8.39409315626873e-003°)
1.77010895831740e-001	(-3.90542182961544e+001dB,8.41344353916415e-003°)
1.77418948089014e-001	(-3.90542182957221e+001dB,8.43283852929553e-003°)
1.77827941003890e-001	(-3.90542182952879e+001dB,8.45227822949715e-003°)
1.78237876744807e-001	(-3.90542182948516e+001dB,8.47176274283367e-003°)
1.78648757485203e-001	(-3.90542182944134e+001dB,8.49129217260769e-003°)
1.79060585403527e-001	(-3.90542182939731e+001dB,8.51086662236917e-003°)
1.79473362683250e-001	(-3.90542182935308e+001dB,8.53048619589199e-003°)
1.79887091512876e-001	(-3.90542182930864e+001dB,8.55015099720214e-003°)
1.80301774085954e-001	(-3.90542182926400e+001dB,8.56986113055856e-003°)
1.80717412601090e-001	(-3.90542182921915e+001dB,8.58961670046375e-003°)
1.81134009261958e-001	(-3.90542182917410e+001dB,8.60941781165940e-003°)
1.81551566277311e-001	(-3.90542182912884e+001dB,8.62926456912621e-003°)
1.81970085860996e-001	(-3.90542182908337e+001dB,8.64915707809562e-003°)
1.82389570231961e-001	(-3.90542182902883e+001dB,8.66909544394023e-003°)
1.82810021614272e-001	(-3.90542182898294e+001dB,8.68907977255154e-003°)
1.83231442237119e-001	(-3.90542182894569e+001dB,8.70911016988755e-003°)
1.83653834334832e-001	(-3.90542182889938e+001dB,8.72918674196448e-003°)
1.84077200146893e-001	(-3.90542182884399e+001dB,8.74930959522721e-003°)
1.84501541917945e-001	(-3.90542182879724e+001dB,8.76947883654924e-003°)
1.84926861897805e-001	(-3.90542182875028e+001dB,8.78969457277022e-003°)
1.85353162341479e-001	(-3.90542182870311e+001dB,8.80995691107372e-003°)
1.85780445509167e-001	(-3.90542182865571e+001dB,8.83026595888914e-003°)
1.86208713666284e-001	(-3.90542182860810e+001dB,8.85062182389152e-003°)
1.86637969083464e-001	(-3.90542182856027e+001dB,8.87102461400455e-003°)
1.87068214036577e-001	(-3.90542182851221e+001dB,8.89147443740904e-003°)
1.87499450806739e-001	(-3.90542182846393e+001dB,8.91197140251958e-003°)
1.87931681680324e-001	(-3.90542182841544e+001dB,8.93251561801691e-003°)
1.88364908948977e-001	(-3.90542182836671e+001dB,8.95310719281568e-003°)
1.88799134909627e-001	(-3.90542182831776e+001dB,8.97374623609400e-003°)
