rl	V(current_feedback)	V(voltage_feedback)	V(vout)	-I(Rl)
1.000000000000000e-010	1.027619e+000	2.675620e-002	2.054156e-010	2.054156e+000
1.000000010000000e-002	1.027609e+000	2.880323e-002	2.054136e-002	2.054136e+000
2.000000010000000e-002	1.027598e+000	3.085022e-002	4.108229e-002	2.054114e+000
3.000000010000000e-002	1.027586e+000	3.289717e-002	6.162282e-002	2.054094e+000
4.000000010000000e-002	1.027575e+000	3.494408e-002	8.216295e-002	2.054074e+000
5.000000010000000e-002	1.027565e+000	3.699098e-002	1.027027e-001	2.054053e+000
6.000000010000001e-002	1.027554e+000	3.903779e-002	1.232420e-001	2.054033e+000
7.000000010000000e-002	1.027543e+000	4.108458e-002	1.437809e-001	2.054012e+000
8.000000010000000e-002	1.027532e+000	4.313133e-002	1.643193e-001	2.053992e+000
9.000000009999999e-002	1.027521e+000	4.517803e-002	1.848574e-001	2.053971e+000
1.000000001000000e-001	1.027510e+000	4.722470e-002	2.053950e-001	2.053950e+000
1.100000001000000e-001	1.027499e+000	4.927133e-002	2.259323e-001	2.053930e+000
1.200000001000000e-001	1.027488e+000	5.131792e-002	2.464691e-001	2.053909e+000
1.300000001000000e-001	1.027477e+000	5.336447e-002	2.670055e-001	2.053889e+000
1.400000001000000e-001	1.027466e+000	5.541098e-002	2.875415e-001	2.053868e+000
1.500000001000000e-001	1.027455e+000	5.745745e-002	3.080772e-001	2.053848e+000
1.600000001000000e-001	1.027444e+000	5.950390e-002	3.286123e-001	2.053827e+000
1.700000001000000e-001	1.027433e+000	6.155027e-002	3.491471e-001	2.053807e+000
1.800000001000000e-001	1.027422e+000	6.359661e-002	3.696815e-001	2.053786e+000
1.900000001000000e-001	1.027411e+000	6.564293e-002	3.902155e-001	2.053766e+000
2.000000001000001e-001	1.027400e+000	6.768943e-002	4.107490e-001	2.053745e+000
2.100000001000001e-001	1.027389e+000	6.973542e-002	4.312822e-001	2.053725e+000
2.200000001000001e-001	1.027378e+000	7.178161e-002	4.518149e-001	2.053704e+000
2.300000001000001e-001	1.027367e+000	7.382777e-002	4.723473e-001	2.053684e+000
2.400000001000001e-001	1.027357e+000	7.587387e-002	4.928792e-001	2.053663e+000
2.500000001000001e-001	1.027346e+000	7.791994e-002	5.134107e-001	2.053643e+000
2.600000001000001e-001	1.027335e+000	7.996597e-002	5.339418e-001	2.053622e+000
2.700000001000001e-001	1.027324e+000	8.201196e-002	5.544725e-001	2.053602e+000
2.800000001000001e-001	1.027313e+000	8.405790e-002	5.750028e-001	2.053581e+000
2.900000001000001e-001	1.027302e+000	8.610382e-002	5.955328e-001	2.053561e+000
3.000000001000001e-001	1.027291e+000	8.814969e-002	6.160622e-001	2.053541e+000
3.100000001000001e-001	1.027280e+000	9.019552e-002	6.365913e-001	2.053520e+000
3.200000001000001e-001	1.027269e+000	9.224131e-002	6.571200e-001	2.053500e+000
3.300000001000001e-001	1.027259e+000	9.428706e-002	6.776482e-001	2.053480e+000
3.400000001000001e-001	1.027248e+000	9.633277e-002	6.981761e-001	2.053459e+000
3.500000001000002e-001	1.027237e+000	9.837844e-002	7.187036e-001	2.053439e+000
3.600000001000002e-001	1.027226e+000	1.004241e-001	7.392306e-001	2.053418e+000
3.700000001000002e-001	1.027215e+000	1.024697e-001	7.597573e-001	2.053398e+000
3.800000001000002e-001	1.027204e+000	1.045152e-001	7.802836e-001	2.053378e+000
3.900000001000002e-001	1.027193e+000	1.065607e-001	8.008094e-001	2.053357e+000
4.000000001000002e-001	1.027182e+000	1.086062e-001	8.213348e-001	2.053337e+000
4.100000001000002e-001	1.027172e+000	1.106516e-001	8.418599e-001	2.053317e+000
4.200000001000002e-001	1.027161e+000	1.126970e-001	8.623846e-001	2.053297e+000
4.300000001000002e-001	1.027150e+000	1.147424e-001	8.829088e-001	2.053276e+000
4.400000001000002e-001	1.027139e+000	1.167877e-001	9.034325e-001	2.053256e+000
4.500000001000002e-001	1.027128e+000	1.188330e-001	9.239560e-001	2.053236e+000
4.600000001000003e-001	1.027117e+000	1.208782e-001	9.444790e-001	2.053215e+000
4.700000001000003e-001	1.027107e+000	1.229234e-001	9.650016e-001	2.053195e+000
4.800000001000003e-001	1.027096e+000	1.249686e-001	9.855238e-001	2.053175e+000
4.900000001000003e-001	1.027085e+000	1.270137e-001	1.006046e+000	2.053154e+000
5.000000001000002e-001	1.027074e+000	1.290588e-001	1.026567e+000	2.053134e+000
5.100000001000002e-001	1.027063e+000	1.311038e-001	1.047088e+000	2.053114e+000
5.200000001000003e-001	1.027052e+000	1.331488e-001	1.067609e+000	2.053094e+000
5.300000001000003e-001	1.027042e+000	1.351938e-001	1.088129e+000	2.053073e+000
5.400000001000003e-001	1.027031e+000	1.372387e-001	1.108649e+000	2.053053e+000
5.500000001000003e-001	1.027020e+000	1.392836e-001	1.129168e+000	2.053033e+000
5.600000001000003e-001	1.027009e+000	1.413284e-001	1.149687e+000	2.053013e+000
5.700000001000003e-001	1.026998e+000	1.433733e-001	1.170206e+000	2.052993e+000
5.800000001000003e-001	1.026988e+000	1.454180e-001	1.190724e+000	2.052972e+000
5.900000001000003e-001	1.026977e+000	1.474627e-001	1.211242e+000	2.052952e+000
6.000000001000003e-001	1.026966e+000	1.495074e-001	1.231759e+000	2.052932e+000
6.100000001000003e-001	1.026955e+000	1.515521e-001	1.252276e+000	2.052912e+000
6.200000001000003e-001	1.026945e+000	1.535967e-001	1.272793e+000	2.052891e+000
6.300000001000004e-001	1.026934e+000	1.556413e-001	1.293309e+000	2.052871e+000
6.400000001000004e-001	1.026923e+000	1.576858e-001	1.313825e+000	2.052851e+000
6.500000001000004e-001	1.026912e+000	1.597303e-001	1.334340e+000	2.052831e+000
6.600000001000004e-001	1.026901e+000	1.617747e-001	1.354855e+000	2.052811e+000
6.700000001000004e-001	1.026891e+000	1.638191e-001	1.375370e+000	2.052791e+000
6.800000001000004e-001	1.026880e+000	1.658635e-001	1.395884e+000	2.052771e+000
6.900000001000004e-001	1.026869e+000	1.679078e-001	1.416398e+000	2.052751e+000
7.000000001000004e-001	1.026858e+000	1.699522e-001	1.436911e+000	2.052730e+000
7.100000001000004e-001	1.026848e+000	1.719964e-001	1.457424e+000	2.052710e+000
7.200000001000004e-001	1.026837e+000	1.740406e-001	1.477937e+000	2.052690e+000
7.300000001000004e-001	1.026826e+000	1.760848e-001	1.498449e+000	2.052670e+000
7.400000001000004e-001	1.026815e+000	1.781290e-001	1.518961e+000	2.052650e+000
7.500000001000005e-001	1.026805e+000	1.801731e-001	1.539472e+000	2.052630e+000
7.600000001000005e-001	1.026794e+000	1.822171e-001	1.559983e+000	2.052610e+000
7.700000001000005e-001	1.026783e+000	1.842612e-001	1.580494e+000	2.052590e+000
7.800000001000005e-001	1.026773e+000	1.863052e-001	1.601004e+000	2.052570e+000
7.900000001000005e-001	1.026762e+000	1.883491e-001	1.621514e+000	2.052550e+000
8.000000001000005e-001	1.026751e+000	1.903930e-001	1.642024e+000	2.052530e+000
8.100000001000005e-001	1.026740e+000	1.924369e-001	1.662533e+000	2.052510e+000
8.200000001000005e-001	1.026730e+000	1.944807e-001	1.683041e+000	2.052490e+000
8.300000001000005e-001	1.026719e+000	1.965245e-001	1.703550e+000	2.052469e+000
8.400000001000005e-001	1.026708e+000	1.985683e-001	1.724058e+000	2.052449e+000
8.500000001000005e-001	1.026698e+000	2.006120e-001	1.744565e+000	2.052429e+000
8.600000001000006e-001	1.026687e+000	2.026556e-001	1.765072e+000	2.052409e+000
8.700000001000006e-001	1.026676e+000	2.046993e-001	1.785579e+000	2.052389e+000
8.800000001000006e-001	1.026665e+000	2.067429e-001	1.806085e+000	2.052369e+000
8.900000001000006e-001	1.026655e+000	2.087864e-001	1.826591e+000	2.052349e+000
9.000000001000006e-001	1.026658e+000	2.108324e-001	1.847121e+000	2.052356e+000
9.100000001000006e-001	1.026633e+000	2.128735e-001	1.867602e+000	2.052310e+000
9.200000001000006e-001	1.026623e+000	2.149169e-001	1.888106e+000	2.052289e+000
9.300000001000006e-001	1.026612e+000	2.169603e-001	1.908611e+000	2.052269e+000
9.400000001000006e-001	1.026601e+000	2.190037e-001	1.929115e+000	2.052250e+000
9.500000001000006e-001	1.026591e+000	2.210470e-001	1.949618e+000	2.052230e+000
9.600000001000006e-001	1.026580e+000	2.230903e-001	1.970121e+000	2.052210e+000
9.700000001000007e-001	1.026569e+000	2.251336e-001	1.990624e+000	2.052190e+000
9.800000001000007e-001	1.026559e+000	2.271768e-001	2.011127e+000	2.052170e+000
9.900000001000007e-001	1.026548e+000	2.292200e-001	2.031628e+000	2.052150e+000
1.000000000100001e+000	1.026537e+000	2.312631e-001	2.052130e+000	2.052130e+000
1.010000000100001e+000	1.026527e+000	2.333062e-001	2.072631e+000	2.052110e+000
1.020000000100001e+000	1.026516e+000	2.353493e-001	2.093132e+000	2.052090e+000
1.030000000100001e+000	1.026506e+000	2.373923e-001	2.113632e+000	2.052070e+000
1.040000000100001e+000	1.026495e+000	2.394353e-001	2.134132e+000	2.052050e+000
1.050000000100001e+000	1.026484e+000	2.414782e-001	2.154632e+000	2.052031e+000
1.060000000100001e+000	1.026474e+000	2.435211e-001	2.175131e+000	2.052011e+000
1.070000000100001e+000	1.026463e+000	2.455640e-001	2.195630e+000	2.051991e+000
1.080000000100001e+000	1.026452e+000	2.476068e-001	2.216129e+000	2.051971e+000
1.090000000100001e+000	1.026442e+000	2.496496e-001	2.236627e+000	2.051951e+000
1.100000000100001e+000	1.026431e+000	2.516924e-001	2.257124e+000	2.051931e+000
1.110000000100001e+000	1.026421e+000	2.537351e-001	2.277622e+000	2.051911e+000
1.120000000100001e+000	1.026410e+000	2.557778e-001	2.298119e+000	2.051892e+000
1.130000000100001e+000	1.026399e+000	2.578205e-001	2.318615e+000	2.051872e+000
1.140000000100001e+000	1.026389e+000	2.598630e-001	2.339111e+000	2.051852e+000
1.150000000100001e+000	1.026378e+000	2.619056e-001	2.359607e+000	2.051832e+000
1.160000000100001e+000	1.026368e+000	2.639481e-001	2.380102e+000	2.051812e+000
1.170000000100001e+000	1.026357e+000	2.659906e-001	2.400597e+000	2.051793e+000
1.180000000100001e+000	1.026346e+000	2.680331e-001	2.421092e+000	2.051773e+000
1.190000000100001e+000	1.026336e+000	2.700755e-001	2.441586e+000	2.051753e+000
1.200000000100001e+000	1.026325e+000	2.721179e-001	2.462080e+000	2.051733e+000
1.210000000100001e+000	1.026315e+000	2.741602e-001	2.482573e+000	2.051713e+000
1.220000000100001e+000	1.026304e+000	2.762025e-001	2.503066e+000	2.051694e+000
1.230000000100001e+000	1.026294e+000	2.782448e-001	2.523559e+000	2.051674e+000
1.240000000100001e+000	1.026283e+000	2.802870e-001	2.544051e+000	2.051654e+000
1.250000000100001e+000	1.026272e+000	2.823292e-001	2.564543e+000	2.051634e+000
1.260000000100001e+000	1.026262e+000	2.843713e-001	2.585034e+000	2.051615e+000
1.270000000100001e+000	1.026251e+000	2.864135e-001	2.605525e+000	2.051595e+000
1.280000000100001e+000	1.026241e+000	2.884555e-001	2.626016e+000	2.051575e+000
1.290000000100001e+000	1.026230e+000	2.904976e-001	2.646507e+000	2.051555e+000
1.300000000100001e+000	1.026220e+000	2.925396e-001	2.666996e+000	2.051536e+000
1.310000000100001e+000	1.026209e+000	2.945815e-001	2.687486e+000	2.051516e+000
1.320000000100001e+000	1.026199e+000	2.966235e-001	2.707975e+000	2.051496e+000
1.330000000100001e+000	1.026188e+000	2.986653e-001	2.728464e+000	2.051477e+000
1.340000000100001e+000	1.026177e+000	3.007072e-001	2.748952e+000	2.051457e+000
1.350000000100001e+000	1.026167e+000	3.027490e-001	2.769440e+000	2.051437e+000
1.360000000100001e+000	1.026156e+000	3.047908e-001	2.789928e+000	2.051418e+000
1.370000000100001e+000	1.026146e+000	3.068325e-001	2.810415e+000	2.051398e+000
1.380000000100001e+000	1.026135e+000	3.088742e-001	2.830902e+000	2.051378e+000
1.390000000100001e+000	1.026125e+000	3.109159e-001	2.851389e+000	2.051359e+000
1.400000000100001e+000	1.026114e+000	3.129575e-001	2.871875e+000	2.051339e+000
1.410000000100001e+000	1.026104e+000	3.149991e-001	2.892360e+000	2.051319e+000
1.420000000100001e+000	1.026093e+000	3.170407e-001	2.912846e+000	2.051300e+000
1.430000000100001e+000	1.026083e+000	3.190821e-001	2.933331e+000	2.051280e+000
1.440000000100001e+000	1.026072e+000	3.211236e-001	2.953815e+000	2.051260e+000
1.450000000100001e+000	1.026062e+000	3.231651e-001	2.974299e+000	2.051241e+000
1.460000000100001e+000	1.026051e+000	3.252065e-001	2.994783e+000	2.051221e+000
1.470000000100001e+000	1.026041e+000	3.272478e-001	3.015267e+000	2.051202e+000
1.480000000100001e+000	1.026030e+000	3.292891e-001	3.035750e+000	2.051182e+000
1.490000000100001e+000	1.026020e+000	3.313304e-001	3.056232e+000	2.051162e+000
1.500000000100001e+000	1.026009e+000	3.333717e-001	3.076715e+000	2.051143e+000
1.510000000100001e+000	1.025999e+000	3.354129e-001	3.097196e+000	2.051123e+000
1.520000000100001e+000	1.025982e+000	3.374523e-001	3.117660e+000	2.051092e+000
1.530000000100001e+000	1.025978e+000	3.394952e-001	3.138159e+000	2.051084e+000
1.540000000100001e+000	1.025967e+000	3.415363e-001	3.158640e+000	2.051065e+000
1.550000000100001e+000	1.025957e+000	3.435774e-001	3.179120e+000	2.051045e+000
1.560000000100001e+000	1.025946e+000	3.456184e-001	3.199600e+000	2.051026e+000
1.570000000100001e+000	1.025936e+000	3.476594e-001	3.220080e+000	2.051006e+000
1.580000000100001e+000	1.025926e+000	3.497003e-001	3.240559e+000	2.050987e+000
1.590000000100001e+000	1.025915e+000	3.517413e-001	3.261038e+000	2.050967e+000
1.600000000100001e+000	1.025905e+000	3.537821e-001	3.281516e+000	2.050947e+000
1.610000000100001e+000	1.025894e+000	3.558230e-001	3.301994e+000	2.050928e+000
1.620000000100001e+000	1.025884e+000	3.578638e-001	3.322472e+000	2.050909e+000
1.630000000100001e+000	1.025873e+000	3.599045e-001	3.342949e+000	2.050889e+000
1.640000000100001e+000	1.025863e+000	3.619452e-001	3.363426e+000	2.050869e+000
1.650000000100001e+000	1.025852e+000	3.639860e-001	3.383903e+000	2.050850e+000
1.660000000100001e+000	1.025842e+000	3.660266e-001	3.404379e+000	2.050831e+000
1.670000000100001e+000	1.025832e+000	3.680672e-001	3.424855e+000	2.050811e+000
1.680000000100001e+000	1.025821e+000	3.701078e-001	3.445330e+000	2.050792e+000
1.690000000100001e+000	1.025811e+000	3.721483e-001	3.465805e+000	2.050772e+000
1.700000000100001e+000	1.025800e+000	3.741888e-001	3.486280e+000	2.050753e+000
1.710000000100001e+000	1.025790e+000	3.762293e-001	3.506754e+000	2.050733e+000
1.720000000100001e+000	1.025779e+000	3.782697e-001	3.527228e+000	2.050714e+000
1.730000000100001e+000	1.025769e+000	3.803101e-001	3.547701e+000	2.050694e+000
1.740000000100001e+000	1.025759e+000	3.823505e-001	3.568175e+000	2.050675e+000
1.750000000100001e+000	1.025748e+000	3.843908e-001	3.588647e+000	2.050656e+000
1.760000000100001e+000	1.025738e+000	3.864311e-001	3.609120e+000	2.050636e+000
1.770000000100001e+000	1.025727e+000	3.884713e-001	3.629592e+000	2.050617e+000
1.780000000100001e+000	1.025717e+000	3.905115e-001	3.650063e+000	2.050597e+000
1.790000000100001e+000	1.026121e+000	3.926997e-001	3.672019e+000	2.051407e+000
1.800000000100001e+000	1.025696e+000	3.945919e-001	3.691005e+000	2.050559e+000
1.810000000100001e+000	1.025686e+000	3.966320e-001	3.711476e+000	2.050539e+000
1.820000000100001e+000	1.025676e+000	3.986720e-001	3.731946e+000	2.050520e+000
1.830000000100001e+000	1.025665e+000	4.007120e-001	3.752416e+000	2.050500e+000
1.840000000100001e+000	1.025655e+000	4.027520e-001	3.772885e+000	2.050481e+000
1.850000000100001e+000	1.025644e+000	4.047920e-001	3.793354e+000	2.050462e+000
1.860000000100001e+000	1.025634e+000	4.068319e-001	3.813823e+000	2.050442e+000
1.870000000100001e+000	1.025624e+000	4.088718e-001	3.834291e+000	2.050423e+000
1.880000000100002e+000	1.025613e+000	4.109116e-001	3.854759e+000	2.050404e+000
1.890000000100002e+000	1.025603e+000	4.129514e-001	3.875226e+000	2.050384e+000
1.900000000100002e+000	1.025593e+000	4.149912e-001	3.895694e+000	2.050365e+000
1.910000000100002e+000	1.025582e+000	4.170310e-001	3.916160e+000	2.050346e+000
1.920000000100002e+000	1.025572e+000	4.190706e-001	3.936627e+000	2.050326e+000
1.930000000100002e+000	1.025561e+000	4.211103e-001	3.957093e+000	2.050307e+000
1.940000000100002e+000	1.025551e+000	4.231499e-001	3.977558e+000	2.050288e+000
1.950000000100002e+000	1.025541e+000	4.251895e-001	3.998024e+000	2.050268e+000
1.960000000100002e+000	1.025530e+000	4.272290e-001	4.018488e+000	2.050249e+000
1.970000000100002e+000	1.025520e+000	4.292686e-001	4.038953e+000	2.050230e+000
1.980000000100002e+000	1.025510e+000	4.313081e-001	4.059417e+000	2.050211e+000
1.990000000100002e+000	1.025499e+000	4.333475e-001	4.079881e+000	2.050191e+000
2.000000000100001e+000	1.025489e+000	4.353869e-001	4.100344e+000	2.050172e+000
2.010000000100001e+000	1.025479e+000	4.374263e-001	4.120807e+000	2.050153e+000
2.020000000100001e+000	1.025468e+000	4.394656e-001	4.141270e+000	2.050134e+000
2.030000000100001e+000	1.025458e+000	4.415049e-001	4.161732e+000	2.050114e+000
2.040000000100001e+000	1.025448e+000	4.435441e-001	4.182194e+000	2.050095e+000
2.050000000100000e+000	1.025438e+000	4.455834e-001	4.202656e+000	2.050076e+000
2.060000000100000e+000	1.025427e+000	4.476225e-001	4.223117e+000	2.050057e+000
2.070000000100000e+000	1.025424e+000	4.496648e-001	4.243608e+000	2.050052e+000
2.080000000100000e+000	1.025407e+000	4.517008e-001	4.264038e+000	2.050018e+000
2.090000000099999e+000	1.025396e+000	4.537399e-001	4.284498e+000	2.049999e+000
2.100000000099999e+000	1.025386e+000	4.557789e-001	4.304958e+000	2.049980e+000
2.110000000099999e+000	1.025376e+000	4.578179e-001	4.325417e+000	2.049961e+000
2.120000000099999e+000	1.025365e+000	4.598569e-001	4.345876e+000	2.049942e+000
2.130000000099999e+000	1.025355e+000	4.618958e-001	4.366334e+000	2.049922e+000
2.140000000099998e+000	1.025345e+000	4.639347e-001	4.386793e+000	2.049903e+000
2.150000000099998e+000	1.025335e+000	4.659736e-001	4.407250e+000	2.049884e+000
2.160000000099998e+000	1.025324e+000	4.680124e-001	4.427708e+000	2.049865e+000
2.170000000099998e+000	1.025314e+000	4.700512e-001	4.448165e+000	2.049846e+000
2.180000000099998e+000	1.025304e+000	4.720899e-001	4.468622e+000	2.049826e+000
2.190000000099997e+000	1.025293e+000	4.741287e-001	4.489078e+000	2.049807e+000
2.200000000099997e+000	1.025283e+000	4.761674e-001	4.509534e+000	2.049788e+000
2.210000000099997e+000	1.025273e+000	4.782060e-001	4.529990e+000	2.049769e+000
2.220000000099997e+000	1.025263e+000	4.802446e-001	4.550445e+000	2.049750e+000
2.230000000099996e+000	1.025252e+000	4.822831e-001	4.570899e+000	2.049731e+000
2.240000000099996e+000	1.025242e+000	4.843217e-001	4.591354e+000	2.049712e+000
2.250000000099996e+000	1.025232e+000	4.863602e-001	4.611808e+000	2.049693e+000
2.260000000099996e+000	1.025222e+000	4.883986e-001	4.632262e+000	2.049674e+000
2.270000000099996e+000	1.025211e+000	4.904371e-001	4.652716e+000	2.049654e+000
2.280000000099995e+000	1.025206e+000	4.924777e-001	4.673191e+000	2.049645e+000
2.290000000099995e+000	1.025191e+000	4.945138e-001	4.693621e+000	2.049616e+000
2.300000000099995e+000	1.025181e+000	4.965521e-001	4.714074e+000	2.049597e+000
2.310000000099995e+000	1.025170e+000	4.985904e-001	4.734525e+000	2.049578e+000
2.320000000099995e+000	1.025160e+000	5.006287e-001	4.754977e+000	2.049559e+000
2.330000000099994e+000	1.025150e+000	5.026669e-001	4.775428e+000	2.049540e+000
2.340000000099994e+000	1.025140e+000	5.047051e-001	4.795879e+000	2.049521e+000
2.350000000099994e+000	1.025130e+000	5.067432e-001	4.816329e+000	2.049502e+000
2.360000000099994e+000	1.025119e+000	5.087813e-001	4.836780e+000	2.049483e+000
2.370000000099994e+000	1.025109e+000	5.108194e-001	4.857229e+000	2.049464e+000
2.380000000099993e+000	1.025099e+000	5.128574e-001	4.877678e+000	2.049445e+000
2.390000000099993e+000	1.025089e+000	5.148954e-001	4.898128e+000	2.049426e+000
2.400000000099993e+000	1.025079e+000	5.169333e-001	4.918576e+000	2.049407e+000
2.410000000099993e+000	1.025068e+000	5.189713e-001	4.939024e+000	2.049388e+000
2.420000000099992e+000	1.025058e+000	5.210091e-001	4.959472e+000	2.049369e+000
2.430000000099992e+000	1.025048e+000	5.230470e-001	4.979919e+000	2.049350e+000
2.440000000099992e+000	1.025038e+000	5.250848e-001	5.000367e+000	2.049331e+000
2.450000000099992e+000	1.025028e+000	5.271226e-001	5.020813e+000	2.049312e+000
2.460000000099992e+000	1.025017e+000	5.291603e-001	5.041260e+000	2.049293e+000
2.470000000099991e+000	1.025007e+000	5.311980e-001	5.061706e+000	2.049274e+000
2.480000000099991e+000	1.024997e+000	5.332357e-001	5.082152e+000	2.049255e+000
2.490000000099991e+000	1.024987e+000	5.352734e-001	5.102597e+000	2.049236e+000
2.500000000099991e+000	1.024977e+000	5.373110e-001	5.123042e+000	2.049217e+000
2.510000000099991e+000	1.024966e+000	5.393485e-001	5.143486e+000	2.049198e+000
