Freq.	V(vout)/I(Ip)
1.00000000000000e-001	(-6.09291514458819e+001dB,8.51084183032581e-001°)
1.01009900990099e+001	(-5.58117907847047e+001dB,5.63456379270431e+001°)
2.01019801980198e+001	(-5.09695427824232e+001dB,7.15536937204663e+001°)
3.01029702970297e+001	(-4.77119989932011e+001dB,7.75027593631433e+001°)
4.01039603960396e+001	(-4.53117432944215e+001dB,8.06181978135150e+001°)
5.01049504950495e+001	(-4.34208651240595e+001dB,8.25332174661545e+001°)
6.01059405940594e+001	(-4.18636734378435e+001dB,8.38329925773920e+001°)
7.01069306930693e+001	(-4.05410536847887e+001dB,8.47765699190813e+001°)
8.01079207920792e+001	(-3.93920246782351e+001dB,8.54957759446499e+001°)
9.01089108910891e+001	(-3.83765229307809e+001dB,8.60646399194589e+001°)
1.00109900990099e+002	(-3.74668618520900e+001dB,8.65278958755029e+001°)
1.10110891089109e+002	(-3.66431280825473e+001dB,8.69141523075948e+001°)
1.20111881188119e+002	(-3.58905292026452e+001dB,8.72425504764543e+001°)
1.30112871287129e+002	(-3.51977807719739e+001dB,8.75263780755118e+001°)
1.40113861386139e+002	(-3.45560806666144e+001dB,8.77751462900555e+001°)
1.50114851485148e+002	(-3.39584320375714e+001dB,8.79958416059987e+001°)
1.60115841584158e+002	(-3.33991819890598e+001dB,8.81937109270562e+001°)
1.70116831683168e+002	(-3.28736985597357e+001dB,8.83727710108280e+001°)
1.80117821782178e+002	(-3.23781391301056e+001dB,8.85361488638022e+001°)
1.90118811881188e+002	(-3.19092809027056e+001dB,8.86863150793191e+001°)
2.00119801980198e+002	(-3.14643945265249e+001dB,8.88252474297393e+001°)
2.10120792079208e+002	(-3.10411483391925e+001dB,8.89545478725067e+001°)
2.20121782178218e+002	(-3.06375347441135e+001dB,8.90755277415227e+001°)
2.30122772277228e+002	(-3.02518128584867e+001dB,8.91892707758982e+001°)
2.40123762376238e+002	(-2.98824633026917e+001dB,8.92966804313799e+001°)
2.50124752475247e+002	(-2.95281521739306e+001dB,8.93985158635844e+001°)
2.60125742574257e+002	(-2.91877020538894e+001dB,8.94954196253463e+001°)
2.70126732673267e+002	(-2.88600684652205e+001dB,8.95879392214929e+001°)
2.80127722772277e+002	(-2.85443205931065e+001dB,8.96765440533754e+001°)
2.90128712871287e+002	(-2.82396253775654e+001dB,8.97616388637853e+001°)
3.00129702970297e+002	(-2.79452342934461e+001dB,8.98435744972998e+001°)
3.10130693069307e+002	(-2.76604722912526e+001dB,8.99226565811763e+001°)
3.20131683168317e+002	(-2.73847284885251e+001dB,8.99991525809754e+001°)
3.30132673267327e+002	(-2.71174482895841e+001dB,9.00732975750604e+001°)
3.40133663366337e+002	(-2.68581266785534e+001dB,9.01452990114214e+001°)
3.50134653465347e+002	(-2.66063024821541e+001dB,9.02153406500205e+001°)
3.60135643564357e+002	(-2.63615534387877e+001dB,9.02835858488593e+001°)
3.70136633663367e+002	(-2.61234919416973e+001dB,9.03501803177576e+001°)
3.80137623762376e+002	(-2.58917613485806e+001dB,9.04152544377844e+001°)
3.90138613861386e+002	(-2.56660327695848e+001dB,9.04789252242084e+001°)
4.00139603960396e+002	(-2.54460022611606e+001dB,9.05412979952984e+001°)
4.10140594059406e+002	(-2.52313883657703e+001dB,9.06024677971267e+001°)
4.20141584158416e+002	(-2.50219299475414e+001dB,9.06625206250235e+001°)
4.30142574257426e+002	(-2.48173842821440e+001dB,9.07215344747252e+001°)
4.40143564356436e+002	(-2.46175253659174e+001dB,9.07795802503118e+001°)
4.50144554455446e+002	(-2.44221424147066e+001dB,9.08367225511942e+001°)
4.60145544554456e+002	(-2.42310385274325e+001dB,9.08930203565127e+001°)
4.70146534653466e+002	(-2.40440294931895e+001dB,9.09485276222443e+001°)
4.80147524752476e+002	(-2.38609427237564e+001dB,9.10032938037270e+001°)
4.90148514851486e+002	(-2.36816162960138e+001dB,9.10573643142460e+001°)
5.00149504950496e+002	(-2.35058980909924e+001dB,9.11107809286354e+001°)
5.10150495049505e+002	(-2.33336450180550e+001dB,9.11635821394213e+001°)
5.20151485148515e+002	(-2.31647223143399e+001dB,9.12158034719259e+001°)
5.30152475247525e+002	(-2.29990029108313e+001dB,9.12674777636969e+001°)
5.40153465346535e+002	(-2.28363668576475e+001dB,9.13186354129381e+001°)
5.50154455445545e+002	(-2.26767008019716e+001dB,9.13693045998393e+001°)
5.60155445544555e+002	(-2.25198975129964e+001dB,9.14195114842268e+001°)
5.70156435643565e+002	(-2.23658554488748e+001dB,9.14692803824242e+001°)
5.80157425742575e+002	(-2.22144783612664e+001dB,9.15186339258230e+001°)
5.90158415841584e+002	(-2.20656749336894e+001dB,9.15675932033509e+001°)
6.00159405940594e+002	(-2.19193584502203e+001dB,9.16161778897100e+001°)
6.10160396039604e+002	(-2.17754464915525e+001dB,9.16644063610011e+001°)
6.20161386138614e+002	(-2.16338606557560e+001dB,9.17122957991872e+001°)
6.30162376237624e+002	(-2.14945263013528e+001dB,9.17598622866067e+001°)
6.40163366336634e+002	(-2.13573723106108e+001dB,9.18071208916420e+001°)
6.50164356435644e+002	(-2.12223308711811e+001dB,9.18540857465028e+001°)
6.60165346534654e+002	(-2.10893372743703e+001dB,9.19007701179087e+001°)
6.70166336633663e+002	(-2.09583297286041e+001dB,9.19471864715031e+001°)
6.80167326732673e+002	(-2.08292491866783e+001dB,9.19933465305616e+001°)
6.90168316831683e+002	(-2.07020391856088e+001dB,9.20392613296088e+001°)
7.00169306930693e+002	(-2.05766456980098e+001dB,9.20849412634450e+001°)
7.10170297029703e+002	(-2.04530169939990e+001dB,9.21303961320560e+001°)
7.20171287128713e+002	(-2.03311035127534e+001dB,9.21756351817630e+001°)
7.30172277227723e+002	(-2.02108577429242e+001dB,9.22206671430190e+001°)
7.40173267326732e+002	(-2.00922341111747e+001dB,9.22655002651382e+001°)
7.50174257425742e+002	(-1.99751888782017e+001dB,9.23101423482473e+001°)
7.60175247524752e+002	(-1.98596800416313e+001dB,9.23546007727427e+001°)
7.70176237623762e+002	(-1.97456672452704e+001dB,9.23988825264382e+001°)
7.80177227722772e+002	(-1.96331116941971e+001dB,9.24429942296362e+001°)
7.90178217821782e+002	(-1.95219760752654e+001dB,9.24869421583203e+001°)
8.00179207920792e+002	(-1.94122244826040e+001dB,9.25307322655748e+001°)
8.10180198019802e+002	(-1.93038223477348e+001dB,9.25743702014643e+001°)
8.20181188118811e+002	(-1.91967363739923e+001dB,9.26178613314434e+001°)
8.30182178217821e+002	(-1.90909344748968e+001dB,9.26612107534421e+001°)
8.40183168316831e+002	(-1.89863857162270e+001dB,9.27044233137379e+001°)
8.50184158415841e+002	(-1.88830602615146e+001dB,9.27475036217174e+001°)
8.60185148514851e+002	(-1.87809293207375e+001dB,9.27904560636167e+001°)
8.70186138613861e+002	(-1.86799651019497e+001dB,9.28332848152949e+001°)
8.80187128712871e+002	(-1.85801407657014e+001dB,9.28759938541706e+001°)
8.90188118811880e+002	(-1.84814303820199e+001dB,9.29185869703474e+001°)
9.00189108910890e+002	(-1.83838088897944e+001dB,9.29610677769908e+001°)
9.10190099009900e+002	(-1.82872520584009e+001dB,9.30034397200385e+001°)
9.20191089108910e+002	(-1.81917364514317e+001dB,9.30457060872844e+001°)
9.30192079207920e+002	(-1.80972393923825e+001dB,9.30878700168714e+001°)
9.40193069306930e+002	(-1.80037389321547e+001dB,9.31299345052374e+001°)
9.50194059405940e+002	(-1.79112138183112e+001dB,9.31719024145888e+001°)
9.60195049504950e+002	(-1.78196434659062e+001dB,9.32137764798874e+001°)
9.70196039603959e+002	(-1.77290079298477e+001dB,9.32555593154076e+001°)
9.80197029702969e+002	(-1.76392878786740e+001dB,9.32972534209323e+001°)
9.90198019801979e+002	(-1.75504645696444e+001dB,9.33388611875068e+001°)
1.00019900990099e+003	(-1.74625198251057e+001dB,9.33803849029293e+001°)
1.01020000000000e+003	(-1.73754360100168e+001dB,9.34218267568551e+001°)
1.02020099009901e+003	(-1.72891960105763e+001dB,9.34631888456308e+001°)
1.03020198019802e+003	(-1.72037832139130e+001dB,9.35044731768610e+001°)
1.04020297029703e+003	(-1.71191814887378e+001dB,9.35456816736819e+001°)
1.05020396039604e+003	(-1.70353751669213e+001dB,9.35868161788156e+001°)
1.06020495049505e+003	(-1.69523490259652e+001dB,9.36278784583972e+001°)
1.07020594059406e+003	(-1.68700882722624e+001dB,9.36688702055767e+001°)
1.08020693069307e+003	(-1.67885785251622e+001dB,9.37097930439235e+001°)
1.09020792079208e+003	(-1.67078058017668e+001dB,9.37506485306679e+001°)
1.10020891089109e+003	(-1.66277565023985e+001dB,9.37914381597242e+001°)
1.11020990099010e+003	(-1.65484173967597e+001dB,9.38321633646152e+001°)
1.12021089108911e+003	(-1.64697756106803e+001dB,9.38728255211689e+001°)
1.13021188118812e+003	(-1.63918186134716e+001dB,9.39134259501149e+001°)
1.14021287128713e+003	(-1.63145342058364e+001dB,9.39539659195636e+001°)
1.15021386138614e+003	(-1.62379105083021e+001dB,9.39944466473073e+001°)
1.16021485148515e+003	(-1.61619359501495e+001dB,9.40348693030379e+001°)
1.17021584158416e+003	(-1.60865992588245e+001dB,9.40752350104329e+001°)
1.18021683168317e+003	(-1.60118894498108e+001dB,9.41155448491769e+001°)
1.19021782178218e+003	(-1.59377958168889e+001dB,9.41557998567970e+001°)
1.20021881188119e+003	(-1.58643079228581e+001dB,9.41960010305224e+001°)
1.21021980198020e+003	(-1.57914155906004e+001dB,9.42361493289497e+001°)
1.22022079207921e+003	(-1.57191088945202e+001dB,9.42762456736720e+001°)
1.23022178217822e+003	(-1.56473781523621e+001dB,9.43162909508569e+001°)
1.24022277227723e+003	(-1.55762139173054e+001dB,9.43562860126659e+001°)
1.25022376237624e+003	(-1.55056069704404e+001dB,9.43962316787132e+001°)
1.26022475247525e+003	(-1.54355483134851e+001dB,9.44361287373652e+001°)
1.27022574257426e+003	(-1.53660291618256e+001dB,9.44759779470069e+001°)
1.28022673267327e+003	(-1.52970409378237e+001dB,9.45157800372980e+001°)
1.29022772277228e+003	(-1.52285752643697e+001dB,9.45555357102792e+001°)
1.30022871287129e+003	(-1.51606239587014e+001dB,9.45952456415075e+001°)
1.31022970297030e+003	(-1.50931790264503e+001dB,9.46349104811061e+001°)
1.32023069306930e+003	(-1.50262326559183e+001dB,9.46745308547659e+001°)
1.33023168316831e+003	(-1.49597772125608e+001dB,9.47141073646984e+001°)
1.34023267326732e+003	(-1.48938052336919e+001dB,9.47536405905667e+001°)
1.35023366336633e+003	(-1.48283094233742e+001dB,9.47931310903570e+001°)
1.36023465346534e+003	(-1.47632826475020e+001dB,9.48325794012197e+001°)
1.37023564356435e+003	(-1.46987179290590e+001dB,9.48719860402645e+001°)
1.38023663366336e+003	(-1.46346084435573e+001dB,9.49113515053339e+001°)
1.39023762376237e+003	(-1.45709475146294e+001dB,9.49506762757220e+001°)
1.40023861386138e+003	(-1.45077286097933e+001dB,9.49899608129073e+001°)
1.41023960396039e+003	(-1.44449453363514e+001dB,9.50292055611875e+001°)
1.42024059405940e+003	(-1.43825914374479e+001dB,9.50684109483530e+001°)
1.43024158415841e+003	(-1.43206607882542e+001dB,9.51075773862925e+001°)
1.44024257425742e+003	(-1.42591473922937e+001dB,9.51467052715734e+001°)
1.45024356435643e+003	(-1.41980453778872e+001dB,9.51857949860076e+001°)
1.46024455445544e+003	(-1.41373489947359e+001dB,9.52248468972351e+001°)
1.47024554455445e+003	(-1.40770526105941e+001dB,9.52638613591784e+001°)
1.48024653465346e+003	(-1.40171507080787e+001dB,9.53028387125793e+001°)
1.49024752475247e+003	(-1.39576378815854e+001dB,9.53417792855061e+001°)
1.50024851485148e+003	(-1.38985088342768e+001dB,9.53806833937347e+001°)
1.51024950495049e+003	(-1.38397583752144e+001dB,9.54195513412514e+001°)
1.52025049504950e+003	(-1.37813814165594e+001dB,9.54583834206628e+001°)
1.53025148514851e+003	(-1.37233729708638e+001dB,9.54971799136000e+001°)
1.54025247524752e+003	(-1.36657281484617e+001dB,9.55359410910922e+001°)
1.55025346534653e+003	(-1.36084421549363e+001dB,9.55746672139626e+001°)
1.56025445544554e+003	(-1.35515102886706e+001dB,9.56133585331753e+001°)
1.57025544554455e+003	(-1.34949279384811e+001dB,9.56520152901910e+001°)
1.58025643564356e+003	(-1.34386905813177e+001dB,9.56906377172950e+001°)
1.59025742574257e+003	(-1.33827937800414e+001dB,9.57292260379099e+001°)
1.60025841584158e+003	(-1.33272331812753e+001dB,9.57677804669288e+001°)
1.61025940594059e+003	(-1.32720045133098e+001dB,9.58063012109637e+001°)
1.62026039603960e+003	(-1.32171035840827e+001dB,9.58447884686677e+001°)
1.63026138613861e+003	(-1.31625262792289e+001dB,9.58832424310109e+001°)
1.64026237623762e+003	(-1.31082685601689e+001dB,9.59216632815165e+001°)
1.65026336633663e+003	(-1.30543264622713e+001dB,9.59600511965385e+001°)
1.66026435643564e+003	(-1.30006960930655e+001dB,9.59984063454834e+001°)
1.67026534653465e+003	(-1.29473736305068e+001dB,9.60367288910659e+001°)
1.68026633663366e+003	(-1.28943553213051e+001dB,9.60750189895424e+001°)
1.69026732673267e+003	(-1.28416374792747e+001dB,9.61132767908811e+001°)
1.70026831683168e+003	(-1.27892164837668e+001dB,9.61515024390216e+001°)
1.71026930693069e+003	(-1.27370887781244e+001dB,9.61896960720594e+001°)
1.72027029702970e+003	(-1.26852508681994e+001dB,9.62278578224371e+001°)
1.73027128712871e+003	(-1.26336993208900e+001dB,9.62659878171491e+001°)
1.74027227722772e+003	(-1.25824307627380e+001dB,9.63040861778761e+001°)
1.75027326732673e+003	(-1.25314418785716e+001dB,9.63421530212222e+001°)
1.76027425742574e+003	(-1.24807294101672e+001dB,9.63801884588546e+001°)
1.77027524752475e+003	(-1.24302901549568e+001dB,9.64181925976441e+001°)
1.78027623762376e+003	(-1.23801209647843e+001dB,9.64561655398610e+001°)
1.79027722772277e+003	(-1.23302187446780e+001dB,9.64941073833047e+001°)
1.80027821782178e+003	(-1.22805804516659e+001dB,9.65320182214456e+001°)
1.81027920792079e+003	(-1.22312030936233e+001dB,9.65698981435634e+001°)
1.82028019801980e+003	(-1.21820837281657e+001dB,9.66077472349300e+001°)
1.83028118811881e+003	(-1.21332194615334e+001dB,9.66455655768643e+001°)
1.84028217821782e+003	(-1.20846074475522e+001dB,9.66833532469130e+001°)
1.85028316831683e+003	(-1.20362448865931e+001dB,9.67211103189571e+001°)
1.86028415841584e+003	(-1.19881290245713e+001dB,9.67588368633291e+001°)
1.87028514851485e+003	(-1.19402571519660e+001dB,9.67965329469233e+001°)
1.88028613861386e+003	(-1.18926266028744e+001dB,9.68341986333236e+001°)
1.89028712871287e+003	(-1.18452347540790e+001dB,9.68718339828695e+001°)
1.90028811881188e+003	(-1.17980790241575e+001dB,9.69094390528245e+001°)
1.91028910891089e+003	(-1.17511568725886e+001dB,9.69470138973953e+001°)
1.92029009900990e+003	(-1.17044657989210e+001dB,9.69845585679101e+001°)
1.93029108910891e+003	(-1.16580033419152e+001dB,9.70220731128483e+001°)
1.94029207920792e+003	(-1.16117670787483e+001dB,9.70595575779504e+001°)
1.95029306930693e+003	(-1.15657546242201e+001dB,9.70970120063120e+001°)
1.96029405940594e+003	(-1.15199636299830e+001dB,9.71344364384719e+001°)
1.97029504950495e+003	(-1.14743917837922e+001dB,9.71718309124730e+001°)
1.98029603960396e+003	(-1.14290368087736e+001dB,9.72091954639619e+001°)
1.99029702970297e+003	(-1.13838964627093e+001dB,9.72465301262391e+001°)
2.00029801980198e+003	(-1.13389685373446e+001dB,9.72838349303649e+001°)
2.01029900990099e+003	(-1.12942508577137e+001dB,9.73211099052175e+001°)
2.02030000000000e+003	(-1.12497412814727e+001dB,9.73583550775529e+001°)
2.03030099009901e+003	(-1.12054376982476e+001dB,9.73955704720510e+001°)
2.04030198019802e+003	(-1.11613380290345e+001dB,9.74327561114630e+001°)
2.05030297029703e+003	(-1.11174402255485e+001dB,9.74699120165682e+001°)
2.06030396039604e+003	(-1.10737422696531e+001dB,9.75070382062985e+001°)
2.07030495049505e+003	(-1.10302421727649e+001dB,9.75441346977987e+001°)
2.08030594059405e+003	(-1.09869379752816e+001dB,9.75812015064424e+001°)
2.09030693069306e+003	(-1.09438277460354e+001dB,9.76182386459394e+001°)
2.10030792079207e+003	(-1.09009095817348e+001dB,9.76552461283249e+001°)
2.11030891089108e+003	(-1.08581816064537e+001dB,9.76922239640773e+001°)
2.12030990099009e+003	(-1.08156419710986e+001dB,9.77291721621365e+001°)
2.13031089108910e+003	(-1.07732888529054e+001dB,9.77660907299281e+001°)
2.14031188118811e+003	(-1.07311204549552e+001dB,9.78029796734728e+001°)
2.15031287128712e+003	(-1.06891350056804e+001dB,9.78398389973666e+001°)
2.16031386138613e+003	(-1.06473307584015e+001dB,9.78766687048697e+001°)
2.17031485148514e+003	(-1.06057059908646e+001dB,9.79134687979298e+001°)
2.18031584158415e+003	(-1.05642590047890e+001dB,9.79502392772227e+001°)
2.19031683168316e+003	(-1.05229881254382e+001dB,9.79869801422095e+001°)
2.20031782178217e+003	(-1.04818917011753e+001dB,9.80236913911570e+001°)
2.21031881188118e+003	(-1.04409681030573e+001dB,9.80603730211725e+001°)
2.22031980198019e+003	(-1.04002157244185e+001dB,9.80970250282625e+001°)
2.23032079207920e+003	(-1.03596329804701e+001dB,9.81336474073578e+001°)
2.24032178217821e+003	(-1.03192183079099e+001dB,9.81702401523385e+001°)
2.25032277227722e+003	(-1.02789701645358e+001dB,9.82068032560724e+001°)
2.26032376237623e+003	(-1.02388870288853e+001dB,9.82433367104776e+001°)
2.27032475247524e+003	(-1.01989673998435e+001dB,9.82798405064953e+001°)
2.28032574257425e+003	(-1.01592097963059e+001dB,9.83163146341651e+001°)
2.29032673267326e+003	(-1.01196127568245e+001dB,9.83527590826464e+001°)
2.30032772277227e+003	(-1.00801748392574e+001dB,9.83891738402432e+001°)
2.31032871287128e+003	(-1.00408946204392e+001dB,9.84255588944161e+001°)
2.32032970297029e+003	(-1.00017706958548e+001dB,9.84619142318618e+001°)
2.33033069306930e+003	(-9.96280167930955e+000dB,9.84982398384571e+001°)
2.34033168316831e+003	(-9.92398620262997e+000dB,9.85345356993858e+001°)
2.35033267326732e+003	(-9.88532291533711e+000dB,9.85708017990555e+001°)
2.36033366336633e+003	(-9.84681048436250e+000dB,9.86070381212187e+001°)
2.37033465346534e+003	(-9.80844759374813e+000dB,9.86432446489343e+001°)
2.38033564356435e+003	(-9.77023294434891e+000dB,9.86794213646027e+001°)
2.39033663366336e+003	(-9.73216525356878e+000dB,9.87155682500227e+001°)
2.40033762376237e+003	(-9.69424325506704e+000dB,9.87516852863699e+001°)
2.41033861386138e+003	(-9.65646569849237e+000dB,9.87877724542122e+001°)
2.42033960396039e+003	(-9.61883134923007e+000dB,9.88238297336034e+001°)
2.43034059405940e+003	(-9.58133898812281e+000dB,9.88598571040160e+001°)
2.44034158415841e+003	(-9.54398741123138e+000dB,9.88958545444062e+001°)
2.45034257425742e+003	(-9.50677542957433e+000dB,9.89318220332170e+001°)
2.46034356435643e+003	(-9.46970186889985e+000dB,9.89677595484285e+001°)
2.47034455445544e+003	(-9.43276556942267e+000dB,9.90036670675070e+001°)
2.48034554455445e+003	(-9.39596538561663e+000dB,9.90395445675077e+001°)
2.49034653465346e+003	(-9.35930018596623e+000dB,9.90753920250321e+001°)
2.50034752475247e+003	(-9.32276885275099e+000dB,9.91112094162671e+001°)
2.51034851485148e+003	(-9.28637028181442e+000dB,9.91469967169816e+001°)
2.52034950495049e+003	(-9.25010338236678e+000dB,9.91827539025840e+001°)
2.53035049504950e+003	(-9.21396707675713e+000dB,9.92184809480998e+001°)
2.54035148514851e+003	(-9.17796030026541e+000dB,9.92541778281746e+001°)
2.55035247524752e+003	(-9.14208200091274e+000dB,9.92898445171480e+001°)
2.56035346534653e+003	(-9.10633113925079e+000dB,9.93254809890046e+001°)
2.57035445544554e+003	(-9.07070668816441e+000dB,9.93610872174220e+001°)
2.58035544554455e+003	(-9.03520763269109e+000dB,9.93966631757885e+001°)
2.59035643564356e+003	(-8.99983296982247e+000dB,9.94322088371819e+001°)
2.60035742574257e+003	(-8.96458170832445e+000dB,9.94677241744175e+001°)
2.61035841584158e+003	(-8.92945286854961e+000dB,9.95032091600317e+001°)
2.62035940594059e+003	(-8.89444548227799e+000dB,9.95386637663479e+001°)
2.63036039603960e+003	(-8.85955859251566e+000dB,9.95740879653886e+001°)
2.64036138613861e+003	(-8.82479125335030e+000dB,9.96094817290018e+001°)
2.65036237623762e+003	(-8.79014252976693e+000dB,9.96448450288064e+001°)
2.66036336633663e+003	(-8.75561149748425e+000dB,9.96801778361752e+001°)
2.67036435643564e+003	(-8.72119724281017e+000dB,9.97154801223585e+001°)
2.68036534653465e+003	(-8.68689886245609e+000dB,9.97507518583435e+001°)
2.69036633663366e+003	(-8.65271546340528e+000dB,9.97859930149795e+001°)
2.70036732673267e+003	(-8.61864616274999e+000dB,9.98212035629583e+001°)
2.71036831683168e+003	(-8.58469008754322e+000dB,9.98563834728037e+001°)
2.72036930693069e+003	(-8.55084637465284e+000dB,9.98915327148950e+001°)
2.73037029702970e+003	(-8.51711417061319e+000dB,9.99266512594683e+001°)
2.74037128712871e+003	(-8.48349263148797e+000dB,9.99617390766248e+001°)
2.75037227722772e+003	(-8.44998092273104e+000dB,9.99967961363627e+001°)
2.76037326732673e+003	(-8.41657821904921e+000dB,1.00031822408550e+002°)
