Freq.	V(out)
1.00000000000000e-002	-2.22215968506179e-001,1.50227786232033e-001
1.00043885104840e-002	-2.22405725983890e-001,1.50330816903148e-001
1.00087789468704e-002	-2.22595640836610e-001,1.50433940482663e-001
1.00131713100044e-002	-2.22785713186684e-001,1.50537157071613e-001
1.00175656007316e-002	-2.22975943156537e-001,1.50640466771170e-001
1.00219618198978e-002	-2.23166330868673e-001,1.50743869682627e-001
1.00263599683495e-002	-2.23356876445680e-001,1.50847365907384e-001
1.00307600469332e-002	-2.23547580010224e-001,1.50950955546974e-001
1.00351620564960e-002	-2.23738441685052e-001,1.51054638703029e-001
1.00395659978854e-002	-2.23929461592993e-001,1.51158415477323e-001
1.00439718719490e-002	-2.24120639856957e-001,1.51262285971725e-001
1.00483796795351e-002	-2.24311976599932e-001,1.51366250288243e-001
1.00527894214921e-002	-2.24503471944989e-001,1.51470308528994e-001
1.00572010986691e-002	-2.24695126015281e-001,1.51574460796219e-001
1.00616147119151e-002	-2.24886938934037e-001,1.51678707192276e-001
1.00660302620800e-002	-2.25078910824573e-001,1.51783047819648e-001
1.00704477500138e-002	-2.25271041810281e-001,1.51887482780927e-001
1.00748671765667e-002	-2.25463332014637e-001,1.51992012178837e-001
1.00792885425896e-002	-2.25655781561196e-001,1.52096636116216e-001
1.00837118489336e-002	-2.25848390573596e-001,1.52201354696026e-001
1.00881370964502e-002	-2.26041159175554e-001,1.52306168021338e-001
1.00925642859914e-002	-2.26234087490868e-001,1.52411076195367e-001
1.00969934184093e-002	-2.26427175643419e-001,1.52516079321417e-001
1.01014244945566e-002	-2.26620423757166e-001,1.52621177502951e-001
1.01058575152864e-002	-2.26813831956153e-001,1.52726370843518e-001
1.01102924814519e-002	-2.27007400364503e-001,1.52831659446804e-001
1.01147293939070e-002	-2.27201129106419e-001,1.52937043416617e-001
1.01191682535058e-002	-2.27395018306187e-001,1.53042522856891e-001
1.01236090611027e-002	-2.27589068088174e-001,1.53148097871663e-001
1.01280518175528e-002	-2.27783278576826e-001,1.53253768565115e-001
1.01324965237111e-002	-2.27977649896675e-001,1.53359535041532e-001
1.01369431804334e-002	-2.28172182172328e-001,1.53465397405336e-001
1.01413917885757e-002	-2.28366875528479e-001,1.53571355761059e-001
1.01458423489943e-002	-2.28561730089900e-001,1.53677410213362e-001
1.01502948625461e-002	-2.28756745981445e-001,1.53783560867025e-001
1.01547493300880e-002	-2.28951923328050e-001,1.53889807826958e-001
1.01592057524777e-002	-2.29147262254731e-001,1.53996151198184e-001
1.01636641305731e-002	-2.29342762886588e-001,1.54102591085856e-001
1.01681244652324e-002	-2.29538425348800e-001,1.54209127595244e-001
1.01725867573142e-002	-2.29734249766628e-001,1.54315760831748e-001
1.01770510076775e-002	-2.29930236265415e-001,1.54422490900883e-001
1.01815172171818e-002	-2.30126384970586e-001,1.54529317908299e-001
1.01859853866869e-002	-2.30322696007645e-001,1.54636241959760e-001
1.01904555170528e-002	-2.30519169502181e-001,1.54743263161152e-001
1.01949276091401e-002	-2.30715805579862e-001,1.54850381618500e-001
1.01994016638097e-002	-2.30912604366440e-001,1.54957597437932e-001
1.02038776819229e-002	-2.31109565987746e-001,1.55064910725719e-001
1.02083556643413e-002	-2.31306690569693e-001,1.55172321588250e-001
1.02128356119270e-002	-2.31503978238278e-001,1.55279830132022e-001
1.02173175255424e-002	-2.31701429119577e-001,1.55387436463687e-001
1.02218014060503e-002	-2.31899043339751e-001,1.55495140690001e-001
1.02262872543139e-002	-2.32096821025039e-001,1.55602942917851e-001
1.02307750711966e-002	-2.32294762301762e-001,1.55710843254243e-001
1.02352648575625e-002	-2.32492867296328e-001,1.55818841806324e-001
1.02397566142759e-002	-2.32691136135220e-001,1.55926938681344e-001
1.02442503422014e-002	-2.32889568945007e-001,1.56035133986696e-001
1.02487460422041e-002	-2.33088165852339e-001,1.56143427829896e-001
1.02532437151495e-002	-2.33286926983947e-001,1.56251820318581e-001
1.02577433619034e-002	-2.33485852466645e-001,1.56360311560509e-001
1.02622449833319e-002	-2.33684942427329e-001,1.56468901663572e-001
1.02667485803018e-002	-2.33884196992975e-001,1.56577590735803e-001
1.02712541536799e-002	-2.34083616290643e-001,1.56686378885322e-001
1.02757617043336e-002	-2.34283200447476e-001,1.56795266220415e-001
1.02802712331306e-002	-2.34482949590695e-001,1.56904252849476e-001
1.02847827409391e-002	-2.34682863847607e-001,1.57013338881027e-001
1.02892962286275e-002	-2.34882943345600e-001,1.57122524423709e-001
1.02938116970647e-002	-2.35083188212143e-001,1.57231809586317e-001
1.02983291471199e-002	-2.35283598574787e-001,1.57341194477743e-001
1.03028485796629e-002	-2.35484174561167e-001,1.57450679207026e-001
1.03073699955635e-002	-2.35684916298999e-001,1.57560263883315e-001
1.03118933956923e-002	-2.35885823916081e-001,1.57669948615914e-001
1.03164187809200e-002	-2.36086897540294e-001,1.57779733514222e-001
1.03209461521177e-002	-2.36288137299600e-001,1.57889618687792e-001
1.03254755101570e-002	-2.36489543322044e-001,1.57999604246295e-001
1.03300068559098e-002	-2.36691115735754e-001,1.58109690299527e-001
1.03345401902485e-002	-2.36892854668939e-001,1.58219876957417e-001
1.03390755140457e-002	-2.37094760249891e-001,1.58330164330025e-001
1.03436128281745e-002	-2.37296832606985e-001,1.58440552527527e-001
1.03481521335083e-002	-2.37499071868676e-001,1.58551041660254e-001
1.03526934309211e-002	-2.37701478163504e-001,1.58661631838639e-001
1.03572367212870e-002	-2.37904051620090e-001,1.58772323173255e-001
1.03617820054806e-002	-2.38106792367138e-001,1.58883115774804e-001
1.03663292843770e-002	-2.38309700533434e-001,1.58994009754112e-001
1.03708785588515e-002	-2.38512776247847e-001,1.59105005222149e-001
1.03754298297798e-002	-2.38716019639328e-001,1.59216102290006e-001
1.03799830980382e-002	-2.38919430836911e-001,1.59327301068903e-001
1.03845383645031e-002	-2.39123009969713e-001,1.59438601670177e-001
1.03890956300515e-002	-2.39326757166931e-001,1.59550004205329e-001
1.03936548955607e-002	-2.39530672557847e-001,1.59661508785966e-001
1.03982161619083e-002	-2.39734756271826e-001,1.59773115523822e-001
1.04027794299724e-002	-2.39939008438314e-001,1.59884824530766e-001
1.04073447006315e-002	-2.40143429186841e-001,1.59996635918820e-001
1.04119119747644e-002	-2.40348018647017e-001,1.60108549800105e-001
1.04164812532503e-002	-2.40552776948538e-001,1.60220566286887e-001
1.04210525369689e-002	-2.40757704221182e-001,1.60332685491570e-001
1.04256258268002e-002	-2.40962800594808e-001,1.60444907526676e-001
1.04302011236245e-002	-2.41168066199359e-001,1.60557232504871e-001
1.04347784283225e-002	-2.41373501164860e-001,1.60669660538946e-001
1.04393577417756e-002	-2.41579105621422e-001,1.60782191741806e-001
1.04439390648652e-002	-2.41784879699233e-001,1.60894826226537e-001
1.04485223984732e-002	-2.41990823528569e-001,1.61007564106307e-001
1.04531077434820e-002	-2.42196937239784e-001,1.61120405494450e-001
1.04576951007742e-002	-2.42403220963323e-001,1.61233350504400e-001
1.04622844712330e-002	-2.42609674829704e-001,1.61346399249764e-001
1.04668758557418e-002	-2.42816298969534e-001,1.61459551844240e-001
1.04714692551846e-002	-2.43023093513502e-001,1.61572808401692e-001
1.04760646704455e-002	-2.43230058592379e-001,1.61686169036108e-001
1.04806621024092e-002	-2.43437194337019e-001,1.61799633861593e-001
1.04852615519607e-002	-2.43644500878361e-001,1.61913202992404e-001
1.04898630199855e-002	-2.43851978347423e-001,1.62026876542929e-001
1.04944665073694e-002	-2.44059626875311e-001,1.62140654627680e-001
1.04990720149985e-002	-2.44267446593210e-001,1.62254537361321e-001
1.05036795437595e-002	-2.44475437632390e-001,1.62368524858624e-001
1.05082890945393e-002	-2.44683600124203e-001,1.62482617234518e-001
1.05129006682253e-002	-2.44891934200086e-001,1.62596814604058e-001
1.05175142657052e-002	-2.45100439991557e-001,1.62711117082435e-001
1.05221298878673e-002	-2.45309117630219e-001,1.62825524784960e-001
1.05267475355999e-002	-2.45517967247757e-001,1.62940037827102e-001
1.05313672097921e-002	-2.45726988975939e-001,1.63054656324466e-001
1.05359889113332e-002	-2.45936182946616e-001,1.63169380392760e-001
1.05406126411129e-002	-2.46145549291726e-001,1.63284210147863e-001
1.05452384000212e-002	-2.46355088143283e-001,1.63399145705773e-001
1.05498661889486e-002	-2.46564799633391e-001,1.63514187182619e-001
1.05544960087861e-002	-2.46774683894234e-001,1.63629334694677e-001
1.05591278604248e-002	-2.46984741058080e-001,1.63744588358354e-001
1.05637617447565e-002	-2.47194971257281e-001,1.63859948290195e-001
1.05683976626733e-002	-2.47405374624271e-001,1.63975414606873e-001
1.05730356150674e-002	-2.47615951291569e-001,1.64090987425210e-001
1.05776756028318e-002	-2.47826701391775e-001,1.64206666862153e-001
1.05823176268597e-002	-2.48037625057575e-001,1.64322453034796e-001
1.05869616880447e-002	-2.48248722421737e-001,1.64438346060368e-001
1.05916077872809e-002	-2.48459993617111e-001,1.64554346056222e-001
1.05962559254625e-002	-2.48671438776636e-001,1.64670453139864e-001
1.06009061034845e-002	-2.48883058033326e-001,1.64786667428939e-001
1.06055583222420e-002	-2.49094851520287e-001,1.64902989041205e-001
1.06102125826305e-002	-2.49306819370703e-001,1.65019418094587e-001
1.06148688855461e-002	-2.49518961717843e-001,1.65135954707134e-001
1.06195272318852e-002	-2.49731278695060e-001,1.65252598997029e-001
1.06241876225444e-002	-2.49943770435791e-001,1.65369351082598e-001
1.06288500584209e-002	-2.50156437073556e-001,1.65486211082311e-001
1.06335145404123e-002	-2.50369278741956e-001,1.65603179114777e-001
1.06381810694165e-002	-2.50582295574681e-001,1.65720255298727e-001
1.06428496463318e-002	-2.50795487705500e-001,1.65837439753048e-001
1.06475202720571e-002	-2.51008855268268e-001,1.65954732596750e-001
1.06521929474913e-002	-2.51222398396923e-001,1.66072133949009e-001
1.06568676735340e-002	-2.51436117225487e-001,1.66189643929103e-001
1.06615444510852e-002	-2.51650011888066e-001,1.66307262656481e-001
1.06662232810451e-002	-2.51864082518848e-001,1.66424990250720e-001
1.06709041643144e-002	-2.52078329252106e-001,1.66542826831532e-001
1.06755871017943e-002	-2.52292752222198e-001,1.66660772518778e-001
1.06802720943861e-002	-2.52507351563563e-001,1.66778827432450e-001
1.06849591429919e-002	-2.52722127410726e-001,1.66896991692682e-001
1.06896482485139e-002	-2.52937079898295e-001,1.67015265419762e-001
1.06943394118548e-002	-2.53152209160962e-001,1.67133648734105e-001
1.06990326339176e-002	-2.53367515333503e-001,1.67252141756263e-001
1.07037279156058e-002	-2.53582998550777e-001,1.67370744606930e-001
1.07084252578233e-002	-2.53798658947728e-001,1.67489457406958e-001
1.07131246614744e-002	-2.54014496659384e-001,1.67608280277322e-001
1.07178261274637e-002	-2.54230511820854e-001,1.67727213339149e-001
1.07225296566963e-002	-2.54446704567336e-001,1.67846256713697e-001
1.07272352500776e-002	-2.54663075034108e-001,1.67965410522381e-001
1.07319429085135e-002	-2.54879623356533e-001,1.68084674886736e-001
1.07366526329102e-002	-2.55096349670057e-001,1.68204049928464e-001
1.07413644241745e-002	-2.55313254110214e-001,1.68323535769388e-001
1.07460782832132e-002	-2.55530336812616e-001,1.68443132531491e-001
1.07507942109340e-002	-2.55747597912965e-001,1.68562840336878e-001
1.07555122082446e-002	-2.55965037547042e-001,1.68682659307812e-001
1.07602322760532e-002	-2.56182655850716e-001,1.68802589566702e-001
1.07649544152685e-002	-2.56400452959936e-001,1.68922631236086e-001
1.07696786267996e-002	-2.56618429010740e-001,1.69042784438654e-001
1.07744049115559e-002	-2.56836584139246e-001,1.69163049297233e-001
1.07791332704472e-002	-2.57054918481658e-001,1.69283425934809e-001
1.07838637043837e-002	-2.57273432174265e-001,1.69403914474487e-001
1.07885962142762e-002	-2.57492125353435e-001,1.69524515039540e-001
1.07933308010356e-002	-2.57710998155629e-001,1.69645227753365e-001
1.07980674655733e-002	-2.57930050717385e-001,1.69766052739518e-001
1.08028062088012e-002	-2.58149283175327e-001,1.69886990121693e-001
1.08075470316316e-002	-2.58368695666164e-001,1.70008040023728e-001
1.08122899349770e-002	-2.58588288326690e-001,1.70129202569608e-001
1.08170349197506e-002	-2.58808061293781e-001,1.70250477883458e-001
1.08217819868656e-002	-2.59028014704398e-001,1.70371866089557e-001
1.08265311372361e-002	-2.59248148695588e-001,1.70493367312317e-001
1.08312823717762e-002	-2.59468463404480e-001,1.70614981676309e-001
1.08360356914005e-002	-2.59688958968289e-001,1.70736709306234e-001
1.08407910970242e-002	-2.59909635524313e-001,1.70858550326953e-001
1.08455485895625e-002	-2.60130493209936e-001,1.70980504863459e-001
1.08503081699315e-002	-2.60351532162623e-001,1.71102573040908e-001
1.08550698390473e-002	-2.60572752519928e-001,1.71224754984589e-001
1.08598335978266e-002	-2.60794154419485e-001,1.71347050819942e-001
1.08645994471864e-002	-2.61015737999017e-001,1.71469460672541e-001
1.08693673880443e-002	-2.61237503396326e-001,1.71591984668132e-001
1.08741374213179e-002	-2.61459450749303e-001,1.71714622932590e-001
1.08789095479257e-002	-2.61681580195920e-001,1.71837375591938e-001
1.08836837687862e-002	-2.61903891874236e-001,1.71960242772357e-001
1.08884600848186e-002	-2.62126385922394e-001,1.72083224600151e-001
1.08932384969422e-002	-2.62349062478621e-001,1.72206321201803e-001
1.08980190060770e-002	-2.62571921681226e-001,1.72329532703926e-001
1.09028016131433e-002	-2.62794963668609e-001,1.72452859233269e-001
1.09075863190617e-002	-2.63018188579247e-001,1.72576300916763e-001
1.09123731247533e-002	-2.63241596551707e-001,1.72699857881448e-001
1.09171620311396e-002	-2.63465187724638e-001,1.72823530254548e-001
1.09219530391425e-002	-2.63688962236773e-001,1.72947318163410e-001
1.09267461496843e-002	-2.63912920226932e-001,1.73071221735535e-001
1.09315413636876e-002	-2.64137061834018e-001,1.73195241098582e-001
1.09363386820757e-002	-2.64361387197018e-001,1.73319376380356e-001
1.09411381057719e-002	-2.64585896455006e-001,1.73443627708792e-001
1.09459396357003e-002	-2.64810589747136e-001,1.73567995212021e-001
1.09507432727851e-002	-2.65035467212654e-001,1.73692479018259e-001
1.09555490179511e-002	-2.65260528990882e-001,1.73817079255930e-001
1.09603568721234e-002	-2.65485775221234e-001,1.73941796053573e-001
1.09651668362276e-002	-2.65711206043204e-001,1.74066629539892e-001
1.09699789111895e-002	-2.65936821596372e-001,1.74191579843736e-001
1.09747930979356e-002	-2.66162622020403e-001,1.74316647094101e-001
1.09796093973925e-002	-2.66388607455049e-001,1.74441831420141e-001
1.09844278104876e-002	-2.66614778040142e-001,1.74567132951156e-001
1.09892483381482e-002	-2.66841133915600e-001,1.74692551816607e-001
1.09940709813025e-002	-2.67067675221430e-001,1.74818088146081e-001
1.09988957408788e-002	-2.67294402097719e-001,1.74943742069341e-001
1.10037226178059e-002	-2.67521314684639e-001,1.75069513716299e-001
1.10085516130130e-002	-2.67748413122450e-001,1.75195403217002e-001
1.10133827274297e-002	-2.67975697551494e-001,1.75321410701666e-001
1.10182159619861e-002	-2.68203168112199e-001,1.75447536300650e-001
1.10230513176125e-002	-2.68430824945078e-001,1.75573780144462e-001
1.10278887952397e-002	-2.68658668190726e-001,1.75700142363778e-001
1.10327283957991e-002	-2.68886697989827e-001,1.75826623089405e-001
1.10375701202223e-002	-2.69114914483149e-001,1.75953222452317e-001
1.10424139694413e-002	-2.69343317811540e-001,1.76079940583643e-001
1.10472599443886e-002	-2.69571908115940e-001,1.76206777614651e-001
1.10521080459972e-002	-2.69800685537370e-001,1.76333733676771e-001
1.10569582752001e-002	-2.70029650216936e-001,1.76460808901588e-001
1.10618106329313e-002	-2.70258802295828e-001,1.76588003420842e-001
1.10666651201247e-002	-2.70488141915323e-001,1.76715317366417e-001
1.10715217377150e-002	-2.70717669216783e-001,1.76842750870353e-001
1.10763804866369e-002	-2.70947384341653e-001,1.76970304064849e-001
1.10812413678259e-002	-2.71177287431465e-001,1.77097977082265e-001
1.10861043822177e-002	-2.71407378627833e-001,1.77225770055102e-001
1.10909695307485e-002	-2.71637658072459e-001,1.77353683116020e-001
1.10958368143548e-002	-2.71868125907130e-001,1.77481716397827e-001
1.11007062339736e-002	-2.72098782273714e-001,1.77609870033505e-001
1.11055777905424e-002	-2.72329627314169e-001,1.77738144156162e-001
1.11104514849988e-002	-2.72560661170534e-001,1.77866538899101e-001
1.11153273182812e-002	-2.72791883984935e-001,1.77995054395745e-001
1.11202052913281e-002	-2.73023295899584e-001,1.78123690779682e-001
1.11250854050786e-002	-2.73254897056776e-001,1.78252448184666e-001
1.11299676604721e-002	-2.73486687598892e-001,1.78381326744592e-001
1.11348520584485e-002	-2.73718667668397e-001,1.78510326593528e-001
1.11397385999481e-002	-2.73950837407842e-001,1.78639447865681e-001
1.11446272859116e-002	-2.74183196959863e-001,1.78768690695432e-001
1.11495181172800e-002	-2.74415746467183e-001,1.78898055217298e-001
1.11544110949949e-002	-2.74648486072604e-001,1.79027541565969e-001
1.11593062199982e-002	-2.74881415919021e-001,1.79157149876296e-001
1.11642034932322e-002	-2.75114536149408e-001,1.79286880283257e-001
1.11691029156397e-002	-2.75347846906826e-001,1.79416732922028e-001
1.11740044881639e-002	-2.75581348334423e-001,1.79546707927917e-001
1.11789082117484e-002	-2.75815040575429e-001,1.79676805436395e-001
1.11838140873370e-002	-2.76048923773162e-001,1.79807025583090e-001
1.11887221158743e-002	-2.76282998071022e-001,1.79937368503800e-001
1.11936322983051e-002	-2.76517263612498e-001,1.80067834334454e-001
1.11985446355746e-002	-2.76751720541159e-001,1.80198423211172e-001
1.12034591286284e-002	-2.76986369000666e-001,1.80329135270205e-001
1.12083757784127e-002	-2.77221209134759e-001,1.80459970647984e-001
1.12132945858739e-002	-2.77456241087266e-001,1.80590929481087e-001
1.12182155519589e-002	-2.77691465002099e-001,1.80722011906251e-001
1.12231386776150e-002	-2.77926881023257e-001,1.80853218060379e-001
1.12280639637900e-002	-2.78162489294822e-001,1.80984548080525e-001
1.12329914114320e-002	-2.78398289960964e-001,1.81116002103911e-001
1.12379210214895e-002	-2.78634283165934e-001,1.81247580267917e-001
1.12428527949116e-002	-2.78870469054072e-001,1.81379282710083e-001
1.12477867326476e-002	-2.79106847769802e-001,1.81511109568101e-001
1.12527228356474e-002	-2.79343419457633e-001,1.81643060979832e-001
1.12576611048611e-002	-2.79580184262159e-001,1.81775137083300e-001
1.12626015412395e-002	-2.79817142328060e-001,1.81907338016682e-001
1.12675441457336e-002	-2.80054293800101e-001,1.82039663918319e-001
1.12724889192948e-002	-2.80291638823131e-001,1.82172114926714e-001
1.12774358628751e-002	-2.80529177542086e-001,1.82304691180530e-001
1.12823849774267e-002	-2.80766910101986e-001,1.82437392818597e-001
1.12873362639025e-002	-2.81004836647938e-001,1.82570219979899e-001
1.12922897232555e-002	-2.81242957325133e-001,1.82703172803584e-001
1.12972453564394e-002	-2.81481272278846e-001,1.82836251428962e-001
1.13022031644080e-002	-2.81719781654440e-001,1.82969455995508e-001
1.13071631481159e-002	-2.81958485597361e-001,1.83102786642862e-001
1.13121253085179e-002	-2.82197384253142e-001,1.83236243510818e-001
1.13170896465691e-002	-2.82436477767401e-001,1.83369826739330e-001
1.13220561632253e-002	-2.82675766285840e-001,1.83503536468542e-001
1.13270248594426e-002	-2.82915249954247e-001,1.83637372838718e-001
1.13319957361774e-002	-2.83154928918496e-001,1.83771335990322e-001
1.13369687943866e-002	-2.83394803324546e-001,1.83905426063967e-001
1.13419440350277e-002	-2.83634873318441e-001,1.84039643200429e-001
1.13469214590583e-002	-2.83875139046311e-001,1.84173987540648e-001
1.13519010674367e-002	-2.84115600654370e-001,1.84308459225732e-001
1.13568828611215e-002	-2.84356258288918e-001,1.84443058396955e-001
1.13618668410716e-002	-2.84597112096340e-001,1.84577785195741e-001
1.13668530082465e-002	-2.84838162223109e-001,1.84712639763705e-001
1.13718413636062e-002	-2.85079408815780e-001,1.84847622242593e-001
1.13768319081108e-002	-2.85320852020995e-001,1.84982732774349e-001
1.13818246427211e-002	-2.85562491985479e-001,1.85117971501060e-001
1.13868195683983e-002	-2.85804328856046e-001,1.85253338564989e-001
1.13918166861038e-002	-2.86046362779595e-001,1.85388834108558e-001
