Freq.	V(out)*I(RL)/2
1.00000000000000e-002	1.95275255440540e-003,-4.86273763391662e-003
1.00043885104840e-002	1.95664206832594e-003,-4.87022794205827e-003
1.00087789468704e-002	1.96053834794838e-003,-4.87773040699743e-003
1.00131713100044e-002	1.96444140390141e-003,-4.88524504949859e-003
1.00175656007316e-002	1.96835124682815e-003,-4.89277189036329e-003
1.00219618198978e-002	1.97226788738591e-003,-4.90031095043056e-003
1.00263599683495e-002	1.97619133624710e-003,-4.90786225057597e-003
1.00307600469332e-002	1.98012160409820e-003,-4.91542581171276e-003
1.00351620564960e-002	1.98405870164085e-003,-4.92300165479078e-003
1.00395659978854e-002	1.98800263959086e-003,-4.93058980079773e-003
1.00439718719490e-002	1.99195342867912e-003,-4.93819027075811e-003
1.00483796795351e-002	1.99591107965055e-003,-4.94580308573457e-003
1.00527894214921e-002	1.99987560326537e-003,-4.95342826682659e-003
1.00572010986691e-002	2.00384701029812e-003,-4.96106583517159e-003
1.00616147119151e-002	2.00782531153806e-003,-4.96871581194452e-003
1.00660302620800e-002	2.01181051778926e-003,-4.97637821835805e-003
1.00704477500138e-002	2.01580263987065e-003,-4.98405307566231e-003
1.00748671765667e-002	2.01980168861544e-003,-4.99174040514598e-003
1.00792885425896e-002	2.02380767487209e-003,-4.99944022813492e-003
1.00837118489336e-002	2.02782060950349e-003,-5.00715256599339e-003
1.00881370964502e-002	2.03184050338753e-003,-5.01487744012353e-003
1.00925642859914e-002	2.03586736741663e-003,-5.02261487196581e-003
1.00969934184093e-002	2.03990121249854e-003,-5.03036488299822e-003
1.01014244945566e-002	2.04394204955495e-003,-5.03812749473826e-003
1.01058575152864e-002	2.04798988952336e-003,-5.04590272874038e-003
1.01102924814519e-002	2.05204474335567e-003,-5.05369060659810e-003
1.01147293939070e-002	2.05610662201850e-003,-5.06149114994348e-003
1.01191682535058e-002	2.06017553649350e-003,-5.06930438044707e-003
1.01236090611027e-002	2.06425149777748e-003,-5.07713031981756e-003
1.01280518175528e-002	2.06833451688155e-003,-5.08496898980313e-003
1.01324965237111e-002	2.07242460483253e-003,-5.09282041218976e-003
1.01369431804334e-002	2.07652177267139e-003,-5.10068460880320e-003
1.01413917885757e-002	2.08062603145464e-003,-5.10856160150734e-003
1.01458423489943e-002	2.08473739225353e-003,-5.11645141220530e-003
1.01502948625461e-002	2.08885586615427e-003,-5.12435406283931e-003
1.01547493300880e-002	2.09298146425801e-003,-5.13226957539073e-003
1.01592057524777e-002	2.09711419768119e-003,-5.14019797187976e-003
1.01636641305731e-002	2.10125407755498e-003,-5.14813927436616e-003
1.01681244652324e-002	2.10540111502580e-003,-5.15609350494884e-003
1.01725867573142e-002	2.10955532125489e-003,-5.16406068576629e-003
1.01770510076775e-002	2.11371670741886e-003,-5.17204083899612e-003
1.01815172171818e-002	2.11788528470908e-003,-5.18003398685589e-003
1.01859853866869e-002	2.12206106433241e-003,-5.18804015160221e-003
1.01904555170528e-002	2.12624405751035e-003,-5.19605935553204e-003
1.01949276091401e-002	2.13043427547985e-003,-5.20409162098158e-003
1.01994016638097e-002	2.13463172949305e-003,-5.21213697032688e-003
1.02038776819229e-002	2.13883643081691e-003,-5.22019542598423e-003
1.02083556643413e-002	2.14304839073372e-003,-5.22826701040964e-003
1.02128356119270e-002	2.14726762054141e-003,-5.23635174609874e-003
1.02173175255424e-002	2.15149413155233e-003,-5.24444965558811e-003
1.02218014060503e-002	2.15572793509437e-003,-5.25256076145408e-003
1.02262872543139e-002	2.15996904251105e-003,-5.26068508631285e-003
1.02307750711966e-002	2.16421746516040e-003,-5.26882265282174e-003
1.02352648575625e-002	2.16847321441618e-003,-5.27697348367794e-003
1.02397566142759e-002	2.17273630166738e-003,-5.28513760161917e-003
1.02442503422014e-002	2.17700673831827e-003,-5.29331502942368e-003
1.02487460422041e-002	2.18128453578809e-003,-5.30150578991070e-003
1.02532437151495e-002	2.18556970551183e-003,-5.30970990593971e-003
1.02577433619034e-002	2.18986225893972e-003,-5.31792740041095e-003
1.02622449833319e-002	2.19416220753720e-003,-5.32615829626578e-003
1.02667485803018e-002	2.19846956278486e-003,-5.33440261648666e-003
1.02712541536799e-002	2.20278433617925e-003,-5.34266038409633e-003
1.02757617043336e-002	2.20710653923169e-003,-5.35093162215940e-003
1.02802712331306e-002	2.21143618346921e-003,-5.35921635378110e-003
1.02847827409391e-002	2.21577328043434e-003,-5.36751460210792e-003
1.02892962286275e-002	2.22011784168494e-003,-5.37582639032766e-003
1.02938116970647e-002	2.22446987879410e-003,-5.38415174166978e-003
1.02983291471199e-002	2.22882940335056e-003,-5.39249067940495e-003
1.03028485796629e-002	2.23319642695863e-003,-5.40084322684519e-003
1.03073699955635e-002	2.23757096123798e-003,-5.40920940734435e-003
1.03118933956923e-002	2.24195301782361e-003,-5.41758924429808e-003
1.03164187809200e-002	2.24634260836643e-003,-5.42598276114325e-003
1.03209461521177e-002	2.25073974453240e-003,-5.43438998135921e-003
1.03254755101570e-002	2.25514443800337e-003,-5.44281092846676e-003
1.03300068559098e-002	2.25955670047664e-003,-5.45124562602878e-003
1.03345401902485e-002	2.26397654366517e-003,-5.45969409765011e-003
1.03390755140457e-002	2.26840397929720e-003,-5.46815636697802e-003
1.03436128281745e-002	2.27283901911699e-003,-5.47663245770153e-003
1.03481521335083e-002	2.27728167488392e-003,-5.48512239355251e-003
1.03526934309211e-002	2.28173195837345e-003,-5.49362619830463e-003
1.03572367212870e-002	2.28618988137639e-003,-5.50214389577439e-003
1.03617820054806e-002	2.29065545569956e-003,-5.51067550982025e-003
1.03663292843770e-002	2.29512869316486e-003,-5.51922106434407e-003
1.03708785588515e-002	2.29960960561047e-003,-5.52778058328965e-003
1.03754298297798e-002	2.30409820488976e-003,-5.53635409064406e-003
1.03799830980382e-002	2.30859450287208e-003,-5.54494161043690e-003
1.03845383645031e-002	2.31309851144273e-003,-5.55354316674050e-003
1.03890956300515e-002	2.31761024250215e-003,-5.56215878367066e-003
1.03936548955607e-002	2.32212970796691e-003,-5.57078848538597e-003
1.03982161619083e-002	2.32665691976948e-003,-5.57943229608792e-003
1.04027794299724e-002	2.33119188985783e-003,-5.58809024002156e-003
1.04073447006315e-002	2.33573463019569e-003,-5.59676234147522e-003
1.04119119747644e-002	2.34028515276290e-003,-5.60544862478031e-003
1.04164812532503e-002	2.34484346955486e-003,-5.61414911431196e-003
1.04210525369689e-002	2.34940959258286e-003,-5.62286383448872e-003
1.04256258268002e-002	2.35398353387410e-003,-5.63159280977274e-003
1.04302011236245e-002	2.35856530547152e-003,-5.64033606466998e-003
1.04347784283225e-002	2.36315491943405e-003,-5.64909362372997e-003
1.04393577417756e-002	2.36775238783682e-003,-5.65786551154583e-003
1.04439390648652e-002	2.37235772276998e-003,-5.66665175275554e-003
1.04485223984732e-002	2.37697093634037e-003,-5.67545237204025e-003
1.04531077434820e-002	2.38159204067054e-003,-5.68426739412537e-003
1.04576951007742e-002	2.38622104789913e-003,-5.69309684378043e-003
1.04622844712330e-002	2.39085797018025e-003,-5.70194074581962e-003
1.04668758557418e-002	2.39550281968468e-003,-5.71079912510079e-003
1.04714692551846e-002	2.40015560859857e-003,-5.71967200652683e-003
1.04760646704455e-002	2.40481634912432e-003,-5.72855941504482e-003
1.04806621024092e-002	2.40948505348052e-003,-5.73746137564624e-003
1.04852615519607e-002	2.41416173390141e-003,-5.74637791336768e-003
1.04898630199855e-002	2.41884640263765e-003,-5.75530905328993e-003
1.04944665073694e-002	2.42353907195584e-003,-5.76425482053881e-003
1.04990720149985e-002	2.42823975413825e-003,-5.77321524028548e-003
1.05036795437595e-002	2.43294846148398e-003,-5.78219033774517e-003
1.05082890945393e-002	2.43766520630772e-003,-5.79118013817870e-003
1.05129006682253e-002	2.44239000094015e-003,-5.80018466689241e-003
1.05175142657052e-002	2.44712285772839e-003,-5.80920394923725e-003
1.05221298878673e-002	2.45186378903591e-003,-5.81823801060926e-003
1.05267475355999e-002	2.45661280724184e-003,-5.82728687645055e-003
1.05313672097921e-002	2.46136992474134e-003,-5.83635057224876e-003
1.05359889113332e-002	2.46613515394661e-003,-5.84542912353610e-003
1.05406126411129e-002	2.47090850728516e-003,-5.85452255589148e-003
1.05452384000212e-002	2.47568999720092e-003,-5.86363089493923e-003
1.05498661889486e-002	2.48047963615465e-003,-5.87275416634870e-003
1.05544960087861e-002	2.48527743662265e-003,-5.88189239583615e-003
1.05591278604248e-002	2.49008341109751e-003,-5.89104560916353e-003
1.05637617447565e-002	2.49489757208835e-003,-5.90021383213865e-003
1.05683976626733e-002	2.49971993212065e-003,-5.90939709061527e-003
1.05730356150674e-002	2.50455050373580e-003,-5.91859541049391e-003
1.05776756028318e-002	2.50938929949180e-003,-5.92780881772095e-003
1.05823176268597e-002	2.51423633196267e-003,-5.93703733828953e-003
1.05869616880447e-002	2.51909161373917e-003,-5.94628099823878e-003
1.05916077872809e-002	2.52395515742813e-003,-5.95553982365469e-003
1.05962559254625e-002	2.52882697565267e-003,-5.96481384066995e-003
1.06009061034845e-002	2.53370708105224e-003,-5.97410307546412e-003
1.06055583222420e-002	2.53859548628330e-003,-5.98340755426264e-003
1.06102125826305e-002	2.54349220401773e-003,-5.99272730333924e-003
1.06148688855461e-002	2.54839724694463e-003,-6.00206234901344e-003
1.06195272318852e-002	2.55331062776922e-003,-6.01141271765232e-003
1.06241876225444e-002	2.55823235921309e-003,-6.02077843567015e-003
1.06288500584209e-002	2.56316245401424e-003,-6.03015952952846e-003
1.06335145404123e-002	2.56810092492714e-003,-6.03955602573613e-003
1.06381810694165e-002	2.57304778472313e-003,-6.04896795084899e-003
1.06428496463318e-002	2.57800304618932e-003,-6.05839533147120e-003
1.06475202720571e-002	2.58296672213034e-003,-6.06783819425320e-003
1.06521929474913e-002	2.58793882536610e-003,-6.07729656589479e-003
1.06568676735340e-002	2.59291936873417e-003,-6.08677047314194e-003
1.06615444510852e-002	2.59790836508791e-003,-6.09625994278952e-003
1.06662232810451e-002	2.60290582729749e-003,-6.10576500167994e-003
1.06709041643144e-002	2.60791176824976e-003,-6.11528567670351e-003
1.06755871017943e-002	2.61292620084794e-003,-6.12482199479890e-003
1.06802720943861e-002	2.61794913801196e-003,-6.13437398295290e-003
1.06849591429919e-002	2.62298059267866e-003,-6.14394166820005e-003
1.06896482485139e-002	2.62802057780071e-003,-6.15352507762439e-003
1.06943394118548e-002	2.63306910634803e-003,-6.16312423835761e-003
1.06990326339176e-002	2.63812619130721e-003,-6.17273917757984e-003
1.07037279156058e-002	2.64319184568151e-003,-6.18236992251987e-003
1.07084252578233e-002	2.64826608249033e-003,-6.19201650045592e-003
1.07131246614744e-002	2.65334891477039e-003,-6.20167893871418e-003
1.07178261274637e-002	2.65844035557467e-003,-6.21135726467032e-003
1.07225296566963e-002	2.66354041797328e-003,-6.22105150574839e-003
1.07272352500776e-002	2.66864911505249e-003,-6.23076168942238e-003
1.07319429085135e-002	2.67376645991607e-003,-6.24048784321428e-003
1.07366526329102e-002	2.67889246568367e-003,-6.25022999469662e-003
1.07413644241745e-002	2.68402714549256e-003,-6.25998817149009e-003
1.07460782832132e-002	2.68917051249602e-003,-6.26976240126583e-003
1.07507942109340e-002	2.69432257986491e-003,-6.27955271174342e-003
1.07555122082446e-002	2.69948336078629e-003,-6.28935913069296e-003
1.07602322760532e-002	2.70465286846396e-003,-6.29918168593425e-003
1.07649544152685e-002	2.70983111611915e-003,-6.30902040533606e-003
1.07696786267996e-002	2.71501811698955e-003,-6.31887531681775e-003
1.07744049115559e-002	2.72021388432968e-003,-6.32874644834838e-003
1.07791332704472e-002	2.72541843141097e-003,-6.33863382794724e-003
1.07838637043837e-002	2.73063177152197e-003,-6.34853748368351e-003
1.07885962142762e-002	2.73585391796755e-003,-6.35845744367714e-003
1.07933308010356e-002	2.74108488407024e-003,-6.36839373609766e-003
1.07980674655733e-002	2.74632468316910e-003,-6.37834638916532e-003
1.08028062088012e-002	2.75157332861994e-003,-6.38831543115134e-003
1.08075470316316e-002	2.75683083379575e-003,-6.39830089037712e-003
1.08122899349770e-002	2.76209721208655e-003,-6.40830279521471e-003
1.08170349197506e-002	2.76737247689918e-003,-6.41832117408715e-003
1.08217819868656e-002	2.77265664165735e-003,-6.42835605546851e-003
1.08265311372361e-002	2.77794971980228e-003,-6.43840746788310e-003
1.08312823717762e-002	2.78325172479155e-003,-6.44847543990733e-003
1.08360356914005e-002	2.78856267010020e-003,-6.45856000016805e-003
1.08407910970242e-002	2.79388256922014e-003,-6.46866117734365e-003
1.08455485895625e-002	2.79921143566053e-003,-6.47877900016355e-003
1.08503081699315e-002	2.80454928294713e-003,-6.48891349740930e-003
1.08550698390473e-002	2.80989612462306e-003,-6.49906469791351e-003
1.08598335978266e-002	2.81525197424870e-003,-6.50923263056032e-003
1.08645994471864e-002	2.82061684540161e-003,-6.51941732428538e-003
1.08693673880443e-002	2.82599075167569e-003,-6.52961880807721e-003
1.08741374213179e-002	2.83137370668274e-003,-6.53983711097519e-003
1.08789095479257e-002	2.83676572405154e-003,-6.55007226207097e-003
1.08836837687862e-002	2.84216681742749e-003,-6.56032429050895e-003
1.08884600848186e-002	2.84757700047405e-003,-6.57059322548463e-003
1.08932384969422e-002	2.85299628687115e-003,-6.58087909624655e-003
1.08980190060770e-002	2.85842469031614e-003,-6.59118193209553e-003
1.09028016131433e-002	2.86386222452360e-003,-6.60150176238467e-003
1.09075863190617e-002	2.86930890322538e-003,-6.61183861651960e-003
1.09123731247533e-002	2.87476474017032e-003,-6.62219252395906e-003
1.09171620311396e-002	2.88022974912478e-003,-6.63256351421397e-003
1.09219530391425e-002	2.88570394387193e-003,-6.64295161684884e-003
1.09267461496843e-002	2.89118733821266e-003,-6.65335686148055e-003
1.09315413636876e-002	2.89667994596509e-003,-6.66377927777895e-003
1.09363386820757e-002	2.90218178096407e-003,-6.67421889546787e-003
1.09411381057719e-002	2.90769285706301e-003,-6.68467574432271e-003
1.09459396357003e-002	2.91321318813066e-003,-6.69514985417471e-003
1.09507432727851e-002	2.91874278805513e-003,-6.70564125490613e-003
1.09555490179511e-002	2.92428167074050e-003,-6.71614997645424e-003
1.09603568721234e-002	2.92982985010871e-003,-6.72667604880949e-003
1.09651668362276e-002	2.93538734009911e-003,-6.73721950201583e-003
1.09699789111895e-002	2.94095415466810e-003,-6.74778036617158e-003
1.09747930979356e-002	2.94653030778972e-003,-6.75835867142871e-003
1.09796093973925e-002	2.95211581345544e-003,-6.76895444799290e-003
1.09844278104876e-002	2.95771068567400e-003,-6.77956772612443e-003
1.09892483381482e-002	2.96331493847139e-003,-6.79019853613778e-003
1.09940709813025e-002	2.96892858589151e-003,-6.80084690840127e-003
1.09988957408788e-002	2.97455164199545e-003,-6.81151287333795e-003
1.10037226178059e-002	2.98018412086116e-003,-6.82219646142614e-003
1.10085516130130e-002	2.98582603658526e-003,-6.83289770319714e-003
1.10133827274297e-002	2.99147740328089e-003,-6.84361662923823e-003
1.10182159619861e-002	2.99713823507887e-003,-6.85435327019144e-003
1.10230513176125e-002	3.00280854612805e-003,-6.86510765675277e-003
1.10278887952397e-002	3.00848835059386e-003,-6.87587981967455e-003
1.10327283957991e-002	3.01417766266023e-003,-6.88666978976298e-003
1.10375701202223e-002	3.01987649652787e-003,-6.89747759788039e-003
1.10424139694413e-002	3.02558486641534e-003,-6.90830327494414e-003
1.10472599443886e-002	3.03130278655862e-003,-6.91914685192706e-003
1.10521080459972e-002	3.03703027121174e-003,-6.93000835985691e-003
1.10569582752001e-002	3.04276733464579e-003,-6.94088782981778e-003
1.10618106329313e-002	3.04851399114935e-003,-6.95178529294959e-003
1.10666651201247e-002	3.05427025502916e-003,-6.96270078044727e-003
1.10715217377150e-002	3.06003614060946e-003,-6.97363432356197e-003
1.10763804866369e-002	3.06581166223167e-003,-6.98458595360133e-003
1.10812413678259e-002	3.07159683425487e-003,-6.99555570192915e-003
1.10861043822177e-002	3.07739167105622e-003,-7.00654359996485e-003
1.10909695307485e-002	3.08319618703056e-003,-7.01754967918417e-003
1.10958368143548e-002	3.08901039659001e-003,-7.02857397111977e-003
1.11007062339736e-002	3.09483431416451e-003,-7.03961650736070e-003
1.11055777905424e-002	3.10066795420216e-003,-7.05067731955202e-003
1.11104514849988e-002	3.10651133116760e-003,-7.06175643939692e-003
1.11153273182812e-002	3.11236445954440e-003,-7.07285389865415e-003
1.11202052913281e-002	3.11822735383342e-003,-7.08396972913963e-003
1.11250854050786e-002	3.12410002855315e-003,-7.09510396272670e-003
1.11299676604721e-002	3.12998249823983e-003,-7.10625663134580e-003
1.11348520584485e-002	3.13587477744758e-003,-7.11742776698441e-003
1.11397385999481e-002	3.14177688074843e-003,-7.12861740168718e-003
1.11446272859116e-002	3.14768882273163e-003,-7.13982556755703e-003
1.11495181172800e-002	3.15361061800515e-003,-7.15105229675326e-003
1.11544110949949e-002	3.15954228119381e-003,-7.16229762149394e-003
1.11593062199982e-002	3.16548382694064e-003,-7.17356157405447e-003
1.11642034932322e-002	3.17143526990694e-003,-7.18484418676772e-003
1.11691029156397e-002	3.17739662477092e-003,-7.19614549202542e-003
1.11740044881639e-002	3.18336790622954e-003,-7.20746552227653e-003
1.11789082117484e-002	3.18934912899705e-003,-7.21880431002875e-003
1.11838140873370e-002	3.19534030780581e-003,-7.23016188784785e-003
1.11887221158743e-002	3.20134145740564e-003,-7.24153828835847e-003
1.11936322983051e-002	3.20735259256541e-003,-7.25293354424244e-003
1.11985446355746e-002	3.21337372807029e-003,-7.26434768824207e-003
1.12034591286284e-002	3.21940487872495e-003,-7.27578075315644e-003
1.12083757784127e-002	3.22544605935042e-003,-7.28723277184552e-003
1.12132945858739e-002	3.23149728478691e-003,-7.29870377722654e-003
1.12182155519589e-002	3.23755856989198e-003,-7.31019380227662e-003
1.12231386776150e-002	3.24362992954133e-003,-7.32170288003166e-003
1.12280639637900e-002	3.24971137862870e-003,-7.33323104358679e-003
1.12329914114320e-002	3.25580293206538e-003,-7.34477832609722e-003
1.12379210214895e-002	3.26190460478148e-003,-7.35634476077618e-003
1.12428527949116e-002	3.26801641172382e-003,-7.36793038089851e-003
1.12477867326476e-002	3.27413836785849e-003,-7.37953521979697e-003
1.12527228356474e-002	3.28027048816924e-003,-7.39115931086448e-003
1.12576611048611e-002	3.28641278765725e-003,-7.40280268755481e-003
1.12626015412395e-002	3.29256528134282e-003,-7.41446538338021e-003
1.12675441457336e-002	3.29872798426312e-003,-7.42614743191471e-003
1.12724889192948e-002	3.30490091147409e-003,-7.43784886679152e-003
1.12774358628751e-002	3.31108407804959e-003,-7.44956972170447e-003
1.12823849774267e-002	3.31727749908174e-003,-7.46131003040754e-003
1.12873362639025e-002	3.32348118968033e-003,-7.47306982671586e-003
1.12922897232555e-002	3.32969516497389e-003,-7.48484914450433e-003
1.12972453564394e-002	3.33591944010818e-003,-7.49664801770999e-003
1.13022031644080e-002	3.34215403024761e-003,-7.50846648032979e-003
1.13071631481159e-002	3.34839895057511e-003,-7.52030456642125e-003
1.13121253085179e-002	3.35465421629066e-003,-7.53216231010463e-003
1.13170896465691e-002	3.36091984261392e-003,-7.54403974555911e-003
1.13220561632253e-002	3.36719584478093e-003,-7.55593690702769e-003
1.13270248594426e-002	3.37348223804749e-003,-7.56785382881270e-003
1.13319957361774e-002	3.37977903768654e-003,-7.57979054527948e-003
1.13369687943866e-002	3.38608625898978e-003,-7.59174709085409e-003
1.13419440350277e-002	3.39240391726658e-003,-7.60372350002523e-003
1.13469214590583e-002	3.39873202784507e-003,-7.61571980734268e-003
1.13519010674367e-002	3.40507060607136e-003,-7.62773604741848e-003
1.13568828611215e-002	3.41141966730966e-003,-7.63977225492724e-003
1.13618668410716e-002	3.41777922694283e-003,-7.65182846460475e-003
1.13668530082465e-002	3.42414930037127e-003,-7.66390471125051e-003
1.13718413636062e-002	3.43052990301479e-003,-7.67600102972473e-003
1.13768319081108e-002	3.43692105030988e-003,-7.68811745495251e-003
1.13818246427211e-002	3.44332275771257e-003,-7.70025402191957e-003
1.13868195683983e-002	3.44973504069678e-003,-7.71241076567519e-003
1.13918166861038e-002	3.45615791475478e-003,-7.72458772133154e-003
