time	V(vout)	-I(Rl)
0.000000000000000e+000	1.027415e+000	1.037689e-010
9.999999960041972e-012	1.027415e+000	1.037689e-010
1.999999992008394e-011	1.027415e+000	1.037689e-010
3.999999984016789e-011	1.027415e+000	1.037689e-010
7.999999968033578e-011	1.027415e+000	1.037689e-010
1.599999993606716e-010	1.027415e+000	1.037689e-010
3.199999987213431e-010	1.027415e+000	1.037689e-010
6.399999974426862e-010	1.027415e+000	1.037689e-010
1.279999994885372e-009	1.027415e+000	1.037689e-010
2.559999989770745e-009	1.027415e+000	1.037689e-010
5.119999979541490e-009	1.027415e+000	1.037689e-010
1.023999995908298e-008	1.027415e+000	1.037689e-010
2.047999991816596e-008	1.027415e+000	1.037689e-010
8.191999967266384e-008	1.027415e+000	1.037689e-010
1.638399993453277e-007	1.027415e+000	1.037689e-010
6.553599973813107e-007	1.027415e+000	1.037689e-010
1.310719994762621e-006	1.027415e+000	1.037689e-010
2.310719994762622e-006	1.027415e+000	1.037689e-010
3.310719994762621e-006	1.027415e+000	1.037689e-010
4.310719994762621e-006	1.027415e+000	1.037689e-010
7.310719994762622e-006	1.027415e+000	1.037689e-010
8.310719994762622e-006	1.027415e+000	1.037689e-010
9.310719994762621e-006	1.027415e+000	1.037689e-010
1.031071999476262e-005	1.027415e+000	1.037689e-010
1.131071999476262e-005	1.027415e+000	1.037689e-010
1.231071999476262e-005	1.027415e+000	1.037689e-010
1.331071999476262e-005	1.027415e+000	1.037689e-010
1.431071999476262e-005	1.027415e+000	1.037689e-010
1.531071999476262e-005	1.027415e+000	1.037689e-010
1.731071999476262e-005	1.027415e+000	1.037689e-010
2.031071999476262e-005	1.027415e+000	1.037689e-010
2.131071999476262e-005	1.027415e+000	1.037689e-010
2.231071999476262e-005	1.027415e+000	1.037689e-010
2.331071999476262e-005	1.027415e+000	1.037689e-010
2.431071999476262e-005	1.027415e+000	1.037689e-010
2.531071999476262e-005	1.027415e+000	1.037689e-010
2.631071999476262e-005	1.027415e+000	1.037689e-010
2.831071999476262e-005	1.027415e+000	1.037689e-010
2.902500570904833e-005	1.027415e+000	1.037689e-010
2.973929142333405e-005	1.027415e+000	1.037689e-010
3.045357713761976e-005	1.027415e+000	1.037689e-010
3.116786285190548e-005	1.027415e+000	1.037689e-010
3.188214856619119e-005	1.027415e+000	1.037689e-010
3.259643428047691e-005	1.027415e+000	1.037689e-010
3.331071999476262e-005	1.027415e+000	1.037689e-010
3.431071999476262e-005	1.027415e+000	1.037689e-010
3.531071999476262e-005	1.027415e+000	1.037689e-010
3.631071999476262e-005	1.027415e+000	1.037689e-010
3.731071999476262e-005	1.027415e+000	1.037689e-010
3.831071999476262e-005	1.027415e+000	1.037689e-010
4.031071999476262e-005	1.027415e+000	1.037689e-010
4.116786285190548e-005	1.027415e+000	1.037689e-010
4.202500570904834e-005	1.027415e+000	1.037689e-010
4.288214856619120e-005	1.027415e+000	1.037689e-010
4.373929142333406e-005	1.027415e+000	1.037689e-010
4.459643428047691e-005	1.027415e+000	1.037689e-010
4.545357713761977e-005	1.027415e+000	1.037689e-010
4.631071999476262e-005	1.027415e+000	1.037689e-010
4.731071999476262e-005	1.027415e+000	1.037689e-010
4.831071999476262e-005	1.027415e+000	1.037689e-010
5.031071999476262e-005	1.027415e+000	1.037689e-010
5.231071999476262e-005	1.027415e+000	1.037689e-010
5.316786285190548e-005	1.027415e+000	1.037689e-010
5.402500570904834e-005	1.027415e+000	1.037689e-010
5.488214856619120e-005	1.027415e+000	1.037689e-010
5.573929142333406e-005	1.027415e+000	1.037689e-010
5.659643428047691e-005	1.027415e+000	1.037689e-010
5.745357713761977e-005	1.027415e+000	1.037689e-010
5.831071999476262e-005	1.027415e+000	1.037689e-010
6.031071999476262e-005	1.027415e+000	1.037689e-010
6.231071999476263e-005	1.027415e+000	1.037689e-010
6.431071999476262e-005	1.027415e+000	1.037689e-010
6.531071999476262e-005	1.027415e+000	1.037689e-010
6.631071999476262e-005	1.027415e+000	1.037689e-010
6.731071999476263e-005	1.027415e+000	1.037689e-010
6.831071999476262e-005	1.027415e+000	1.037689e-010
6.931071999476262e-005	1.027415e+000	1.037689e-010
7.031071999476262e-005	1.027415e+000	1.037689e-010
7.131071999476262e-005	1.027415e+000	1.037689e-010
7.331071999476262e-005	1.027415e+000	1.037689e-010
7.531071999476262e-005	1.027415e+000	1.037689e-010
7.631071999476262e-005	1.027415e+000	1.037689e-010
7.731071999476263e-005	1.027415e+000	1.037689e-010
7.831071999476262e-005	1.027415e+000	1.037689e-010
7.931071999476262e-005	1.027415e+000	1.037689e-010
8.031071999476263e-005	1.027415e+000	1.037689e-010
8.131071999476263e-005	1.027415e+000	1.037689e-010
8.231071999476263e-005	1.027415e+000	1.037689e-010
8.431071999476262e-005	1.027415e+000	1.037689e-010
8.631071999476263e-005	1.027415e+000	1.037689e-010
8.931071999476262e-005	1.027415e+000	1.037689e-010
9.045357713761977e-005	1.027415e+000	1.037689e-010
9.159643428047690e-005	1.027415e+000	1.037689e-010
9.273929142333405e-005	1.027415e+000	1.037689e-010
9.388214856619119e-005	1.027415e+000	1.037689e-010
9.502500570904834e-005	1.027415e+000	1.037689e-010
9.616786285190549e-005	1.027415e+000	1.037689e-010
9.731071999476262e-005	1.027415e+000	1.037689e-010
1.003107199947626e-004	1.027415e+000	1.037689e-010
1.014535771376198e-004	1.027415e+000	1.037689e-010
1.025964342804769e-004	1.027415e+000	1.037689e-010
1.037392914233341e-004	1.027415e+000	1.037689e-010
1.048821485661912e-004	1.027415e+000	1.037689e-010
1.060250057090483e-004	1.027415e+000	1.037689e-010
1.071678628519055e-004	1.027415e+000	1.037689e-010
1.083107199947626e-004	1.027415e+000	1.037689e-010
1.113107199947626e-004	1.027415e+000	1.037689e-010
1.193107199947626e-004	1.027415e+000	1.037689e-010
1.223107199947626e-004	1.027415e+000	1.037689e-010
1.235964342804769e-004	1.027415e+000	1.037689e-010
1.248821485661912e-004	1.027415e+000	1.037689e-010
1.261678628519055e-004	1.027415e+000	1.037689e-010
1.274535771376198e-004	1.027415e+000	1.037689e-010
1.287392914233340e-004	1.027415e+000	1.037689e-010
1.300250057090483e-004	1.027415e+000	1.037689e-010
1.313107199947626e-004	1.027415e+000	1.037689e-010
1.343107199947626e-004	1.027415e+000	1.037689e-010
1.355964342804769e-004	1.027415e+000	1.037689e-010
1.368821485661912e-004	1.027415e+000	1.037689e-010
1.381678628519055e-004	1.027415e+000	1.037689e-010
1.394535771376198e-004	1.027415e+000	1.037689e-010
1.407392914233341e-004	1.027415e+000	1.037689e-010
1.420250057090484e-004	1.027415e+000	1.037689e-010
1.433107199947626e-004	1.027415e+000	1.037689e-010
1.448821485661912e-004	1.027415e+000	1.037689e-010
1.464535771376198e-004	1.027415e+000	1.037689e-010
1.480250057090483e-004	1.027415e+000	1.037689e-010
1.495964342804769e-004	1.027415e+000	1.037689e-010
1.511678628519055e-004	1.027415e+000	1.037689e-010
1.527392914233341e-004	1.027415e+000	1.037689e-010
1.543107199947626e-004	1.027415e+000	1.037689e-010
1.560250057090483e-004	1.027415e+000	1.037689e-010
1.577392914233341e-004	1.027415e+000	1.037689e-010
1.594535771376198e-004	1.027415e+000	1.037689e-010
1.611678628519055e-004	1.027415e+000	1.037689e-010
1.628821485661912e-004	1.027415e+000	1.037689e-010
1.645964342804769e-004	1.027415e+000	1.037689e-010
1.663107199947626e-004	1.027415e+000	1.037689e-010
1.680250057090483e-004	1.027415e+000	1.037689e-010
1.697392914233341e-004	1.027415e+000	1.037689e-010
1.714535771376198e-004	1.027415e+000	1.037689e-010
1.731678628519055e-004	1.027415e+000	1.037689e-010
1.748821485661912e-004	1.027415e+000	1.037689e-010
1.765964342804769e-004	1.027415e+000	1.037689e-010
1.783107199947626e-004	1.027415e+000	1.037689e-010
1.801678628519055e-004	1.027415e+000	1.037689e-010
1.820250057090483e-004	1.027415e+000	1.037689e-010
1.838821485661912e-004	1.027415e+000	1.037689e-010
1.857392914233341e-004	1.027415e+000	1.037689e-010
1.875964342804769e-004	1.027415e+000	1.037689e-010
1.894535771376198e-004	1.027415e+000	1.037689e-010
1.913107199947626e-004	1.027415e+000	1.037689e-010
1.933107199947626e-004	1.027415e+000	1.037689e-010
1.953107199947626e-004	1.027415e+000	1.037689e-010
1.973107199947626e-004	1.027415e+000	1.037689e-010
1.993107199947626e-004	1.027415e+000	1.037689e-010
2.013107199947626e-004	1.027415e+000	1.037689e-010
2.033107199947626e-004	1.027415e+000	1.037689e-010
2.053107199947626e-004	1.027415e+000	1.037689e-010
2.074535771376198e-004	1.027415e+000	1.037689e-010
2.095964342804769e-004	1.027415e+000	1.037689e-010
2.117392914233341e-004	1.027415e+000	1.037689e-010
2.138821485661912e-004	1.027415e+000	1.037689e-010
2.160250057090483e-004	1.027415e+000	1.037689e-010
2.181678628519055e-004	1.027415e+000	1.037689e-010
2.203107199947626e-004	1.027415e+000	1.037689e-010
2.234535771376198e-004	1.027415e+000	1.037689e-010
2.265964342804769e-004	1.027415e+000	1.037689e-010
2.297392914233341e-004	1.027415e+000	1.037689e-010
2.328821485661912e-004	1.027415e+000	1.037689e-010
2.360250057090483e-004	1.027415e+000	1.037689e-010
2.391678628519055e-004	1.027415e+000	1.037689e-010
2.423107199947626e-004	1.027415e+000	1.037689e-010
2.461678628519055e-004	1.027415e+000	1.037689e-010
2.500250057090483e-004	1.027415e+000	1.037689e-010
2.538821485661912e-004	1.027415e+000	1.037689e-010
2.577392914233341e-004	1.027415e+000	1.037689e-010
2.615964342804769e-004	1.027415e+000	1.037689e-010
2.654535771376198e-004	1.027415e+000	1.037689e-010
2.693107199947626e-004	1.027415e+000	1.037689e-010
2.731678628519055e-004	1.027415e+000	1.037689e-010
2.770250057090483e-004	1.027415e+000	1.037689e-010
2.808821485661912e-004	1.027415e+000	1.037689e-010
2.847392914233341e-004	1.027415e+000	1.037689e-010
2.885964342804769e-004	1.027415e+000	1.037689e-010
2.924535771376198e-004	1.027415e+000	1.037689e-010
2.963107199947626e-004	1.027415e+000	1.037689e-010
3.121678628519055e-004	1.027415e+000	1.037689e-010
3.280250057090484e-004	1.027415e+000	1.037689e-010
3.438821485661913e-004	1.027415e+000	1.037689e-010
3.597392914233341e-004	1.027415e+000	1.037689e-010
3.755964342804769e-004	1.027415e+000	1.037689e-010
3.914535771376198e-004	1.027415e+000	1.037689e-010
4.073107199947626e-004	1.027415e+000	1.037689e-010
4.238821485661912e-004	1.027415e+000	1.037689e-010
4.404535771376198e-004	1.027415e+000	1.037689e-010
4.570250057090484e-004	1.027415e+000	1.037689e-010
4.735964342804769e-004	1.027415e+000	1.037689e-010
4.901678628519055e-004	1.027415e+000	1.037689e-010
5.067392914233341e-004	1.027415e+000	1.037689e-010
5.233107199947626e-004	1.027415e+000	1.037689e-010
5.834535771376198e-004	1.027415e+000	1.037689e-010
6.435964342804770e-004	1.027415e+000	1.037689e-010
7.037392914233341e-004	1.027415e+000	1.037689e-010
7.638821485661913e-004	1.027415e+000	1.037689e-010
8.240250057090484e-004	1.027415e+000	1.037689e-010
8.841678628519056e-004	1.027415e+000	1.037689e-010
9.443107199947627e-004	1.027415e+000	1.037689e-010
1.006310719994763e-003	1.027415e+000	1.037689e-010
1.998310719994763e-003	1.027415e+000	1.037689e-010
2.000000000000000e-003	1.027415e+000	1.037689e-010
2.000002027728957e-003	7.027513e-001	3.602796e-001
2.000006083186873e-003	5.329061e-001	5.329061e-001
2.000006876918495e-003	5.342436e-001	5.342436e-001
2.000007412235114e-003	5.341539e-001	5.341539e-001
2.000007846549931e-003	5.343511e-001	5.343511e-001
2.000008051656020e-003	5.342185e-001	5.342185e-001
2.000008175073279e-003	5.339496e-001	5.339496e-001
2.000008278082385e-003	5.340738e-001	5.340738e-001
2.000008390068193e-003	5.340648e-001	5.340648e-001
2.000008553769176e-003	5.340611e-001	5.340611e-001
2.000008881171141e-003	5.340509e-001	5.340509e-001
2.000009535975072e-003	5.340402e-001	5.340402e-001
2.000010845582933e-003	5.340766e-001	5.340766e-001
2.000012893893077e-003	5.343214e-001	5.343214e-001
2.000015100444019e-003	5.349287e-001	5.349287e-001
2.000017965794312e-003	5.363427e-001	5.363427e-001
2.000021517208632e-003	5.390585e-001	5.390585e-001
2.000026875988133e-003	5.446085e-001	5.446085e-001
2.000032538600628e-003	5.516272e-001	5.516272e-001
2.000038165589343e-003	5.592587e-001	5.592587e-001
2.000043479634180e-003	5.666592e-001	5.666592e-001
2.000049426141475e-003	5.748706e-001	5.748706e-001
2.000055869845389e-003	5.834924e-001	5.834924e-001
2.000063329118344e-003	5.929854e-001	5.929854e-001
2.000071692151144e-003	6.029262e-001	6.029262e-001
2.000081646327550e-003	6.137654e-001	6.137654e-001
2.000093399395697e-003	6.252599e-001	6.252599e-001
2.000106823027424e-003	6.368895e-001	6.368895e-001
2.000118997755860e-003	6.460701e-001	6.460701e-001
2.000135538699976e-003	6.568334e-001	6.568334e-001
2.000150443473026e-003	6.652448e-001	6.652448e-001
2.000162950487767e-003	6.713874e-001	6.713874e-001
2.000174383553392e-003	6.763513e-001	6.763513e-001
2.000186316547201e-003	6.809812e-001	6.809812e-001
2.000199629168635e-003	6.856015e-001	6.856015e-001
2.000217855783235e-003	6.913071e-001	6.913071e-001
2.000237212096912e-003	6.970416e-001	6.970416e-001
2.000256557134806e-003	7.031965e-001	7.031965e-001
2.000275071286912e-003	7.110704e-001	7.110704e-001
2.000294834583380e-003	7.243798e-001	7.243798e-001
2.000313358238894e-003	7.450114e-001	7.450114e-001
2.000332659163586e-003	7.775837e-001	7.775837e-001
2.000351042818494e-003	8.187258e-001	8.187258e-001
2.000371815900934e-003	8.722606e-001	8.722606e-001
2.000391749064470e-003	9.245244e-001	9.245244e-001
2.000404551759344e-003	9.559771e-001	9.559771e-001
2.000413718521123e-003	9.761814e-001	9.761814e-001
2.000422288270398e-003	9.928292e-001	9.928292e-001
2.000431384188848e-003	1.007981e+000	1.007981e+000
2.000441314707837e-003	1.021701e+000	1.021701e+000
2.000448920386214e-003	1.029998e+000	1.029998e+000
2.000456949204053e-003	1.036466e+000	1.036466e+000
2.000465280147811e-003	1.040494e+000	1.040494e+000
2.000481942035325e-003	1.042769e+000	1.042769e+000
2.000499538194308e-003	1.040221e+000	1.040221e+000
2.000513858148740e-003	1.036007e+000	1.036007e+000
2.000525856173424e-003	1.032599e+000	1.032599e+000
2.000537342455435e-003	1.030181e+000	1.030181e+000
2.000550099166262e-003	1.028178e+000	1.028178e+000
2.000564179606362e-003	1.026235e+000	1.026235e+000
2.000576785747959e-003	1.024480e+000	1.024480e+000
2.000591173884193e-003	1.022355e+000	1.022355e+000
2.000604214873117e-003	1.020298e+000	1.020298e+000
2.000619565091863e-003	1.017731e+000	1.017731e+000
2.000634991452385e-003	1.015026e+000	1.015026e+000
2.000653727464903e-003	1.011615e+000	1.011615e+000
2.000673018933966e-003	1.008012e+000	1.008012e+000
2.000690653023678e-003	1.004664e+000	1.004664e+000
2.000709318881673e-003	1.001089e+000	1.001089e+000
2.000728248096671e-003	9.974518e-001	9.974518e-001
2.000750057319350e-003	9.932668e-001	9.932668e-001
2.000775871839107e-003	9.883393e-001	9.883393e-001
2.000806057489109e-003	9.826287e-001	9.826287e-001
2.000833071563346e-003	9.775856e-001	9.775856e-001
2.000866124303501e-003	9.715230e-001	9.715230e-001
2.000897980338532e-003	9.658380e-001	9.658380e-001
2.000945923496436e-003	9.577667e-001	9.577667e-001
2.001020977674281e-003	9.467114e-001	9.467114e-001
2.001100799550734e-003	9.379833e-001	9.379833e-001
2.001163887045064e-003	9.348941e-001	9.348941e-001
2.001230464962188e-003	9.361386e-001	9.361386e-001
2.001276123729625e-003	9.397159e-001	9.397159e-001
2.001320412497883e-003	9.452012e-001	9.452012e-001
2.001367808923370e-003	9.523024e-001	9.523024e-001
2.001415237010456e-003	9.599203e-001	9.599203e-001
2.001474527724004e-003	9.692918e-001	9.692918e-001
2.001535214998858e-003	9.780962e-001	9.780962e-001
2.001599504205900e-003	9.862145e-001	9.862145e-001
2.001668127208906e-003	9.935385e-001	9.935385e-001
2.001733336748072e-003	9.993013e-001	9.993013e-001
2.001812505912975e-003	1.004920e+000	1.004920e+000
2.001930126037233e-003	1.011398e+000	1.011398e+000
2.002055086606914e-003	1.016447e+000	1.016447e+000
2.002194516493165e-003	1.020252e+000	1.020252e+000
2.002364050066527e-003	1.023062e+000	1.023062e+000
2.002628095652313e-003	1.025383e+000	1.025383e+000
2.002910860530099e-003	1.026542e+000	1.026542e+000
2.003188460779725e-003	1.026982e+000	1.026982e+000
2.003525948679773e-003	1.027162e+000	1.027162e+000
2.004039709390488e-003	1.027233e+000	1.027233e+000
2.004874447978693e-003	1.027248e+000	1.027248e+000
2.005874447978694e-003	1.027242e+000	1.027242e+000
2.006874447978694e-003	1.027236e+000	1.027236e+000
2.007874447978694e-003	1.027231e+000	1.027231e+000
2.008874447978694e-003	1.027226e+000	1.027226e+000
2.009874447978694e-003	1.027222e+000	1.027222e+000
2.010874447978694e-003	1.027218e+000	1.027218e+000
2.011874447978694e-003	1.027215e+000	1.027215e+000
2.012874447978694e-003	1.027212e+000	1.027212e+000
2.013874447978694e-003	1.027210e+000	1.027210e+000
2.014874447978694e-003	1.027207e+000	1.027207e+000
2.015874447978694e-003	1.027205e+000	1.027205e+000
2.016874447978694e-003	1.027203e+000	1.027203e+000
2.017874447978693e-003	1.027202e+000	1.027202e+000
2.018874447978694e-003	1.027200e+000	1.027200e+000
2.019874447978694e-003	1.027199e+000	1.027199e+000
2.020874447978694e-003	1.027198e+000	1.027198e+000
2.021874447978694e-003	1.027197e+000	1.027197e+000
2.022874447978694e-003	1.027196e+000	1.027196e+000
2.023874447978694e-003	1.027195e+000	1.027195e+000
2.024874447978694e-003	1.027195e+000	1.027195e+000
2.025874447978694e-003	1.027194e+000	1.027194e+000
2.026874447978694e-003	1.027194e+000	1.027194e+000
2.027874447978694e-003	1.027193e+000	1.027193e+000
2.028874447978694e-003	1.027193e+000	1.027193e+000
2.029874447978694e-003	1.027193e+000	1.027193e+000
2.030874447978693e-003	1.027193e+000	1.027193e+000
2.031874447978694e-003	1.027193e+000	1.027193e+000
2.032874447978694e-003	1.027192e+000	1.027192e+000
2.033874447978694e-003	1.027192e+000	1.027192e+000
2.034874447978694e-003	1.027192e+000	1.027192e+000
2.035874447978694e-003	1.027192e+000	1.027192e+000
2.036874447978694e-003	1.027193e+000	1.027193e+000
2.037874447978694e-003	1.027193e+000	1.027193e+000
2.038874447978694e-003	1.027193e+000	1.027193e+000
2.039874447978694e-003	1.027193e+000	1.027193e+000
2.040874447978694e-003	1.027193e+000	1.027193e+000
2.041874447978694e-003	1.027193e+000	1.027193e+000
2.042874447978694e-003	1.027193e+000	1.027193e+000
2.043874447978694e-003	1.027193e+000	1.027193e+000
2.044874447978694e-003	1.027194e+000	1.027194e+000
2.045874447978694e-003	1.027194e+000	1.027194e+000
2.046874447978694e-003	1.027194e+000	1.027194e+000
2.047874447978694e-003	1.027194e+000	1.027194e+000
2.048874447978694e-003	1.027194e+000	1.027194e+000
2.049874447978694e-003	1.027195e+000	1.027195e+000
2.050874447978694e-003	1.027195e+000	1.027195e+000
2.051874447978694e-003	1.027195e+000	1.027195e+000
2.052874447978694e-003	1.027195e+000	1.027195e+000
2.053874447978693e-003	1.027196e+000	1.027196e+000
2.054874447978694e-003	1.027196e+000	1.027196e+000
2.055874447978694e-003	1.027196e+000	1.027196e+000
2.056874447978694e-003	1.027196e+000	1.027196e+000
2.057874447978694e-003	1.027197e+000	1.027197e+000
2.058874447978694e-003	1.027197e+000	1.027197e+000
2.059874447978694e-003	1.027197e+000	1.027197e+000
2.060874447978694e-003	1.027197e+000	1.027197e+000
2.061874447978694e-003	1.027197e+000	1.027197e+000
2.062874447978694e-003	1.027198e+000	1.027198e+000
2.063874447978694e-003	1.027198e+000	1.027198e+000
2.064874447978694e-003	1.027198e+000	1.027198e+000
2.065874447978694e-003	1.027198e+000	1.027198e+000
2.066874447978693e-003	1.027199e+000	1.027199e+000
2.067874447978694e-003	1.027199e+000	1.027199e+000
2.068874447978694e-003	1.027199e+000	1.027199e+000
2.069874447978694e-003	1.027199e+000	1.027199e+000
2.070874447978694e-003	1.027200e+000	1.027200e+000
2.071874447978694e-003	1.027200e+000	1.027200e+000
2.072874447978694e-003	1.027200e+000	1.027200e+000
2.073874447978694e-003	1.027200e+000	1.027200e+000
2.074874447978694e-003	1.027200e+000	1.027200e+000
2.075874447978694e-003	1.027201e+000	1.027201e+000
2.076874447978694e-003	1.027201e+000	1.027201e+000
2.077874447978694e-003	1.027201e+000	1.027201e+000
2.078874447978694e-003	1.027201e+000	1.027201e+000
2.079874447978693e-003	1.027201e+000	1.027201e+000
2.080874447978694e-003	1.027202e+000	1.027202e+000
2.081874447978694e-003	1.027202e+000	1.027202e+000
2.082874447978694e-003	1.027202e+000	1.027202e+000
2.083874447978694e-003	1.027202e+000	1.027202e+000
