time	V(vout)	-I(Rl)
0.000000000000000e+000	9.996057e+000	1.009602e-009
1.009638400021875e-003	9.996057e+000	1.009602e-009
2.000000000000000e-003	9.996057e+000	1.009602e-009
2.000000686880260e-003	9.476600e+000	6.144581e-001
2.000002060640779e-003	9.131221e+000	9.131221e-001
2.000002302497983e-003	9.144084e+000	9.144084e-001
2.000002450923062e-003	9.156242e+000	9.156242e-001
2.000002505948513e-003	9.156211e+000	9.156212e-001
2.000002578527382e-003	9.156446e+000	9.156446e-001
2.000002653676024e-003	9.156569e+000	9.156568e-001
2.000002803973308e-003	9.156687e+000	9.156687e-001
2.000002987947680e-003	9.156727e+000	9.156727e-001
2.000003298138574e-003	9.156739e+000	9.156739e-001
2.000003680461928e-003	9.156803e+000	9.156803e-001
2.000004445108637e-003	9.157180e+000	9.157180e-001
2.000005410672765e-003	9.158081e+000	9.158081e-001
2.000006392000132e-003	9.159519e+000	9.159520e-001
2.000007287558037e-003	9.161360e+000	9.161360e-001
2.000008311455897e-003	9.164101e+000	9.164100e-001
2.000009541694859e-003	9.168313e+000	9.168313e-001
2.000011944843910e-003	9.178454e+000	9.178454e-001
2.000014429707861e-003	9.190754e+000	9.190754e-001
2.000017948646255e-003	9.210088e+000	9.210088e-001
2.000021307510221e-003	9.229326e+000	9.229327e-001
2.000026349425369e-003	9.258197e+000	9.258197e-001
2.000031315802246e-003	9.285631e+000	9.285632e-001
2.000036695210386e-003	9.313633e+000	9.313633e-001
2.000041923910397e-003	9.338838e+000	9.338838e-001
2.000047885530029e-003	9.365071e+000	9.365070e-001
2.000054072695041e-003	9.389696e+000	9.389696e-001
2.000059734042832e-003	9.409842e+000	9.409842e-001
2.000066061168637e-003	9.429777e+000	9.429777e-001
2.000072878593806e-003	9.448562e+000	9.448562e-001
2.000080613068180e-003	9.466734e+000	9.466734e-001
2.000090395749087e-003	9.485720e+000	9.485720e-001
2.000102464102141e-003	9.504467e+000	9.504468e-001
2.000116014766375e-003	9.520898e+000	9.520898e-001
2.000133095994951e-003	9.537557e+000	9.537556e-001
2.000146551753705e-003	9.549406e+000	9.549406e-001
2.000156946582826e-003	9.559389e+000	9.559389e-001
2.000169230296561e-003	9.574739e+000	9.574739e-001
2.000180544368333e-003	9.595577e+000	9.595578e-001
2.000193127065563e-003	9.631497e+000	9.631498e-001
2.000207649160935e-003	9.693288e+000	9.693288e-001
2.000222760008870e-003	9.783156e+000	9.783157e-001
2.000241363062135e-003	9.922928e+000	9.922928e-001
2.000254331704868e-003	1.003466e+001	1.003466e+000
2.000260592655655e-003	1.009227e+001	1.009227e+000
2.000264002691014e-003	1.012420e+001	1.012420e+000
2.000266485098621e-003	1.014750e+001	1.014750e+000
2.000269125077296e-003	1.017224e+001	1.017224e+000
2.000271685728145e-003	1.019617e+001	1.019617e+000
2.000274419837552e-003	1.022159e+001	1.022159e+000
2.000276485283488e-003	1.024069e+001	1.024069e+000
2.000278412167540e-003	1.025838e+001	1.025838e+000
2.000280420204505e-003	1.027667e+001	1.027667e+000
2.000283092939398e-003	1.030074e+001	1.030074e+000
2.000286533525065e-003	1.033128e+001	1.033128e+000
2.000290332762118e-003	1.036428e+001	1.036428e+000
2.000295566841101e-003	1.040861e+001	1.040861e+000
2.000299652694021e-003	1.044223e+001	1.044223e+000
2.000304030474944e-003	1.047718e+001	1.047718e+000
2.000306714252575e-003	1.049799e+001	1.049799e+000
2.000309649820144e-003	1.052006e+001	1.052006e+000
2.000312742478911e-003	1.054257e+001	1.054257e+000
2.000316731631352e-003	1.057067e+001	1.057067e+000
2.000318694505997e-003	1.058407e+001	1.058407e+000
2.000320574687963e-003	1.059651e+001	1.059651e+000
2.000323051991652e-003	1.061245e+001	1.061245e+000
2.000325452205194e-003	1.062741e+001	1.062741e+000
2.000328436625460e-003	1.064530e+001	1.064530e+000
2.000331736893653e-003	1.066406e+001	1.066406e+000
2.000337204215285e-003	1.069337e+001	1.069337e+000
2.000340313102820e-003	1.070903e+001	1.070903e+000
2.000343078913884e-003	1.072209e+001	1.072209e+000
2.000345812853426e-003	1.073424e+001	1.073424e+000
2.000349396858037e-003	1.074887e+001	1.074887e+000
2.000356564867259e-003	1.077447e+001	1.077447e+000
2.000365755357724e-003	1.080131e+001	1.080132e+000
2.000375286132990e-003	1.082103e+001	1.082103e+000
2.000389378722854e-003	1.083557e+001	1.083557e+000
2.000410210963516e-003	1.083599e+001	1.083599e+000
2.000428724314930e-003	1.082221e+001	1.082221e+000
2.000442882193621e-003	1.080644e+001	1.080644e+000
2.000456612502146e-003	1.079080e+001	1.079080e+000
2.000470105984287e-003	1.077646e+001	1.077646e+000
2.000487935610182e-003	1.075851e+001	1.075851e+000
2.000504770588602e-003	1.074207e+001	1.074207e+000
2.000523493547061e-003	1.072418e+001	1.072418e+000
2.000540955766499e-003	1.070783e+001	1.070783e+000
2.000560854922613e-003	1.068956e+001	1.068956e+000
2.000581638562923e-003	1.067087e+001	1.067087e+000
2.000601924511980e-003	1.065305e+001	1.065305e+000
2.000624255605682e-003	1.063457e+001	1.063457e+000
2.000645790368409e-003	1.061900e+001	1.061900e+000
2.000665323037798e-003	1.060638e+001	1.060638e+000
2.000686023113194e-003	1.059246e+001	1.059246e+000
2.000710180947460e-003	1.057476e+001	1.057476e+000
2.000735730540040e-003	1.055523e+001	1.055523e+000
2.000764443638367e-003	1.053307e+001	1.053307e+000
2.000796780223126e-003	1.050840e+001	1.050840e+000
2.000832312011390e-003	1.048190e+001	1.048190e+000
2.000872405881878e-003	1.045283e+001	1.045283e+000
2.000914284026570e-003	1.042352e+001	1.042352e+000
2.000978888040716e-003	1.038008e+001	1.038008e+000
2.001042933533591e-003	1.033889e+001	1.033889e+000
2.001110370435201e-003	1.029770e+001	1.029770e+000
2.001203483111162e-003	1.024433e+001	1.024433e+000
2.001354276215595e-003	1.016345e+001	1.016345e+000
2.001450180288870e-003	1.011529e+001	1.011529e+000
2.001529916108584e-003	1.007765e+001	1.007765e+000
2.001599941066859e-003	1.004608e+001	1.004608e+000
2.001657654009492e-003	1.002107e+001	1.002107e+000
2.001717688231579e-003	9.995919e+000	9.995919e-001
2.001777310991275e-003	9.971654e+000	9.971654e-001
2.001829032944214e-003	9.951133e+000	9.951133e-001
2.001879968922439e-003	9.931389e+000	9.931389e-001
2.001933173778571e-003	9.911179e+000	9.911178e-001
2.001963974649681e-003	9.899691e+000	9.899690e-001
2.001993451062800e-003	9.888883e+000	9.888882e-001
2.002030320941440e-003	9.875571e+000	9.875572e-001
2.002069443042508e-003	9.861671e+000	9.861672e-001
2.002104676357982e-003	9.849364e+000	9.849365e-001
2.002144775109186e-003	9.835599e+000	9.835598e-001
2.002186358655947e-003	9.821587e+000	9.821586e-001
2.002239368881555e-003	9.804084e+000	9.804084e-001
2.002291922832757e-003	9.787154e+000	9.787154e-001
2.002366753876433e-003	9.763788e+000	9.763789e-001
2.002440189901440e-003	9.742123e+000	9.742123e-001
2.002538780897575e-003	9.715949e+000	9.715950e-001
2.002599004694590e-003	9.703204e+000	9.703205e-001
2.002649133766037e-003	9.697067e+000	9.697067e-001
2.002711363200349e-003	9.695510e+000	9.695510e-001
2.002749444258598e-003	9.697971e+000	9.697972e-001
2.002781525313076e-003	9.702357e+000	9.702358e-001
2.002817287101294e-003	9.708783e+000	9.708782e-001
2.002850611422718e-003	9.715614e+000	9.715614e-001
2.002891328156196e-003	9.724409e+000	9.724409e-001
2.002938681880850e-003	9.734572e+000	9.734572e-001
2.002986558896594e-003	9.744418e+000	9.744418e-001
2.003038886761400e-003	9.754564e+000	9.754565e-001
2.003094846907808e-003	9.764862e+000	9.764863e-001
2.003150728320231e-003	9.774815e+000	9.774815e-001
2.003217577131380e-003	9.786612e+000	9.786611e-001
2.003319956679276e-003	9.804812e+000	9.804812e-001
2.003429739927351e-003	9.824540e+000	9.824540e-001
2.003539339134573e-003	9.844309e+000	9.844308e-001
2.003681780917230e-003	9.869860e+000	9.869860e-001
2.003789579423075e-003	9.888930e+000	9.888930e-001
2.003892134208477e-003	9.906613e+000	9.906614e-001
2.003997325603428e-003	9.923906e+000	9.923907e-001
2.004106985506629e-003	9.940322e+000	9.940321e-001
2.004235160925337e-003	9.956655e+000	9.956655e-001
2.004356441319574e-003	9.968775e+000	9.968775e-001
2.004469545207779e-003	9.976965e+000	9.976965e-001
2.004579460639241e-003	9.982472e+000	9.982473e-001
2.004701540526874e-003	9.986593e+000	9.986593e-001
2.004857040449108e-003	9.990031e+000	9.990031e-001
2.005029545647663e-003	9.992424e+000	9.992424e-001
2.005189292321620e-003	9.993687e+000	9.993687e-001
2.005435658027987e-003	9.994669e+000	9.994669e-001
2.005764733636798e-003	9.995263e+000	9.995263e-001
2.006135434451978e-003	9.995498e+000	9.995497e-001
2.006580162524677e-003	9.995566e+000	9.995567e-001
2.007469618670075e-003	9.995585e+000	9.995585e-001
2.008469618670075e-003	9.995583e+000	9.995582e-001
2.009469618670075e-003	9.995578e+000	9.995577e-001
2.010469618670075e-003	9.995573e+000	9.995573e-001
2.011469618670075e-003	9.995569e+000	9.995569e-001
2.012469618670075e-003	9.995565e+000	9.995565e-001
2.013469618670075e-003	9.995562e+000	9.995561e-001
2.014469618670075e-003	9.995558e+000	9.995557e-001
2.015469618670075e-003	9.995554e+000	9.995553e-001
2.016469618670075e-003	9.995550e+000	9.995551e-001
2.017469618670075e-003	9.995546e+000	9.995547e-001
2.018469618670075e-003	9.995543e+000	9.995543e-001
2.019469618670075e-003	9.995540e+000	9.995540e-001
2.020469618670075e-003	9.995537e+000	9.995537e-001
2.021469618670075e-003	9.995534e+000	9.995534e-001
2.022469618670075e-003	9.995530e+000	9.995531e-001
2.023469618670075e-003	9.995527e+000	9.995527e-001
2.024469618670075e-003	9.995524e+000	9.995525e-001
2.025469618670075e-003	9.995522e+000	9.995521e-001
2.026469618670075e-003	9.995518e+000	9.995518e-001
2.027469618670075e-003	9.995516e+000	9.995515e-001
2.028469618670075e-003	9.995512e+000	9.995513e-001
2.029469618670075e-003	9.995510e+000	9.995510e-001
2.030469618670075e-003	9.995506e+000	9.995507e-001
2.031469618670075e-003	9.995504e+000	9.995504e-001
2.032469618670075e-003	9.995502e+000	9.995502e-001
2.033469618670075e-003	9.995499e+000	9.995499e-001
2.034469618670075e-003	9.995497e+000	9.995496e-001
2.035469618670075e-003	9.995493e+000	9.995493e-001
2.036469618670075e-003	9.995491e+000	9.995491e-001
2.037469618670075e-003	9.995488e+000	9.995488e-001
2.038469618670075e-003	9.995485e+000	9.995486e-001
2.039469618670075e-003	9.995483e+000	9.995483e-001
2.040469618670075e-003	9.995481e+000	9.995481e-001
2.041469618670075e-003	9.995478e+000	9.995478e-001
2.042469618670075e-003	9.995476e+000	9.995475e-001
2.043469618670075e-003	9.995473e+000	9.995472e-001
2.044469618670075e-003	9.995470e+000	9.995470e-001
2.045469618670075e-003	9.995468e+000	9.995468e-001
2.046469618670075e-003	9.995465e+000	9.995465e-001
2.047469618670075e-003	9.995462e+000	9.995463e-001
2.048469618670075e-003	9.995461e+000	9.995461e-001
2.049469618670075e-003	9.995458e+000	9.995458e-001
2.050469618670075e-003	9.995455e+000	9.995456e-001
2.051469618670075e-003	9.995453e+000	9.995453e-001
2.052469618670075e-003	9.995450e+000	9.995451e-001
2.053469618670075e-003	9.995448e+000	9.995448e-001
2.054469618670075e-003	9.995445e+000	9.995446e-001
2.055469618670075e-003	9.995443e+000	9.995443e-001
2.056469618670075e-003	9.995440e+000	9.995441e-001
2.057469618670075e-003	9.995439e+000	9.995438e-001
2.058469618670075e-003	9.995436e+000	9.995436e-001
2.059469618670075e-003	9.995434e+000	9.995434e-001
2.060469618670075e-003	9.995431e+000	9.995431e-001
2.061469618670075e-003	9.995429e+000	9.995429e-001
2.062469618670075e-003	9.995426e+000	9.995427e-001
2.063469618670075e-003	9.995424e+000	9.995425e-001
2.064469618670075e-003	9.995422e+000	9.995422e-001
2.065469618670075e-003	9.995420e+000	9.995420e-001
2.066469618670075e-003	9.995418e+000	9.995418e-001
2.067469618670075e-003	9.995415e+000	9.995415e-001
2.068469618670075e-003	9.995413e+000	9.995413e-001
2.069469618670075e-003	9.995411e+000	9.995410e-001
2.070469618670075e-003	9.995408e+000	9.995408e-001
2.071469618670075e-003	9.995406e+000	9.995406e-001
2.072469618670075e-003	9.995403e+000	9.995404e-001
2.073469618670075e-003	9.995401e+000	9.995402e-001
2.074469618670075e-003	9.995399e+000	9.995399e-001
2.075469618670075e-003	9.995398e+000	9.995397e-001
2.076469618670075e-003	9.995395e+000	9.995395e-001
2.077469618670075e-003	9.995393e+000	9.995393e-001
2.078469618670075e-003	9.995390e+000	9.995390e-001
2.079469618670075e-003	9.995388e+000	9.995388e-001
2.081469618670075e-003	9.995384e+000	9.995384e-001
2.082469618670075e-003	9.995381e+000	9.995382e-001
2.083469618670075e-003	9.995379e+000	9.995379e-001
2.084469618670075e-003	9.995377e+000	9.995377e-001
2.085469618670075e-003	9.995375e+000	9.995375e-001
2.086469618670075e-003	9.995373e+000	9.995373e-001
2.087469618670075e-003	9.995371e+000	9.995371e-001
2.088469618670075e-003	9.995369e+000	9.995369e-001
2.089469618670075e-003	9.995366e+000	9.995366e-001
2.090469618670075e-003	9.995364e+000	9.995364e-001
2.091469618670075e-003	9.995361e+000	9.995362e-001
2.092469618670075e-003	9.995359e+000	9.995360e-001
2.093469618670075e-003	9.995358e+000	9.995357e-001
2.094469618670075e-003	9.995356e+000	9.995356e-001
2.095469618670075e-003	9.995354e+000	9.995353e-001
2.096469618670075e-003	9.995352e+000	9.995351e-001
2.097469618670075e-003	9.995350e+000	9.995349e-001
2.098469618670075e-003	9.995347e+000	9.995347e-001
2.099469618670075e-003	9.995345e+000	9.995345e-001
2.100469618670075e-003	9.995342e+000	9.995343e-001
2.101469618670075e-003	9.995340e+000	9.995341e-001
2.102469618670075e-003	9.995338e+000	9.995339e-001
2.103469618670075e-003	9.995337e+000	9.995337e-001
2.104469618670075e-003	9.995335e+000	9.995335e-001
2.105469618670075e-003	9.995333e+000	9.995332e-001
2.106469618670075e-003	9.995331e+000	9.995331e-001
2.107469618670075e-003	9.995329e+000	9.995328e-001
2.108469618670075e-003	9.995327e+000	9.995326e-001
2.109469618670075e-003	9.995325e+000	9.995325e-001
2.110469618670075e-003	9.995323e+000	9.995322e-001
2.111469618670075e-003	9.995321e+000	9.995320e-001
2.112469618670075e-003	9.995318e+000	9.995319e-001
2.113469618670075e-003	9.995317e+000	9.995316e-001
2.114469618670075e-003	9.995314e+000	9.995314e-001
2.115469618670075e-003	9.995312e+000	9.995313e-001
2.116469618670075e-003	9.995310e+000	9.995310e-001
2.117469618670075e-003	9.995308e+000	9.995309e-001
2.118469618670075e-003	9.995306e+000	9.995307e-001
2.119469618670075e-003	9.995304e+000	9.995304e-001
2.120469618670075e-003	9.995302e+000	9.995303e-001
2.121469618670075e-003	9.995300e+000	9.995301e-001
2.122469618670075e-003	9.995298e+000	9.995298e-001
2.123469618670075e-003	9.995296e+000	9.995297e-001
2.124469618670075e-003	9.995295e+000	9.995295e-001
2.125469618670075e-003	9.995293e+000	9.995292e-001
2.126469618670075e-003	9.995291e+000	9.995291e-001
2.127469618670075e-003	9.995289e+000	9.995289e-001
2.128469618670075e-003	9.995287e+000	9.995287e-001
2.129469618670075e-003	9.995285e+000	9.995285e-001
2.130469618670075e-003	9.995283e+000	9.995283e-001
2.131469618670075e-003	9.995281e+000	9.995282e-001
2.132469618670075e-003	9.995279e+000	9.995279e-001
2.133469618670075e-003	9.995277e+000	9.995278e-001
2.134469618670075e-003	9.995275e+000	9.995276e-001
2.135469618670075e-003	9.995274e+000	9.995273e-001
2.136469618670075e-003	9.995272e+000	9.995272e-001
2.137469618670075e-003	9.995270e+000	9.995270e-001
2.138469618670075e-003	9.995268e+000	9.995269e-001
2.139469618670075e-003	9.995266e+000	9.995266e-001
2.140469618670075e-003	9.995264e+000	9.995265e-001
2.141469618670075e-003	9.995262e+000	9.995263e-001
2.142469618670075e-003	9.995260e+000	9.995261e-001
2.143469618670075e-003	9.995258e+000	9.995259e-001
2.144469618670075e-003	9.995256e+000	9.995257e-001
2.145469618670075e-003	9.995255e+000	9.995255e-001
2.146469618670075e-003	9.995254e+000	9.995253e-001
2.147469618670075e-003	9.995252e+000	9.995252e-001
2.148469618670075e-003	9.995250e+000	9.995250e-001
2.149469618670075e-003	9.995249e+000	9.995248e-001
2.150469618670075e-003	9.995247e+000	9.995246e-001
2.151469618670075e-003	9.995245e+000	9.995245e-001
2.152469618670075e-003	9.995243e+000	9.995242e-001
2.154469618670075e-003	9.995239e+000	9.995239e-001
2.155469618670075e-003	9.995237e+000	9.995238e-001
2.156469618670075e-003	9.995235e+000	9.995235e-001
2.157469618670075e-003	9.995234e+000	9.995234e-001
2.158469618670075e-003	9.995232e+000	9.995232e-001
2.159469618670075e-003	9.995230e+000	9.995230e-001
2.160469618670075e-003	9.995228e+000	9.995228e-001
2.161469618670075e-003	9.995227e+000	9.995227e-001
2.162469618670075e-003	9.995225e+000	9.995225e-001
2.163469618670075e-003	9.995224e+000	9.995223e-001
2.164469618670075e-003	9.995222e+000	9.995221e-001
2.166469618670075e-003	9.995218e+000	9.995219e-001
2.167469618670075e-003	9.995216e+000	9.995216e-001
2.168469618670075e-003	9.995214e+000	9.995215e-001
2.169469618670075e-003	9.995213e+000	9.995213e-001
2.170469618670075e-003	9.995211e+000	9.995211e-001
2.171469618670075e-003	9.995210e+000	9.995209e-001
2.172469618670075e-003	9.995208e+000	9.995208e-001
2.173469618670075e-003	9.995207e+000	9.995206e-001
2.174469618670075e-003	9.995205e+000	9.995204e-001
2.175469618670075e-003	9.995203e+000	9.995203e-001
2.176469618670075e-003	9.995201e+000	9.995201e-001
2.178469618670075e-003	9.995197e+000	9.995198e-001
2.179469618670075e-003	9.995196e+000	9.995196e-001
2.180469618670075e-003	9.995194e+000	9.995195e-001
2.181469618670075e-003	9.995193e+000	9.995192e-001
2.182469618670075e-003	9.995192e+000	9.995191e-001
2.183469618670075e-003	9.995190e+000	9.995189e-001
2.184469618670075e-003	9.995188e+000	9.995188e-001
2.185469618670075e-003	9.995186e+000	9.995186e-001
2.186469618670075e-003	9.995184e+000	9.995185e-001
2.187469618670075e-003	9.995183e+000	9.995183e-001
2.188469618670075e-003	9.995181e+000	9.995182e-001
2.190469618670075e-003	9.995178e+000	9.995178e-001
2.191469618670075e-003	9.995176e+000	9.995176e-001
2.192469618670075e-003	9.995174e+000	9.995174e-001
2.193469618670075e-003	9.995173e+000	9.995173e-001
2.194469618670075e-003	9.995172e+000	9.995171e-001
2.195469618670075e-003	9.995171e+000	9.995170e-001
2.196469618670075e-003	9.995169e+000	9.995168e-001
2.197469618670075e-003	9.995167e+000	9.995167e-001
2.198469618670075e-003	9.995165e+000	9.995165e-001
2.199469618670075e-003	9.995164e+000	9.995164e-001
2.200469618670075e-003	9.995162e+000	9.995162e-001
2.201469618670075e-003	9.995161e+000	9.995160e-001
2.202469618670075e-003	9.995159e+000	9.995159e-001
2.203469618670075e-003	9.995157e+000	9.995157e-001
2.204469618670075e-003	9.995155e+000	9.995156e-001
2.205469618670075e-003	9.995154e+000	9.995154e-001
2.206469618670075e-003	9.995152e+000	9.995153e-001
2.207469618670075e-003	9.995152e+000	9.995151e-001
2.208469618670075e-003	9.995150e+000	9.995149e-001
2.209469618670075e-003	9.995148e+000	9.995148e-001
2.210469618670075e-003	9.995146e+000	9.995146e-001
2.211469618670075e-003	9.995145e+000	9.995145e-001
2.212469618670075e-003	9.995143e+000	9.995143e-001
2.213469618670075e-003	9.995142e+000	9.995142e-001
2.215469618670075e-003	9.995139e+000	9.995139e-001
2.216469618670075e-003	9.995137e+000	9.995137e-001
2.217469618670075e-003	9.995136e+000	9.995136e-001
2.218469618670075e-003	9.995134e+000	9.995134e-001
2.219469618670075e-003	9.995133e+000	9.995133e-001
2.220469618670075e-003	9.995131e+000	9.995131e-001
2.221469618670075e-003	9.995131e+000	9.995130e-001
2.222469618670075e-003	9.995129e+000	9.995129e-001
2.223469618670075e-003	9.995127e+000	9.995127e-001
2.224469618670075e-003	9.995125e+000	9.995126e-001
2.225469618670075e-003	9.995124e+000	9.995124e-001
2.227469618670075e-003	9.995121e+000	9.995121e-001
2.228469618670075e-003	9.995119e+000	9.995120e-001
2.229469618670075e-003	9.995118e+000	9.995118e-001
2.230469618670075e-003	9.995116e+000	9.995117e-001
2.231469618670075e-003	9.995115e+000	9.995115e-001
2.232469618670075e-003	9.995113e+000	9.995114e-001
2.233469618670075e-003	9.995112e+000	9.995112e-001
2.234469618670075e-003	9.995111e+000	9.995111e-001
2.235469618670075e-003	9.995110e+000	9.995109e-001
2.236469618670075e-003	9.995108e+000	9.995108e-001
2.237469618670075e-003	9.995107e+000	9.995106e-001
2.239469618670075e-003	9.995104e+000	9.995103e-001
2.240469618670075e-003	9.995102e+000	9.995102e-001
2.241469618670075e-003	9.995101e+000	9.995100e-001
