time	V(vout)	-I(Rl)
0.000000000000000e+000	9.996057e+000	-0.000000e+000
2.938697943495211e-009	9.996057e+000	-0.000000e+000
6.796093830565551e-009	9.996057e+000	-0.000000e+000
2.994046915298759e-008	9.996057e+000	-0.000000e+000
3.076729730220521e-007	9.996057e+000	-0.000000e+000
5.854054768911166e-007	9.996057e+000	-0.000000e+000
8.631379807601811e-007	9.996057e+000	-0.000000e+000
1.140870484629246e-006	9.996057e+000	-0.000000e+000
1.418602988498310e-006	9.996057e+000	-0.000000e+000
1.696335492367375e-006	9.996057e+000	-0.000000e+000
1.974067996236439e-006	9.996057e+000	-0.000000e+000
2.468835371052216e-005	9.996057e+000	-0.000000e+000
4.740263942480789e-005	9.996057e+000	-0.000000e+000
7.011692513909361e-005	9.996057e+000	-0.000000e+000
9.283121085337933e-005	9.996057e+000	-0.000000e+000
1.155454965676651e-004	9.996057e+000	-0.000000e+000
1.382597822819508e-004	9.996057e+000	-0.000000e+000
1.609740679962364e-004	9.996057e+000	-0.000000e+000
1.012974067996237e-003	9.996057e+000	-0.000000e+000
1.997974067996236e-003	9.996057e+000	-0.000000e+000
1.999000000000000e-003	9.996057e+000	-0.000000e+000
1.999051864007527e-003	9.996057e+000	-0.000000e+000
1.999363048052690e-003	9.996057e+000	-0.000000e+000
2.000000000000000e-003	9.996057e+000	-0.000000e+000
2.000000081037512e-003	1.944759e-002	2.269309e+001
2.000000081354065e-003	4.547109e-009	2.273555e+001
2.000001081354065e-003	3.025989e-009	1.512995e+001
2.000002081354064e-003	2.421493e-009	1.210746e+001
2.000003081354065e-003	2.308384e-009	1.154192e+001
2.000004081354065e-003	2.246110e-009	1.123055e+001
2.000005081354065e-003	2.213813e-009	1.106907e+001
2.000006081354065e-003	2.201096e-009	1.100548e+001
2.000007081354064e-003	2.200909e-009	1.100455e+001
2.000008081354065e-003	2.208326e-009	1.104163e+001
2.000009325753054e-003	2.223447e-009	1.111724e+001
2.000010689248033e-003	2.245194e-009	1.122597e+001
2.000012159960759e-003	2.272084e-009	1.136042e+001
2.000014281120538e-003	2.311172e-009	1.155586e+001
2.000015707551784e-003	2.334652e-009	1.167326e+001
2.000016310687742e-003	2.342579e-009	1.171290e+001
2.000016695015498e-003	2.346871e-009	1.173436e+001
2.000017156090992e-003	2.351622e-009	1.175811e+001
2.000017518265187e-003	2.355047e-009	1.177524e+001
2.000017853440897e-003	2.357991e-009	1.178995e+001
2.000018194272083e-003	2.360769e-009	1.180384e+001
2.000018537968874e-003	2.363392e-009	1.181696e+001
2.000018919147543e-003	2.366089e-009	1.183045e+001
2.000019357044490e-003	2.368960e-009	1.184480e+001
2.000019897023442e-003	2.372192e-009	1.186096e+001
2.000020555231870e-003	2.375731e-009	1.187865e+001
2.000021531543161e-003	2.380357e-009	1.190179e+001
2.000022590061228e-003	2.384668e-009	1.192334e+001
2.000024269421256e-003	2.390400e-009	1.195200e+001
2.000026034258569e-003	2.395416e-009	1.197708e+001
2.000027319220932e-003	2.398211e-009	1.199105e+001
2.000028188888619e-003	2.399362e-009	1.199681e+001
2.000029131931714e-003	2.400017e-009	1.200009e+001
2.000030104364544e-003	2.400496e-009	1.200248e+001
2.000031347944279e-003	2.401082e-009	1.200541e+001
2.000032714151955e-003	2.401800e-009	1.200900e+001
2.000034991529757e-003	2.403168e-009	1.201584e+001
2.000037292265153e-003	2.404726e-009	1.202363e+001
2.000040533920302e-003	2.407132e-009	1.203566e+001
2.000044384807667e-003	2.410174e-009	1.205087e+001
2.000048966655330e-003	2.414120e-009	1.207060e+001
2.000055917736895e-003	2.421175e-009	1.210587e+001
2.000061809543637e-003	2.429345e-009	1.214672e+001
2.000068166745387e-003	2.442973e-009	1.221487e+001
2.000075782789001e-003	2.468331e-009	1.234165e+001
2.000083438408558e-003	2.506560e-009	1.253280e+001
2.000092856103560e-003	2.570549e-009	1.285274e+001
2.000099602497207e-003	2.626789e-009	1.313395e+001
2.000102719691306e-003	2.656614e-009	1.328307e+001
2.000105592264016e-003	2.686469e-009	1.343235e+001
2.000108938574839e-003	2.722955e-009	1.361477e+001
2.000112671193671e-003	2.764098e-009	1.382049e+001
2.000117705941870e-003	2.814595e-009	1.407297e+001
2.000121456221871e-003	2.837281e-009	1.418641e+001
2.000123581999749e-003	2.829355e-009	1.414677e+001
2.000124877889756e-003	2.808372e-009	1.404186e+001
2.000125923976543e-003	2.787771e-009	1.393886e+001
2.000127020237461e-003	2.774719e-009	1.387360e+001
2.000127945947385e-003	2.774050e-009	1.387025e+001
2.000128589000910e-003	2.780300e-009	1.390150e+001
2.000129198415371e-003	2.789862e-009	1.394931e+001
2.000129687336198e-003	2.798228e-009	1.399114e+001
2.000130118731170e-003	2.805810e-009	1.402905e+001
2.000130621656904e-003	2.814720e-009	1.407360e+001
2.000131029220174e-003	2.821725e-009	1.410862e+001
2.000131379911289e-003	2.827415e-009	1.413708e+001
2.000131755820621e-003	2.833335e-009	1.416668e+001
2.000131980459041e-003	2.836916e-009	1.418458e+001
2.000132271116434e-003	2.841733e-009	1.420867e+001
2.000132551244674e-003	2.846543e-009	1.423272e+001
2.000132869085722e-003	2.852035e-009	1.426017e+001
2.000133261670374e-003	2.858812e-009	1.429406e+001
2.000133814950739e-003	2.868390e-009	1.434195e+001
2.000134701515870e-003	2.883841e-009	1.441920e+001
2.000135644757374e-003	2.900501e-009	1.450251e+001
2.000137531240382e-003	2.934488e-009	1.467244e+001
2.000139626992110e-003	2.973332e-009	1.486666e+001
2.000142894142013e-003	3.036095e-009	1.518047e+001
2.000146206577468e-003	3.102429e-009	1.551215e+001
2.000149864645791e-003	3.179593e-009	1.589797e+001
2.000155855276593e-003	3.313745e-009	1.656873e+001
2.000162754523203e-003	3.482667e-009	1.741333e+001
2.000176553016423e-003	3.867764e-009	1.933882e+001
2.000198049200071e-003	4.551092e-009	2.275546e+001
2.000209936743190e-003	4.978187e-009	2.489093e+001
2.000221206154196e-003	5.426557e-009	2.713278e+001
2.000234415622111e-003	5.986359e-009	2.993179e+001
2.000242073004451e-003	6.325503e-009	3.162751e+001
2.000249209175271e-003	6.651228e-009	3.325614e+001
2.000257759754602e-003	7.047529e-009	3.523765e+001
2.000265776756637e-003	7.420499e-009	3.710250e+001
2.000277873313071e-003	7.973553e-009	3.986777e+001
2.000295006981277e-003	8.718425e-009	4.359213e+001
2.000311679773449e-003	9.375910e-009	4.687955e+001
2.000327590558363e-003	9.927041e-009	4.963520e+001
2.000334270469173e-003	1.012853e-008	5.064264e+001
2.000337632554109e-003	1.021809e-008	5.109045e+001
2.000339104787454e-003	1.025433e-008	5.127164e+001
2.000340339429380e-003	1.028373e-008	5.141866e+001
2.000341007462333e-003	1.029957e-008	5.149783e+001
2.000341959374373e-003	1.032193e-008	5.160964e+001
2.000343358290849e-003	1.035423e-008	5.177118e+001
2.000344881740938e-003	1.038840e-008	5.194198e+001
2.000347928641116e-003	1.045393e-008	5.226963e+001
2.000351085088705e-003	1.051745e-008	5.258726e+001
2.000357397983884e-003	1.063330e-008	5.316652e+001
2.000363545254463e-003	1.073198e-008	5.365990e+001
2.000373985144524e-003	1.087101e-008	5.435503e+001
2.000384786626436e-003	1.097925e-008	5.489624e+001
2.000406389590260e-003	1.112074e-008	5.560368e+001
2.000426267588283e-003	1.119235e-008	5.596174e+001
2.000444200480724e-003	1.121352e-008	5.606762e+001
2.000461977424783e-003	1.120581e-008	5.602908e+001
2.000482619496111e-003	1.117341e-008	5.586706e+001
2.000502834710412e-003	1.112431e-008	5.562155e+001
2.000521885737906e-003	1.106579e-008	5.532894e+001
2.000533279707096e-003	1.102527e-008	5.512636e+001
2.000545392512195e-003	1.097753e-008	5.488765e+001
2.000556922317242e-003	1.092808e-008	5.464038e+001
2.000571790970188e-003	1.085858e-008	5.429288e+001
2.000586892560708e-003	1.078106e-008	5.390529e+001
2.000605560663152e-003	1.067466e-008	5.337332e+001
2.000625879394643e-003	1.054461e-008	5.272306e+001
2.000649110335793e-003	1.037752e-008	5.188762e+001
2.000666845203327e-003	1.023482e-008	5.117410e+001
2.000686424243208e-003	1.006047e-008	5.030235e+001
2.000707354352586e-003	9.857561e-009	4.928780e+001
2.000733424499590e-003	9.586760e-009	4.793380e+001
2.000764856850239e-003	9.245682e-009	4.622841e+001
2.000811845956812e-003	8.730018e-009	4.365009e+001
2.000864326530157e-003	8.167237e-009	4.083619e+001
2.000927592763468e-003	7.518020e-009	3.759010e+001
2.000984862645039e-003	6.959167e-009	3.479583e+001
2.001046135242617e-003	6.388704e-009	3.194352e+001
2.001116288913625e-003	5.762063e-009	2.881032e+001
2.001189487225831e-003	5.142790e-009	2.571395e+001
2.001245264243232e-003	4.717521e-009	2.358761e+001
2.001289484011838e-003	4.430986e-009	2.215493e+001
2.001326614885983e-003	4.229971e-009	2.114986e+001
2.001366741784687e-003	4.045009e-009	2.022504e+001
2.001409676686311e-003	3.873065e-009	1.936532e+001
2.001448782263570e-003	3.736426e-009	1.868213e+001
2.001496806386807e-003	3.590328e-009	1.795164e+001
2.001557591270400e-003	3.428514e-009	1.714257e+001
2.001609969973766e-003	3.305198e-009	1.652599e+001
2.001640089555577e-003	3.241499e-009	1.620750e+001
2.001657271363791e-003	3.207887e-009	1.603943e+001
2.001676049958601e-003	3.172548e-009	1.586274e+001
2.001694347033898e-003	3.138967e-009	1.569484e+001
2.001714154714602e-003	3.103881e-009	1.551940e+001
2.001743626699042e-003	3.053900e-009	1.526950e+001
2.001774933892459e-003	3.004029e-009	1.502015e+001
2.001837548279295e-003	2.911764e-009	1.455882e+001
2.001897065807348e-003	2.831599e-009	1.415799e+001
2.001967417611132e-003	2.746206e-009	1.373103e+001
2.002049081411772e-003	2.657324e-009	1.328662e+001
2.002153580937005e-003	2.556135e-009	1.278067e+001
2.002265196748259e-003	2.459239e-009	1.229620e+001
2.002334517765274e-003	2.404103e-009	1.202051e+001
2.002358919866831e-003	2.385846e-009	1.192923e+001
2.002384015112584e-003	2.367766e-009	1.183883e+001
2.002416618638756e-003	2.344878e-009	1.172439e+001
2.002443343236792e-003	2.326633e-009	1.163317e+001
2.002480024486344e-003	2.302356e-009	1.151178e+001
2.002521370558999e-003	2.275882e-009	1.137941e+001
2.002568414538843e-003	2.246737e-009	1.123369e+001
2.002594649842313e-003	2.231015e-009	1.115508e+001
2.002621672203736e-003	2.215428e-009	1.107714e+001
2.002636365776655e-003	2.207483e-009	1.103742e+001
2.002644729552762e-003	2.203266e-009	1.101633e+001
2.002652753975033e-003	2.199247e-009	1.099624e+001
2.002661357829645e-003	2.194769e-009	1.097385e+001
2.002669285438724e-003	2.190444e-009	1.095222e+001
2.002685140656883e-003	2.181447e-009	1.090724e+001
2.002699873461291e-003	2.172890e-009	1.086445e+001
2.002719774163072e-003	2.161249e-009	1.080624e+001
2.002738493760218e-003	2.150423e-009	1.075212e+001
2.002759795275489e-003	2.138379e-009	1.069190e+001
2.002781089932412e-003	2.126702e-009	1.063351e+001
2.002812246483222e-003	2.110179e-009	1.055089e+001
2.002841397197700e-003	2.095198e-009	1.047599e+001
2.002865968844792e-003	2.082926e-009	1.041463e+001
2.002890123487359e-003	2.071140e-009	1.035570e+001
2.002914361937954e-003	2.059561e-009	1.029780e+001
2.002946487541226e-003	2.044539e-009	1.022270e+001
2.002981820121792e-003	2.028411e-009	1.014206e+001
2.003031100433747e-003	2.006556e-009	1.003278e+001
2.003094029281827e-003	1.979628e-009	9.898140e+000
2.003185758814308e-003	1.942151e-009	9.710755e+000
2.003312449418421e-003	1.893534e-009	9.467669e+000
2.003517449083971e-003	1.821018e-009	9.105088e+000
2.003767027727453e-003	1.740308e-009	8.701538e+000
2.003910415696942e-003	1.698932e-009	8.494661e+000
2.004018894662220e-003	1.673143e-009	8.365717e+000
2.004131764842263e-003	1.654971e-009	8.274857e+000
2.004249991996504e-003	1.647044e-009	8.235222e+000
2.004335024898325e-003	1.649478e-009	8.247393e+000
2.004437134775245e-003	1.659687e-009	8.298434e+000
2.004549102308352e-003	1.673795e-009	8.368976e+000
2.004697606314858e-003	1.691594e-009	8.457971e+000
2.004793866745209e-003	1.701135e-009	8.505674e+000
2.004929067655107e-003	1.712511e-009	8.562555e+000
2.005063516656817e-003	1.723337e-009	8.616687e+000
2.005189727903226e-003	1.732316e-009	8.661578e+000
2.005338620376755e-003	1.738371e-009	8.691854e+000
2.005495462154566e-003	1.737766e-009	8.688828e+000
2.005594202312652e-003	1.733501e-009	8.667503e+000
2.005722767036917e-003	1.725445e-009	8.627226e+000
2.005852866398207e-003	1.716498e-009	8.582489e+000
2.005990442587748e-003	1.705936e-009	8.529680e+000
2.006117126690923e-003	1.695296e-009	8.476482e+000
2.006302920633572e-003	1.679096e-009	8.395478e+000
2.006481233071121e-003	1.663172e-009	8.315860e+000
2.006651810269112e-003	1.647622e-009	8.238113e+000
2.006949656383947e-003	1.620333e-009	8.101664e+000
2.007244392038269e-003	1.593408e-009	7.967041e+000
2.007554458759236e-003	1.565436e-009	7.827178e+000
2.007994122895891e-003	1.526710e-009	7.633552e+000
2.008535931493776e-003	1.480771e-009	7.403856e+000
2.009304103184163e-003	1.419280e-009	7.096401e+000
2.010293203662339e-003	1.344872e-009	6.724359e+000
2.010729800945917e-003	1.314048e-009	6.570239e+000
2.011199601533697e-003	1.282527e-009	6.412633e+000
2.011372968837192e-003	1.271243e-009	6.356215e+000
2.011488043706375e-003	1.263898e-009	6.319489e+000
2.011566730698512e-003	1.258923e-009	6.294615e+000
2.011632460024135e-003	1.254815e-009	6.274076e+000
2.011719854035900e-003	1.249393e-009	6.246964e+000
2.011749166724250e-003	1.247577e-009	6.237887e+000
2.011769197096289e-003	1.246339e-009	6.231698e+000
2.011796735603614e-003	1.244643e-009	6.223213e+000
2.011819851893840e-003	1.243224e-009	6.216118e+000
2.011841872576563e-003	1.241877e-009	6.209387e+000
2.011868679755771e-003	1.240244e-009	6.201221e+000
2.011893562686649e-003	1.238733e-009	6.193663e+000
2.011922916224919e-003	1.236953e-009	6.184765e+000
2.011955022058512e-003	1.235011e-009	6.175055e+000
2.011997187557785e-003	1.232468e-009	6.162343e+000
2.012054133353776e-003	1.229055e-009	6.145275e+000
2.012152172474151e-003	1.223231e-009	6.116157e+000
2.012300327340263e-003	1.214531e-009	6.072653e+000
2.012456291287719e-003	1.205530e-009	6.027651e+000
2.012768219182630e-003	1.188011e-009	5.940057e+000
2.013250036914945e-003	1.162185e-009	5.810925e+000
2.014213672379576e-003	1.113910e-009	5.569551e+000
2.015213672379576e-003	1.067897e-009	5.339484e+000
2.016213672379576e-003	1.026220e-009	5.131101e+000
2.017213672379576e-003	9.885114e-010	4.942557e+000
2.018213672379576e-003	9.543933e-010	4.771967e+000
2.019213672379576e-003	9.235244e-010	4.617622e+000
2.020213672379576e-003	8.955950e-010	4.477975e+000
2.021213672379577e-003	8.703256e-010	4.351628e+000
2.022213672379576e-003	8.474627e-010	4.237313e+000
2.023213672379576e-003	8.267771e-010	4.133885e+000
2.024213672379577e-003	8.080614e-010	4.040307e+000
2.025213672379576e-003	7.911282e-010	3.955641e+000
2.026213672379576e-003	7.758075e-010	3.879038e+000
2.027213672379576e-003	7.619459e-010	3.809730e+000
2.028213672379576e-003	7.494044e-010	3.747022e+000
2.029213672379576e-003	7.380573e-010	3.690286e+000
2.030213672379576e-003	7.277907e-010	3.638953e+000
2.031213672379576e-003	7.185019e-010	3.592509e+000
2.032213672379576e-003	7.100974e-010	3.550487e+000
2.033213672379576e-003	7.024931e-010	3.512465e+000
2.034213672379577e-003	6.956125e-010	3.478062e+000
2.035213672379576e-003	6.893872e-010	3.446936e+000
2.036213672379576e-003	6.837549e-010	3.418775e+000
2.037213672379577e-003	6.786591e-010	3.393296e+000
2.038213672379576e-003	6.740485e-010	3.370243e+000
2.039213672379576e-003	6.698770e-010	3.349385e+000
2.040213672379576e-003	6.661027e-010	3.330513e+000
2.041213672379576e-003	6.626877e-010	3.313438e+000
2.042213672379576e-003	6.595978e-010	3.297989e+000
2.043213672379576e-003	6.568021e-010	3.284010e+000
2.044213672379576e-003	6.542725e-010	3.271362e+000
2.045213672379576e-003	6.519836e-010	3.259918e+000
2.046213672379576e-003	6.499125e-010	3.249562e+000
2.047213672379577e-003	6.480382e-010	3.240191e+000
2.048213672379576e-003	6.463421e-010	3.231711e+000
2.049213672379576e-003	6.448070e-010	3.224035e+000
2.050213672379576e-003	6.434170e-010	3.217085e+000
2.051213672379576e-003	6.421583e-010	3.210792e+000
2.052213672379576e-003	6.410172e-010	3.205086e+000
2.053213672379576e-003	6.399632e-010	3.199816e+000
2.053787281719087e-003	6.393802e-010	3.196901e+000
2.054033344999400e-003	6.391232e-010	3.195616e+000
2.054303753770393e-003	6.388220e-010	3.194110e+000
2.054515969463913e-003	6.385675e-010	3.192838e+000
2.054709459000407e-003	6.383160e-010	3.191580e+000
2.054822612600470e-003	6.381332e-010	3.190666e+000
2.054894390699304e-003	6.379082e-010	3.189541e+000
2.054930182089782e-003	6.376296e-010	3.188148e+000
2.054959088274425e-003	6.372105e-010	3.186052e+000
2.054990442226066e-003	6.365985e-010	3.182992e+000
2.055027573939685e-003	6.358500e-010	3.179250e+000
2.055086342809278e-003	6.348714e-010	3.174357e+000
2.055140210592448e-003	6.342187e-010	3.171093e+000
2.055191081080447e-003	6.336719e-010	3.168360e+000
2.055252206445739e-003	6.328398e-010	3.164199e+000
2.055317506980817e-003	6.316946e-010	3.158473e+000
2.055388951087321e-003	6.302524e-010	3.151262e+000
2.055459384476964e-003	6.286720e-010	3.143360e+000
2.055548225089262e-003	6.263513e-010	3.131756e+000
2.055642260997947e-003	6.233610e-010	3.116805e+000
2.055770465464758e-003	6.184233e-010	3.092117e+000
2.055901846296955e-003	6.123337e-010	3.061669e+000
2.056056222219325e-003	6.035490e-010	3.017745e+000
2.056281088907057e-003	5.880054e-010	2.940027e+000
2.056524023062530e-003	5.684464e-010	2.842232e+000
2.056763041566222e-003	5.473114e-010	2.736557e+000
2.057036706841479e-003	5.222562e-010	2.611281e+000
2.057294049458205e-003	4.987105e-010	2.493552e+000
2.057652552671528e-003	4.665062e-010	2.332531e+000
2.057980456467832e-003	4.382826e-010	2.191413e+000
2.058476658834445e-003	3.983705e-010	1.991853e+000
2.059074451197043e-003	3.542153e-010	1.771077e+000
2.059661642191424e-003	3.156806e-010	1.578403e+000
2.060454149755915e-003	2.711335e-010	1.355668e+000
2.061392532450634e-003	2.273759e-010	1.136880e+000
2.062392532450634e-003	1.901166e-010	9.505830e-001
2.063392532450634e-003	1.611175e-010	8.055876e-001
2.064392532450634e-003	1.387810e-010	6.939050e-001
2.065392532450634e-003	1.216408e-010	6.082041e-001
2.066392532450634e-003	1.085042e-010	5.425210e-001
2.067392532450634e-003	9.839062e-011	4.919531e-001
2.068392532450634e-003	9.055925e-011	4.527963e-001
2.069392532450634e-003	8.444714e-011	4.222357e-001
2.070392532450634e-003	7.962480e-011	3.981240e-001
2.071392532450634e-003	7.577557e-011	3.788778e-001
2.072392532450634e-003	7.266333e-011	3.633167e-001
2.073392532450634e-003	7.011148e-011	3.505574e-001
2.074392532450634e-003	6.798880e-011	3.399440e-001
2.075392532450634e-003	6.619702e-011	3.309851e-001
2.076392532450634e-003	6.466219e-011	3.233109e-001
2.077392532450634e-003	6.332861e-011	3.166430e-001
2.078392532450634e-003	6.215407e-011	3.107704e-001
2.079392532450634e-003	6.110647e-011	3.055324e-001
2.080392532450634e-003	6.016129e-011	3.008065e-001
2.081392532450634e-003	5.929972e-011	2.964986e-001
2.082392532450634e-003	5.850723e-011	2.925361e-001
2.083392532450634e-003	5.777260e-011	2.888630e-001
2.084392532450634e-003	5.708705e-011	2.854353e-001
2.085392532450634e-003	5.644371e-011	2.822186e-001
2.086392532450634e-003	5.583715e-011	2.791858e-001
2.087392532450634e-003	5.526303e-011	2.763152e-001
2.088392532450634e-003	5.471786e-011	2.735893e-001
2.089392532450634e-003	5.419880e-011	2.709940e-001
2.090392532450634e-003	5.370353e-011	2.685176e-001
2.091392532450634e-003	5.323011e-011	2.661506e-001
2.092392532450634e-003	5.277693e-011	2.638846e-001
2.093392532450634e-003	5.234258e-011	2.617129e-001
2.094392532450634e-003	5.192588e-011	2.596294e-001
2.095392532450634e-003	5.152578e-011	2.576289e-001
2.096392532450634e-003	5.114136e-011	2.557068e-001
2.097392532450634e-003	5.077181e-011	2.538590e-001
2.098392532450634e-003	5.041638e-011	2.520819e-001
2.099392532450634e-003	5.007442e-011	2.503721e-001
2.100392532450634e-003	4.974530e-011	2.487265e-001
2.101392532450634e-003	4.942846e-011	2.471423e-001
2.102392532450634e-003	4.912337e-011	2.456169e-001
2.103392532450634e-003	4.882955e-011	2.441478e-001
2.104392532450634e-003	4.854654e-011	2.427327e-001
2.105392532450634e-003	4.827390e-011	2.413695e-001
2.106392532450634e-003	4.801122e-011	2.400561e-001
2.107392532450634e-003	4.775811e-011	2.387906e-001
2.108392532450634e-003	4.751420e-011	2.375710e-001
2.109392532450634e-003	4.727914e-011	2.363957e-001
