time	V(vout)	-I(Rl)
0.000000000000000e+000	9.996057e+000	-0.000000e+000
3.999999984016789e-011	9.996057e+000	-0.000000e+000
4.500003796716138e-011	9.996056e+000	-0.000000e+000
2.045000037967162e-009	9.996057e+000	-0.000000e+000
2.004500003796717e-008	9.996057e+000	-0.000000e+000
3.804500003796718e-008	9.996057e+000	-0.000000e+000
5.604500003796719e-008	9.996057e+000	-0.000000e+000
7.404500003796719e-008	9.996057e+000	-0.000000e+000
9.204500003796719e-008	9.996057e+000	-0.000000e+000
1.100450000379672e-007	9.996057e+000	-0.000000e+000
1.280450000379672e-007	9.996057e+000	-0.000000e+000
1.024045000037967e-006	9.996057e+000	-0.000000e+000
1.008024045000038e-003	9.996057e+000	-0.000000e+000
2.000000000000000e-003	9.996057e+000	-0.000000e+000
2.000000023827026e-003	3.332019e+000	1.976504e+001
2.000000071481079e-003	2.353422e-009	1.176711e+001
2.000000072970268e-003	2.336173e-009	1.168087e+001
2.000000072996082e-003	2.338007e-009	1.169003e+001
2.000000073021895e-003	2.339779e-009	1.169890e+001
2.000000073047709e-003	2.341491e-009	1.170745e+001
2.000000073073523e-003	2.343141e-009	1.171571e+001
2.000000073099336e-003	2.344731e-009	1.172365e+001
2.000000073125150e-003	2.346259e-009	1.173130e+001
2.000000073150963e-003	2.347726e-009	1.173863e+001
2.000001073150963e-003	2.527782e-009	1.263891e+001
2.000002073150963e-003	2.512402e-009	1.256201e+001
2.000003073150963e-003	2.424522e-009	1.212261e+001
2.000004073150963e-003	2.374058e-009	1.187029e+001
2.000005073150963e-003	2.352424e-009	1.176212e+001
2.000006073150964e-003	2.349908e-009	1.174954e+001
2.000007073150963e-003	2.359765e-009	1.179883e+001
2.000008073150963e-003	2.377244e-009	1.188622e+001
2.000009073150963e-003	2.397778e-009	1.198889e+001
2.000010041842306e-003	2.416347e-009	1.208174e+001
2.000010905434206e-003	2.430254e-009	1.215127e+001
2.000011423319040e-003	2.437362e-009	1.218681e+001
2.000012018138935e-003	2.444243e-009	1.222122e+001
2.000012724125146e-003	2.450775e-009	1.225387e+001
2.000013634197905e-003	2.457217e-009	1.228608e+001
2.000014554825860e-003	2.461980e-009	1.230990e+001
2.000015627630890e-003	2.465934e-009	1.232967e+001
2.000016715166679e-003	2.468782e-009	1.234391e+001
2.000017962197993e-003	2.471010e-009	1.235505e+001
2.000019381160546e-003	2.472177e-009	1.236089e+001
2.000020141010900e-003	2.471529e-009	1.235765e+001
2.000020879256678e-003	2.469849e-009	1.234925e+001
2.000021655082983e-003	2.467885e-009	1.233942e+001
2.000022479495896e-003	2.466050e-009	1.233025e+001
2.000023338163472e-003	2.464532e-009	1.232266e+001
2.000024095720259e-003	2.463485e-009	1.231742e+001
2.000024947539598e-003	2.462546e-009	1.231273e+001
2.000025831832734e-003	2.461852e-009	1.230926e+001
2.000026735978515e-003	2.461500e-009	1.230750e+001
2.000027882333918e-003	2.461527e-009	1.230763e+001
2.000029746734389e-003	2.462233e-009	1.231116e+001
2.000031744081847e-003	2.463550e-009	1.231775e+001
2.000035738776763e-003	2.466879e-009	1.233439e+001
2.000039457962794e-003	2.470171e-009	1.235086e+001
2.000044782336129e-003	2.474939e-009	1.237469e+001
2.000049432572361e-003	2.479287e-009	1.239643e+001
2.000053961703403e-003	2.484206e-009	1.242103e+001
2.000058970772994e-003	2.491201e-009	1.245601e+001
2.000063582507438e-003	2.500091e-009	1.250045e+001
2.000068589683923e-003	2.513772e-009	1.256886e+001
2.000074405420077e-003	2.536248e-009	1.268124e+001
2.000081810793259e-003	2.574428e-009	1.287214e+001
2.000087095441809e-003	2.608212e-009	1.304106e+001
2.000090163781181e-003	2.631113e-009	1.315556e+001
2.000092597328908e-003	2.651142e-009	1.325571e+001
2.000094246698096e-003	2.665712e-009	1.332856e+001
2.000095959141887e-003	2.681811e-009	1.340905e+001
2.000097712071102e-003	2.699343e-009	1.349672e+001
2.000099937339436e-003	2.723330e-009	1.361665e+001
2.000102944955077e-003	2.758932e-009	1.379466e+001
2.000107279703504e-003	2.816170e-009	1.408085e+001
2.000112576865330e-003	2.894567e-009	1.447284e+001
2.000118623581041e-003	2.992507e-009	1.496253e+001
2.000121311071661e-003	3.038543e-009	1.519271e+001
2.000123100302315e-003	3.069505e-009	1.534753e+001
2.000124104275570e-003	3.086026e-009	1.543013e+001
2.000124503200715e-003	3.092172e-009	1.546086e+001
2.000124993277121e-003	3.099602e-009	1.549801e+001
2.000125279928783e-003	3.104002e-009	1.552001e+001
2.000125615233990e-003	3.109158e-009	1.554579e+001
2.000126285844403e-003	3.119451e-009	1.559725e+001
2.000126915927092e-003	3.129037e-009	1.564519e+001
2.000128176092468e-003	3.147854e-009	1.573927e+001
2.000129536895308e-003	3.167079e-009	1.583539e+001
2.000131940382229e-003	3.196069e-009	1.598034e+001
2.000134109665439e-003	3.210344e-009	1.605172e+001
2.000135489136267e-003	3.198823e-009	1.599412e+001
2.000136418498250e-003	3.169220e-009	1.584610e+001
2.000137102302750e-003	3.139620e-009	1.569810e+001
2.000137518631310e-003	3.128430e-009	1.564215e+001
2.000137871619922e-003	3.128908e-009	1.564454e+001
2.000138189573532e-003	3.135488e-009	1.567744e+001
2.000138456755815e-003	3.142818e-009	1.571409e+001
2.000138675480390e-003	3.148815e-009	1.574407e+001
2.000138910621406e-003	3.155143e-009	1.577571e+001
2.000139153277137e-003	3.161545e-009	1.580772e+001
2.000139506839865e-003	3.170594e-009	1.585297e+001
2.000139876816646e-003	3.179703e-009	1.589852e+001
2.000140512955759e-003	3.194458e-009	1.597229e+001
2.000141270526255e-003	3.210950e-009	1.605475e+001
2.000142028169885e-003	3.226678e-009	1.613339e+001
2.000142463603402e-003	3.235351e-009	1.617676e+001
2.000142997456771e-003	3.245722e-009	1.622861e+001
2.000143526629572e-003	3.255957e-009	1.627978e+001
2.000144113337520e-003	3.267316e-009	1.633658e+001
2.000144971161922e-003	3.284096e-009	1.642048e+001
2.000146686810726e-003	3.318150e-009	1.659075e+001
2.000148320938671e-003	3.351401e-009	1.675700e+001
2.000151589194562e-003	3.420109e-009	1.710055e+001
2.000154826783005e-003	3.490829e-009	1.745414e+001
2.000158391203212e-003	3.572748e-009	1.786374e+001
2.000164292719017e-003	3.716593e-009	1.858297e+001
2.000170267374786e-003	3.874417e-009	1.937209e+001
2.000182216686325e-003	4.226844e-009	2.113422e+001
2.000200171719099e-003	4.819739e-009	2.409869e+001
2.000212035431175e-003	5.256655e-009	2.628327e+001
2.000223366504944e-003	5.714099e-009	2.857049e+001
2.000236367567185e-003	6.270748e-009	3.135374e+001
2.000243968552918e-003	6.609324e-009	3.304662e+001
2.000251042331270e-003	6.932294e-009	3.466147e+001
2.000258932722039e-003	7.296154e-009	3.648077e+001
2.000266831207593e-003	7.659859e-009	3.829929e+001
2.000277813196008e-003	8.154163e-009	4.077081e+001
2.000294097761190e-003	8.852107e-009	4.426054e+001
2.000306844393459e-003	9.350622e-009	4.675311e+001
2.000323070541317e-003	9.901954e-009	4.950977e+001
2.000339613173485e-003	1.037764e-008	5.188821e+001
2.000349939989172e-003	1.062181e-008	5.310903e+001
2.000361045876599e-003	1.083585e-008	5.417926e+001
2.000372040871379e-003	1.100607e-008	5.503034e+001
2.000388388904575e-003	1.119771e-008	5.598856e+001
2.000407299092860e-003	1.135209e-008	5.676047e+001
2.000429951562657e-003	1.147109e-008	5.735546e+001
2.000439896234001e-003	1.150264e-008	5.751321e+001
2.000444412407460e-003	1.151097e-008	5.755486e+001
2.000446910639832e-003	1.151441e-008	5.757206e+001
2.000448877235008e-003	1.151673e-008	5.758363e+001
2.000451390630588e-003	1.151916e-008	5.759582e+001
2.000455367801836e-003	1.152212e-008	5.761061e+001
2.000459700552150e-003	1.152415e-008	5.762075e+001
2.000465951072341e-003	1.152512e-008	5.762561e+001
2.000472278339199e-003	1.152392e-008	5.761962e+001
2.000481763047546e-003	1.151862e-008	5.759308e+001
2.000492393801455e-003	1.150838e-008	5.754189e+001
2.000510188246208e-003	1.148409e-008	5.742044e+001
2.000525760380434e-003	1.145753e-008	5.728763e+001
2.000537565063252e-003	1.143394e-008	5.716970e+001
2.000550611167950e-003	1.140496e-008	5.702479e+001
2.000564612424430e-003	1.137113e-008	5.685566e+001
2.000580679969767e-003	1.132915e-008	5.664574e+001
2.000597753669358e-003	1.128094e-008	5.640472e+001
2.000617371980588e-003	1.122085e-008	5.610426e+001
2.000639676060785e-003	1.114658e-008	5.573289e+001
2.000659418403653e-003	1.107464e-008	5.537318e+001
2.000681035986108e-003	1.098792e-008	5.493958e+001
2.000702695226972e-003	1.089122e-008	5.445610e+001
2.000728012597820e-003	1.076312e-008	5.381557e+001
2.000755804914397e-003	1.059927e-008	5.299634e+001
2.000790774810307e-003	1.035092e-008	5.175461e+001
2.000834596229207e-003	9.971755e-009	4.985878e+001
2.000889833188262e-003	9.415363e-009	4.707682e+001
2.000938220274521e-003	8.891254e-009	4.445627e+001
2.000991925684149e-003	8.308803e-009	4.154402e+001
2.001053961924006e-003	7.662045e-009	3.831023e+001
2.001108701644770e-003	7.116739e-009	3.558369e+001
2.001140886673664e-003	6.808539e-009	3.404269e+001
2.001175223110399e-003	6.489235e-009	3.244617e+001
2.001209834168897e-003	6.174497e-009	3.087248e+001
2.001251723702072e-003	5.801509e-009	2.900755e+001
2.001289981884604e-003	5.471426e-009	2.735713e+001
2.001358616982206e-003	4.918839e-009	2.459419e+001
2.001418778878407e-003	4.504678e-009	2.252339e+001
2.001487027923148e-003	4.127676e-009	2.063838e+001
2.001531457581936e-003	3.929619e-009	1.964810e+001
2.001579649026666e-003	3.751474e-009	1.875737e+001
2.001629355311727e-003	3.592518e-009	1.796259e+001
2.001676101512054e-003	3.462118e-009	1.731059e+001
2.001726865439225e-003	3.336722e-009	1.668361e+001
2.001766789239348e-003	3.247539e-009	1.623770e+001
2.001786805172424e-003	3.206619e-009	1.603309e+001
2.001802793814118e-003	3.175828e-009	1.587914e+001
2.001820227439208e-003	3.143135e-009	1.571568e+001
2.001837204704091e-003	3.112119e-009	1.556060e+001
2.001861889973984e-003	3.068963e-009	1.534482e+001
2.001907897838061e-003	2.993002e-009	1.496501e+001
2.001949883205777e-003	2.929258e-009	1.464629e+001
2.002033853941211e-003	2.815292e-009	1.407646e+001
2.002139330173579e-003	2.689596e-009	1.344798e+001
2.002262015091710e-003	2.563801e-009	1.281900e+001
2.002393844210581e-003	2.445920e-009	1.222960e+001
2.002469189823473e-003	2.385265e-009	1.192632e+001
2.002497951605540e-003	2.363706e-009	1.181853e+001
2.002523588825972e-003	2.345275e-009	1.172637e+001
2.002559858722371e-003	2.319946e-009	1.159973e+001
2.002590804276696e-003	2.298966e-009	1.149483e+001
2.002626088383621e-003	2.275806e-009	1.137903e+001
2.002667396069986e-003	2.249595e-009	1.124798e+001
2.002715896162353e-003	2.219957e-009	1.109978e+001
2.002770727681144e-003	2.187800e-009	1.093900e+001
2.002830810211432e-003	2.153983e-009	1.076991e+001
2.002880549448023e-003	2.127094e-009	1.063547e+001
2.002933319077221e-003	2.099689e-009	1.049845e+001
2.002992975034816e-003	2.069908e-009	1.034954e+001
2.003056649480037e-003	2.039378e-009	1.019689e+001
2.003118890482912e-003	2.010798e-009	1.005399e+001
2.003200970890665e-003	1.974794e-009	9.873968e+000
2.003291452145009e-003	1.937122e-009	9.685610e+000
2.003421517483893e-003	1.886528e-009	9.432638e+000
2.003633666299561e-003	1.811277e-009	9.056383e+000
2.003984869327692e-003	1.701395e-009	8.506976e+000
2.004514650654733e-003	1.560641e-009	7.803204e+000
2.005321683749422e-003	1.383770e-009	6.918849e+000
2.006321683749422e-003	1.204361e-009	6.021806e+000
2.007321683749422e-003	1.056171e-009	5.280855e+000
2.008125747584596e-003	9.649374e-010	4.824687e+000
2.008720075843740e-003	9.406653e-010	4.703326e+000
2.009125267155837e-003	9.726873e-010	4.863436e+000
2.009593766582226e-003	1.047999e-009	5.239997e+000
2.009775984914223e-003	1.076099e-009	5.380492e+000
2.010019237118049e-003	1.109237e-009	5.546186e+000
2.010151173422350e-003	1.128462e-009	5.642312e+000
2.010278480608800e-003	1.148043e-009	5.740215e+000
2.010499190064518e-003	1.181448e-009	5.907238e+000
2.010772989178173e-003	1.219556e-009	6.097780e+000
2.011091270141906e-003	1.254189e-009	6.270943e+000
2.011296148486111e-003	1.263885e-009	6.319424e+000
2.011488944908905e-003	1.260146e-009	6.300731e+000
2.011643523208686e-003	1.252075e-009	6.260375e+000
2.011773639054654e-003	1.244752e-009	6.223760e+000
2.011824018741359e-003	1.242143e-009	6.210714e+000
2.011847902199632e-003	1.240938e-009	6.204690e+000
2.011878978122110e-003	1.239335e-009	6.196674e+000
2.011893976359559e-003	1.238540e-009	6.192700e+000
2.011908885567259e-003	1.237729e-009	6.188645e+000
2.011925831833345e-003	1.236786e-009	6.183928e+000
2.011945075059541e-003	1.235688e-009	6.178440e+000
2.011965299078495e-003	1.234507e-009	6.172533e+000
2.011988100919191e-003	1.233144e-009	6.165719e+000
2.012013986344399e-003	1.231566e-009	6.157830e+000
2.012046428187153e-003	1.229560e-009	6.147799e+000
2.012090618993080e-003	1.226818e-009	6.134090e+000
2.012160503736344e-003	1.222538e-009	6.112692e+000
2.012238912988046e-003	1.217871e-009	6.089356e+000
2.012329777167211e-003	1.212628e-009	6.063142e+000
2.012455144457943e-003	1.205506e-009	6.027532e+000
2.012592538416906e-003	1.197708e-009	5.988540e+000
2.012761468535070e-003	1.188177e-009	5.940887e+000
2.012954099095979e-003	1.177538e-009	5.887691e+000
2.013207973488305e-003	1.163873e-009	5.819364e+000
2.013490103420432e-003	1.149143e-009	5.745714e+000
2.014054363284686e-003	1.120844e-009	5.604218e+000
2.014597858740445e-003	1.095037e-009	5.475187e+000
2.015407279403098e-003	1.059274e-009	5.296372e+000
2.016407279403098e-003	1.018610e-009	5.093051e+000
2.017407279403098e-003	9.816251e-010	4.908125e+000
2.018407279403098e-003	9.481628e-010	4.740814e+000
2.019407279403098e-003	9.178870e-010	4.589435e+000
2.020407279403098e-003	8.904945e-010	4.452472e+000
2.021407279403098e-003	8.657111e-010	4.328555e+000
2.022407279403098e-003	8.432872e-010	4.216436e+000
2.023407279403098e-003	8.229997e-010	4.114998e+000
2.024407279403098e-003	8.046435e-010	4.023217e+000
2.025407279403098e-003	7.880360e-010	3.940180e+000
2.026407279403098e-003	7.730096e-010	3.865048e+000
2.027407279403098e-003	7.594146e-010	3.797073e+000
2.028407279403098e-003	7.471141e-010	3.735570e+000
2.029407279403098e-003	7.359851e-010	3.679925e+000
2.030407279403098e-003	7.259159e-010	3.629580e+000
2.031407279403098e-003	7.168056e-010	3.584028e+000
2.032407279403098e-003	7.085630e-010	3.542815e+000
2.033407279403098e-003	7.011051e-010	3.505526e+000
2.034407279403098e-003	6.943578e-010	3.471789e+000
2.035407279403098e-003	6.882527e-010	3.441264e+000
2.036407279403098e-003	6.827293e-010	3.413647e+000
2.037407279403098e-003	6.777317e-010	3.388659e+000
2.038407279403098e-003	6.732102e-010	3.366051e+000
2.039407279403098e-003	6.691191e-010	3.345596e+000
2.040407279403098e-003	6.654177e-010	3.327088e+000
2.041407279403098e-003	6.620688e-010	3.310344e+000
2.042407279403098e-003	6.590387e-010	3.295194e+000
2.043407279403098e-003	6.562973e-010	3.281487e+000
2.044407279403098e-003	6.538168e-010	3.269084e+000
2.045407279403098e-003	6.515727e-010	3.257863e+000
2.046407279403098e-003	6.495421e-010	3.247710e+000
2.047407279403098e-003	6.477049e-010	3.238525e+000
2.048407279403098e-003	6.460427e-010	3.230214e+000
2.049407279403098e-003	6.445388e-010	3.222694e+000
2.050407279403098e-003	6.431781e-010	3.215890e+000
2.051407279403098e-003	6.419469e-010	3.209735e+000
2.052407279403098e-003	6.408331e-010	3.204165e+000
2.053407279403098e-003	6.398252e-010	3.199126e+000
2.054407279403098e-003	6.389133e-010	3.194566e+000
2.055407279403098e-003	6.380882e-010	3.190441e+000
2.056407279403098e-003	6.373418e-010	3.186709e+000
2.057407279403098e-003	6.366663e-010	3.183332e+000
2.058407279403098e-003	6.360552e-010	3.180276e+000
2.059407279403098e-003	6.355023e-010	3.177511e+000
2.060407279403098e-003	6.350021e-010	3.175010e+000
2.061407279403098e-003	6.345494e-010	3.172747e+000
2.062407279403098e-003	6.341399e-010	3.170699e+000
2.063407279403098e-003	6.337693e-010	3.168846e+000
2.064407279403098e-003	6.334340e-010	3.167170e+000
2.065407279403098e-003	6.331307e-010	3.165653e+000
2.066407279403098e-003	6.328562e-010	3.164281e+000
2.067407279403098e-003	6.326079e-010	3.163039e+000
2.068407279403098e-003	6.323831e-010	3.161916e+000
2.069407279403098e-003	6.321798e-010	3.160899e+000
2.070407279403098e-003	6.319958e-010	3.159979e+000
2.071407279403098e-003	6.318294e-010	3.159147e+000
2.072407279403098e-003	6.316787e-010	3.158394e+000
2.073407279403098e-003	6.315425e-010	3.157712e+000
2.074407279403098e-003	6.314191e-010	3.157096e+000
2.075407279403098e-003	6.313076e-010	3.156538e+000
2.076407279403098e-003	6.312066e-010	3.156033e+000
2.077407279403098e-003	6.311153e-010	3.155576e+000
2.078407279403098e-003	6.310326e-010	3.155163e+000
2.079407279403098e-003	6.309578e-010	3.154789e+000
2.080407279403098e-003	6.308901e-010	3.154450e+000
2.081407279403098e-003	6.308288e-010	3.154144e+000
2.082407279403098e-003	6.307734e-010	3.153867e+000
2.083407279403098e-003	6.307233e-010	3.153616e+000
2.084407279403098e-003	6.306779e-010	3.153389e+000
2.085407279403098e-003	6.306368e-010	3.153184e+000
2.086407279403098e-003	6.305997e-010	3.152998e+000
2.087407279403098e-003	6.305660e-010	3.152830e+000
2.088407279403098e-003	6.305356e-010	3.152678e+000
2.089407279403098e-003	6.305080e-010	3.152540e+000
2.090407279403098e-003	6.304831e-010	3.152416e+000
2.091407279403098e-003	6.304606e-010	3.152303e+000
2.092407279403098e-003	6.304401e-010	3.152201e+000
2.093407279403098e-003	6.304217e-010	3.152108e+000
2.094407279403098e-003	6.304050e-010	3.152025e+000
2.095407279403098e-003	6.303898e-010	3.151949e+000
2.096407279403098e-003	6.303761e-010	3.151881e+000
2.097407279403098e-003	6.303637e-010	3.151819e+000
2.098407279403098e-003	6.303525e-010	3.151762e+000
2.099407279403098e-003	6.303423e-010	3.151711e+000
2.100407279403098e-003	6.303331e-010	3.151665e+000
2.101407279403098e-003	6.303248e-010	3.151624e+000
2.102407279403098e-003	6.303172e-010	3.151586e+000
2.103407279403098e-003	6.303104e-010	3.151552e+000
2.104407279403098e-003	6.303042e-010	3.151521e+000
2.105407279403098e-003	6.302986e-010	3.151493e+000
2.106407279403098e-003	6.302935e-010	3.151468e+000
2.107407279403098e-003	6.302889e-010	3.151445e+000
2.108407279403098e-003	6.302848e-010	3.151424e+000
2.109407279403098e-003	6.302810e-010	3.151405e+000
2.110407279403098e-003	6.302776e-010	3.151388e+000
2.111407279403098e-003	6.302745e-010	3.151372e+000
2.112407279403098e-003	6.302717e-010	3.151358e+000
2.113407279403098e-003	6.302692e-010	3.151346e+000
2.114407279403098e-003	6.302668e-010	3.151334e+000
2.115407279403098e-003	6.302647e-010	3.151324e+000
2.116407279403098e-003	6.302628e-010	3.151314e+000
2.117407279403098e-003	6.302611e-010	3.151306e+000
2.118407279403098e-003	6.302596e-010	3.151298e+000
2.119407279403098e-003	6.302582e-010	3.151291e+000
2.120407279403098e-003	6.302568e-010	3.151284e+000
2.121407279403098e-003	6.302557e-010	3.151278e+000
2.122407279403098e-003	6.302546e-010	3.151273e+000
2.123407279403098e-003	6.302537e-010	3.151268e+000
2.124407279403098e-003	6.302528e-010	3.151264e+000
2.125407279403098e-003	6.302520e-010	3.151260e+000
2.126407279403098e-003	6.302513e-010	3.151257e+000
2.127407279403098e-003	6.302506e-010	3.151253e+000
2.128407279403098e-003	6.302500e-010	3.151250e+000
2.129407279403098e-003	6.302494e-010	3.151247e+000
2.129975303524844e-003	6.302491e-010	3.151246e+000
2.130419119714605e-003	6.302489e-010	3.151245e+000
2.130914715403993e-003	6.302487e-010	3.151243e+000
2.131386922461314e-003	6.302485e-010	3.151242e+000
2.131555188149331e-003	6.302484e-010	3.151242e+000
2.131823719506211e-003	6.302484e-010	3.151242e+000
2.132126373268317e-003	6.302482e-010	3.151241e+000
2.132337630133653e-003	6.302481e-010	3.151241e+000
2.132570753673759e-003	6.302480e-010	3.151240e+000
2.133133229855545e-003	6.302479e-010	3.151239e+000
2.133320618469151e-003	6.302477e-010	3.151239e+000
2.133550272702432e-003	6.302477e-010	3.151238e+000
2.133807378932803e-003	6.302476e-010	3.151238e+000
2.134192653952072e-003	6.302474e-010	3.151237e+000
2.134666761380476e-003	6.302472e-010	3.151237e+000
2.135614976237284e-003	6.302470e-010	3.151235e+000
2.136614976237284e-003	6.302467e-010	3.151234e+000
2.137614976237285e-003	6.302465e-010	3.151232e+000
2.138614976237285e-003	6.302462e-010	3.151231e+000
2.139614976237284e-003	6.302460e-010	3.151230e+000
