time	-I(Rl)	V(vout)
0.000000000000000e+00	1.009601e-09	9.996057e+00
2.000000000000000e-03	1.009601e-09	9.996057e+00
2.000000079872123e-03	2.300749e+01	4.245506e-02
2.000000080184124e-03	2.305060e+01	2.305060e-02
2.000001080184124e-03	1.553141e+01	1.553141e-02
2.000002080184124e-03	1.259571e+01	1.259571e-02
2.000003080184123e-03	1.210466e+01	1.210466e-02
2.000004080184124e-03	1.185402e+01	1.185402e-02
2.000005080184124e-03	1.172525e+01	1.172526e-02
2.000005185941932e-03	1.171645e+01	1.171645e-02
2.000005397457548e-03	1.170384e+01	1.170384e-02
2.000005820488780e-03	1.169481e+01	1.169481e-02
2.000006666551245e-03	1.171703e+01	1.171703e-02
2.000007528445029e-03	1.178022e+01	1.178022e-02
2.000008282445631e-03	1.186132e+01	1.186132e-02
2.000008851274255e-03	1.192623e+01	1.192623e-02
2.000009449164574e-03	1.198973e+01	1.198973e-02
2.000010235551080e-03	1.206603e+01	1.206603e-02
2.000010981730369e-03	1.212811e+01	1.212811e-02
2.000012104103430e-03	1.220092e+01	1.220092e-02
2.000013302365065e-03	1.225439e+01	1.225439e-02
2.000015045840630e-03	1.230088e+01	1.230088e-02
2.000017090205650e-03	1.233163e+01	1.233163e-02
2.000019006648057e-03	1.234488e+01	1.234488e-02
2.000020282645191e-03	1.234169e+01	1.234169e-02
2.000021471252277e-03	1.232920e+01	1.232920e-02
2.000022685900430e-03	1.231559e+01	1.231559e-02
2.000024107813575e-03	1.230392e+01	1.230392e-02
2.000025177774063e-03	1.229796e+01	1.229796e-02
2.000026372813002e-03	1.229426e+01	1.229426e-02
2.000027736329784e-03	1.229340e+01	1.229340e-02
2.000029390792887e-03	1.229598e+01	1.229598e-02
2.000031798987155e-03	1.230368e+01	1.230368e-02
2.000035715763388e-03	1.231978e+01	1.231979e-02
2.000039741752588e-03	1.233754e+01	1.233754e-02
2.000047371268605e-03	1.237211e+01	1.237212e-02
2.000053379216557e-03	1.240283e+01	1.240283e-02
2.000058685440304e-03	1.243890e+01	1.243891e-02
2.000064600354068e-03	1.249752e+01	1.249752e-02
2.000070559646427e-03	1.258705e+01	1.258705e-02
2.000078231494689e-03	1.275610e+01	1.275611e-02
2.000086162521682e-03	1.299103e+01	1.299103e-02
2.000091585226494e-03	1.319199e+01	1.319199e-02
2.000095768086734e-03	1.337633e+01	1.337633e-02
2.000099801383801e-03	1.358105e+01	1.358105e-02
2.000103500143362e-03	1.379753e+01	1.379753e-02
2.000108940702012e-03	1.416734e+01	1.416734e-02
2.000116651946279e-03	1.476065e+01	1.476065e-02
2.000121643566411e-03	1.517654e+01	1.517654e-02
2.000124221690353e-03	1.539265e+01	1.539265e-02
2.000125651403243e-03	1.550568e+01	1.550568e-02
2.000127045592924e-03	1.561171e+01	1.561171e-02
2.000128248169209e-03	1.570190e+01	1.570191e-02
2.000129379584561e-03	1.578290e+01	1.578290e-02
2.000131642415264e-03	1.592157e+01	1.592157e-02
2.000134495781981e-03	1.598327e+01	1.598328e-02
2.000136571659446e-03	1.583614e+01	1.583615e-02
2.000137921962361e-03	1.568508e+01	1.568508e-02
2.000138733481771e-03	1.569398e+01	1.569398e-02
2.000139076891551e-03	1.573909e+01	1.573909e-02
2.000139313421728e-03	1.577117e+01	1.577117e-02
2.000139489947603e-03	1.579353e+01	1.579354e-02
2.000139603811488e-03	1.580854e+01	1.580854e-02
2.000139713737402e-03	1.582250e+01	1.582251e-02
2.000139823619273e-03	1.583623e+01	1.583623e-02
2.000139947747593e-03	1.585175e+01	1.585175e-02
2.000140121702517e-03	1.587294e+01	1.587294e-02
2.000140384288958e-03	1.590428e+01	1.590428e-02
2.000140833917508e-03	1.595535e+01	1.595535e-02
2.000141518108850e-03	1.602911e+01	1.602911e-02
2.000142309274653e-03	1.611081e+01	1.611082e-02
2.000142863977406e-03	1.616580e+01	1.616580e-02
2.000143552127026e-03	1.623242e+01	1.623242e-02
2.000144248383378e-03	1.629966e+01	1.629966e-02
2.000145074554148e-03	1.638002e+01	1.638002e-02
2.000146671034754e-03	1.653847e+01	1.653847e-02
2.000149863995964e-03	1.686556e+01	1.686556e-02
2.000153880467371e-03	1.729559e+01	1.729559e-02
2.000158447539914e-03	1.781213e+01	1.781213e-02
2.000163775468184e-03	1.845806e+01	1.845806e-02
2.000172376623872e-03	1.961484e+01	1.961484e-02
2.000189578935249e-03	2.225327e+01	2.225327e-02
2.000208939711026e-03	2.565201e+01	2.565201e-02
2.000224932356124e-03	2.883227e+01	2.883228e-02
2.000244378117871e-03	3.304147e+01	3.304148e-02
2.000256311846278e-03	3.573724e+01	3.573725e-02
2.000267058278663e-03	3.819713e+01	3.819713e-02
2.000277783913131e-03	4.058849e+01	4.058849e-02
2.000298122892196e-03	4.485298e+01	4.485299e-02
2.000313324952124e-03	4.772113e+01	4.772114e-02
2.000327308076851e-03	4.998462e+01	4.998462e-02
2.000341296273072e-03	5.183838e+01	5.183838e-02
2.000361102253989e-03	5.375993e+01	5.375994e-02
2.000397505605310e-03	5.597706e+01	5.597707e-02
2.000434664469785e-03	5.717980e+01	5.717980e-02
2.000452278649535e-03	5.741079e+01	5.741080e-02
2.000460454632242e-03	5.744392e+01	5.744392e-02
2.000464100290483e-03	5.744776e+01	5.744777e-02
2.000467904933206e-03	5.744623e+01	5.744624e-02
2.000471864619186e-03	5.744129e+01	5.744129e-02
2.000475722754197e-03	5.743266e+01	5.743266e-02
2.000480916189503e-03	5.741589e+01	5.741589e-02
2.000487062963244e-03	5.738947e+01	5.738947e-02
2.000495841394583e-03	5.734023e+01	5.734024e-02
2.000508782399731e-03	5.724707e+01	5.724708e-02
2.000528822310851e-03	5.707056e+01	5.707057e-02
2.000545708892818e-03	5.689627e+01	5.689627e-02
2.000563891640589e-03	5.668348e+01	5.668348e-02
2.000582592595909e-03	5.644179e+01	5.644180e-02
2.000604270325729e-03	5.613411e+01	5.613412e-02
2.000628069334550e-03	5.576393e+01	5.576393e-02
2.000650071536051e-03	5.538757e+01	5.538758e-02
2.000672683780446e-03	5.495985e+01	5.495985e-02
2.000696491524882e-03	5.445584e+01	5.445584e-02
2.000724361647541e-03	5.377731e+01	5.377732e-02
2.000759224903147e-03	5.272512e+01	5.272513e-02
2.000823130214510e-03	5.020372e+01	5.020372e-02
2.000905999072001e-03	4.616150e+01	4.616150e-02
2.000975766293014e-03	4.243178e+01	4.243178e-02
2.001050199972372e-03	3.851879e+01	3.851879e-02
2.001129819946660e-03	3.458574e+01	3.458574e-02
2.001204834705315e-03	3.109870e+01	3.109870e-02
2.001291549261668e-03	2.730295e+01	2.730295e-02
2.001374034293783e-03	2.407674e+01	2.407674e-02
2.001458844527639e-03	2.144304e+01	2.144305e-02
2.001556617222360e-03	1.917885e+01	1.917885e-02
2.001611711109458e-03	1.820531e+01	1.820531e-02
2.001678945706491e-03	1.725238e+01	1.725238e-02
2.001741634765056e-03	1.649261e+01	1.649261e-02
2.001795042330311e-03	1.592938e+01	1.592938e-02
2.001827836542804e-03	1.561870e+01	1.561871e-02
2.001866608842993e-03	1.527703e+01	1.527704e-02
2.001901249710910e-03	1.498983e+01	1.498983e-02
2.001940358542163e-03	1.468982e+01	1.468982e-02
2.002005468416945e-03	1.423134e+01	1.423134e-02
2.002071686658314e-03	1.381147e+01	1.381147e-02
2.002174243901704e-03	1.323931e+01	1.323931e-02
2.002301801263019e-03	1.262449e+01	1.262449e-02
2.002472151396189e-03	1.190555e+01	1.190555e-02
2.002510584791272e-03	1.175909e+01	1.175909e-02
2.002540967127793e-03	1.165175e+01	1.165175e-02
2.002584989633781e-03	1.150147e+01	1.150147e-02
2.002617580590295e-03	1.139390e+01	1.139390e-02
2.002659813258113e-03	1.125970e+01	1.125970e-02
2.002714664100035e-03	1.109226e+01	1.109226e-02
2.002776922188146e-03	1.091000e+01	1.091000e-02
2.002827055875065e-03	1.076949e+01	1.076949e-02
2.002884918784643e-03	1.061407e+01	1.061407e-02
2.002942083204776e-03	1.046639e+01	1.046639e-02
2.002996475491285e-03	1.033126e+01	1.033126e-02
2.003048954038438e-03	1.020572e+01	1.020572e-02
2.003107233325458e-03	1.007140e+01	1.007140e-02
2.003170566134522e-03	9.930833e+00	9.930833e-03
2.003240984791792e-03	9.780798e+00	9.780799e-03
2.003324164973990e-03	9.611416e+00	9.611417e-03
2.003431201520682e-03	9.404904e+00	9.404905e-03
2.003579704827885e-03	9.137376e+00	9.137376e-03
2.003807201995175e-03	8.762194e+00	8.762194e-03
2.004127385817965e-03	8.291046e+00	8.291047e-03
2.004613467393727e-03	7.672637e+00	7.672638e-03
2.005352313116127e-03	6.894694e+00	6.894695e-03
2.006694659289766e-03	5.801550e+00	5.801551e-03
2.008465957943277e-03	4.965108e+00	4.965109e-03
2.009372852722575e-03	5.145358e+00	5.145359e-03
2.010336625243262e-03	5.831987e+00	5.831988e-03
2.010711242055392e-03	6.077785e+00	6.077785e-03
2.011093191767145e-03	6.275726e+00	6.275726e-03
2.011315356889005e-03	6.325421e+00	6.325422e-03
2.011517151924627e-03	6.288724e+00	6.288725e-03
2.011712932433259e-03	6.235621e+00	6.235622e-03
2.011841321119711e-03	6.209128e+00	6.209129e-03
2.011886430805688e-03	6.199467e+00	6.199467e-03
2.011908948992569e-03	6.193488e+00	6.193489e-03
2.011922499324049e-03	6.189445e+00	6.189445e-03
2.011940107784490e-03	6.183808e+00	6.183809e-03
2.011961375206436e-03	6.176650e+00	6.176651e-03
2.011991589191224e-03	6.166048e+00	6.166048e-03
2.012031454750251e-03	6.151793e+00	6.151794e-03
2.012067292992475e-03	6.139078e+00	6.139079e-03
2.012097410593812e-03	6.128749e+00	6.128749e-03
2.012132650734509e-03	6.117186e+00	6.117187e-03
2.012153372225223e-03	6.110689e+00	6.110690e-03
2.012169226590691e-03	6.105914e+00	6.105914e-03
2.012188225043484e-03	6.100376e+00	6.100376e-03
2.012208662966350e-03	6.094601e+00	6.094601e-03
2.012232853999448e-03	6.087953e+00	6.087953e-03
2.012259357573283e-03	6.080836e+00	6.080836e-03
2.012294056085735e-03	6.071620e+00	6.071621e-03
2.012340874553366e-03	6.059096e+00	6.059097e-03
2.012406493011433e-03	6.041039e+00	6.041040e-03
2.012485681255229e-03	6.018467e+00	6.018468e-03
2.012566994273209e-03	5.994825e+00	5.994826e-03
2.012689579779211e-03	5.959670e+00	5.959671e-03
2.012877342816223e-03	5.907603e+00	5.907604e-03
2.013101533757740e-03	5.846948e+00	5.846949e-03
2.013329432587971e-03	5.786373e+00	5.786373e-03
2.013649124331065e-03	5.703652e+00	5.703653e-03
2.013987531957875e-03	5.619296e+00	5.619296e-03
2.014519497874517e-03	5.493220e+00	5.493220e-03
2.015413207669828e-03	5.294597e+00	5.294597e-03
2.016254951979765e-03	5.123157e+00	5.123158e-03
2.017541740097651e-03	4.889948e+00	4.889949e-03
2.019293443055935e-03	4.616211e+00	4.616212e-03
2.021541323086697e-03	4.328819e+00	4.328820e-03
2.024629225424774e-03	4.026498e+00	4.026499e-03
2.028807046550094e-03	3.734618e+00	3.734618e-03
2.033500568273178e-03	3.517277e+00	3.517278e-03
2.038618815052755e-03	3.368756e+00	3.368756e-03
2.043280627472804e-03	3.285784e+00	3.285785e-03
2.048055069684058e-03	3.234012e+00	3.234012e-03
2.052692226279951e-03	3.202881e+00	3.202881e-03
2.057542199336224e-03	3.182826e+00	3.182826e-03
2.062313504589783e-03	3.170678e+00	3.170679e-03
2.067251688588090e-03	3.163021e+00	3.163021e-03
2.072197524691442e-03	3.158373e+00	3.158373e-03
2.077393317317041e-03	3.155459e+00	3.155459e-03
2.082778325419522e-03	3.153690e+00	3.153690e-03
2.088632751524704e-03	3.152600e+00	3.152600e-03
2.095032553937054e-03	3.151950e+00	3.151950e-03
2.101868491437054e-03	3.151588e+00	3.151588e-03
2.108704428937054e-03	3.151405e+00	3.151405e-03
2.115540366437054e-03	3.151314e+00	3.151314e-03
2.122376303937054e-03	3.151269e+00	3.151269e-03
2.129212241437054e-03	3.151246e+00	3.151246e-03
2.136048178937054e-03	3.151233e+00	3.151234e-03
2.142884116437054e-03	3.151225e+00	3.151226e-03
2.149720053937054e-03	3.151220e+00	3.151220e-03
2.156555991437054e-03	3.151215e+00	3.151216e-03
2.163391928937054e-03	3.151212e+00	3.151212e-03
2.170227866437054e-03	3.151210e+00	3.151211e-03
2.177063803937054e-03	3.151210e+00	3.151210e-03
2.183899741437054e-03	3.151210e+00	3.151210e-03
2.190735678937054e-03	3.151209e+00	3.151209e-03
2.197571616437054e-03	3.151207e+00	3.151208e-03
2.204407553937054e-03	3.151206e+00	3.151206e-03
2.211243491437054e-03	3.151205e+00	3.151205e-03
2.218079428937054e-03	3.151203e+00	3.151204e-03
2.224915366437054e-03	3.151201e+00	3.151202e-03
2.231751303937054e-03	3.151196e+00	3.151196e-03
2.238587241437054e-03	3.151172e+00	3.151173e-03
2.245423178937054e-03	3.151010e+00	3.151010e-03
2.252259116437054e-03	3.149759e+00	3.149759e-03
2.252464203733641e-03	3.149988e+00	3.149989e-03
2.252874378326814e-03	3.150480e+00	3.150480e-03
2.253427721401339e-03	3.150383e+00	3.150383e-03
2.254070468456764e-03	3.150259e+00	3.150259e-03
2.254984528048864e-03	3.150046e+00	3.150046e-03
2.256680052954228e-03	3.149508e+00	3.149508e-03
2.259086485369516e-03	3.148189e+00	3.148190e-03
2.263899350200091e-03	3.143139e+00	3.143139e-03
2.268279762537940e-03	3.133147e+00	3.133147e-03
2.273762222296714e-03	3.106269e+00	3.106270e-03
2.280222780854759e-03	3.044924e+00	3.044924e-03
2.287058718354759e-03	2.934652e+00	2.934652e-03
2.293894655854758e-03	2.780390e+00	2.780390e-03
2.300730593354759e-03	2.610871e+00	2.610872e-03
2.307566530854759e-03	2.461803e+00	2.461803e-03
2.314402468354759e-03	2.347619e+00	2.347619e-03
2.321238405854758e-03	2.264435e+00	2.264435e-03
2.328074343354759e-03	2.204645e+00	2.204645e-03
2.334910280854759e-03	2.161843e+00	2.161843e-03
2.341746218354759e-03	2.131244e+00	2.131244e-03
2.348582155854758e-03	2.109376e+00	2.109376e-03
2.355418093354759e-03	2.093753e+00	2.093753e-03
2.362254030854759e-03	2.082591e+00	2.082591e-03
2.369089968354759e-03	2.074614e+00	2.074614e-03
2.375925905854758e-03	2.068910e+00	2.068911e-03
2.382761843354759e-03	2.064830e+00	2.064830e-03
2.389597780854759e-03	2.061909e+00	2.061909e-03
2.396433718354759e-03	2.059816e+00	2.059816e-03
2.403269655854759e-03	2.058315e+00	2.058315e-03
2.410105593354759e-03	2.057235e+00	2.057235e-03
2.416941530854759e-03	2.056457e+00	2.056457e-03
2.423777468354758e-03	2.055895e+00	2.055896e-03
2.430613405854759e-03	2.055488e+00	2.055489e-03
2.437449343354759e-03	2.055192e+00	2.055192e-03
2.444285280854759e-03	2.054974e+00	2.054974e-03
2.451121218354758e-03	2.054814e+00	2.054814e-03
2.457957155854759e-03	2.054694e+00	2.054695e-03
2.464793093354759e-03	2.054605e+00	2.054605e-03
2.471629030854759e-03	2.054536e+00	2.054536e-03
2.478464968354758e-03	2.054483e+00	2.054484e-03
2.485300905854759e-03	2.054442e+00	2.054442e-03
2.492136843354759e-03	2.054409e+00	2.054409e-03
2.498972780854759e-03	2.054382e+00	2.054382e-03
2.505808718354758e-03	2.054360e+00	2.054360e-03
2.512644655854759e-03	2.054341e+00	2.054341e-03
2.519480593354759e-03	2.054325e+00	2.054325e-03
2.526316530854759e-03	2.054311e+00	2.054311e-03
2.533152468354759e-03	2.054299e+00	2.054299e-03
2.539988405854759e-03	2.054288e+00	2.054288e-03
2.546824343354759e-03	2.054278e+00	2.054278e-03
2.553660280854758e-03	2.054269e+00	2.054269e-03
2.560496218354759e-03	2.054261e+00	2.054261e-03
2.567332155854759e-03	2.054254e+00	2.054254e-03
2.574168093354759e-03	2.054247e+00	2.054247e-03
2.581004030854758e-03	2.054241e+00	2.054241e-03
2.587839968354759e-03	2.054235e+00	2.054235e-03
2.594675905854759e-03	2.054229e+00	2.054229e-03
2.601511843354759e-03	2.054224e+00	2.054224e-03
2.608347780854758e-03	2.054219e+00	2.054220e-03
2.615183718354759e-03	2.054215e+00	2.054215e-03
2.622019655854759e-03	2.054211e+00	2.054211e-03
2.628855593354759e-03	2.054207e+00	2.054207e-03
2.635691530854758e-03	2.054204e+00	2.054204e-03
2.642527468354759e-03	2.054200e+00	2.054201e-03
2.649363405854759e-03	2.054197e+00	2.054198e-03
2.656199343354758e-03	2.054194e+00	2.054195e-03
2.663035280854759e-03	2.054192e+00	2.054192e-03
2.669871218354759e-03	2.054189e+00	2.054190e-03
2.676707155854759e-03	2.054187e+00	2.054187e-03
2.683543093354758e-03	2.054185e+00	2.054185e-03
2.690379030854759e-03	2.054183e+00	2.054183e-03
2.697214968354759e-03	2.054181e+00	2.054181e-03
2.704050905854759e-03	2.054179e+00	2.054179e-03
2.710886843354758e-03	2.054177e+00	2.054178e-03
2.717722780854759e-03	2.054176e+00	2.054176e-03
2.724558718354759e-03	2.054174e+00	2.054175e-03
2.731394655854759e-03	2.054173e+00	2.054173e-03
2.738230593354758e-03	2.054172e+00	2.054172e-03
2.745066530854759e-03	2.054171e+00	2.054171e-03
2.751902468354759e-03	2.054170e+00	2.054170e-03
2.758738405854759e-03	2.054168e+00	2.054169e-03
2.765574343354758e-03	2.054168e+00	2.054168e-03
2.772410280854759e-03	2.054167e+00	2.054167e-03
2.779246218354759e-03	2.054166e+00	2.054166e-03
2.786082155854758e-03	2.054165e+00	2.054165e-03
2.792918093354759e-03	2.054164e+00	2.054165e-03
2.799754030854759e-03	2.054164e+00	2.054164e-03
2.806589968354759e-03	2.054163e+00	2.054163e-03
2.813425905854758e-03	2.054163e+00	2.054163e-03
2.820261843354759e-03	2.054162e+00	2.054162e-03
2.827097780854759e-03	2.054161e+00	2.054162e-03
2.833933718354759e-03	2.054161e+00	2.054161e-03
2.840769655854758e-03	2.054160e+00	2.054161e-03
2.854441530854759e-03	2.054160e+00	2.054160e-03
2.861277468354759e-03	2.054159e+00	2.054160e-03
2.868113405854758e-03	2.054159e+00	2.054159e-03
2.874949343354759e-03	2.054159e+00	2.054159e-03
2.881785280854759e-03	2.054158e+00	2.054159e-03
2.888621218354759e-03	2.054158e+00	2.054158e-03
2.895457155854759e-03	2.054158e+00	2.054158e-03
2.902293093354759e-03	2.054157e+00	2.054158e-03
2.909129030854759e-03	2.054157e+00	2.054157e-03
2.915964968354758e-03	2.054157e+00	2.054157e-03
2.922800905854759e-03	2.054157e+00	2.054157e-03
2.929636843354759e-03	2.054157e+00	2.054157e-03
2.936472780854759e-03	2.054157e+00	2.054157e-03
2.943308718354758e-03	2.054156e+00	2.054157e-03
2.950144655854759e-03	2.054156e+00	2.054157e-03
2.956980593354759e-03	2.054156e+00	2.054156e-03
2.963816530854759e-03	2.054156e+00	2.054156e-03
2.970652468354758e-03	2.054156e+00	2.054156e-03
2.977488405854759e-03	2.054156e+00	2.054156e-03
2.984324343354759e-03	2.054156e+00	2.054156e-03
2.991160280854759e-03	2.054156e+00	2.054156e-03
2.997996218354758e-03	2.054155e+00	2.054156e-03
3.004832155854759e-03	2.054155e+00	2.054156e-03
3.011668093354759e-03	2.054155e+00	2.054156e-03
3.018504030854758e-03	2.054155e+00	2.054155e-03
3.025339968354759e-03	2.054155e+00	2.054155e-03
3.032175905854759e-03	2.054155e+00	2.054155e-03
3.039011843354759e-03	2.054155e+00	2.054155e-03
3.045847780854758e-03	2.054155e+00	2.054155e-03
3.052683718354759e-03	2.054155e+00	2.054155e-03
3.059519655854759e-03	2.054155e+00	2.054155e-03
3.066355593354759e-03	2.054155e+00	2.054155e-03
3.073191530854758e-03	2.054155e+00	2.054155e-03
3.080027468354759e-03	2.054155e+00	2.054155e-03
3.086863405854759e-03	2.054155e+00	2.054155e-03
3.093699343354759e-03	2.054155e+00	2.054155e-03
3.100535280854758e-03	2.054155e+00	2.054155e-03
3.107371218354759e-03	2.054155e+00	2.054155e-03
3.114207155854759e-03	2.054154e+00	2.054155e-03
3.121043093354759e-03	2.054154e+00	2.054155e-03
3.134714968354759e-03	2.054154e+00	2.054155e-03
3.141550905854759e-03	2.054154e+00	2.054155e-03
3.148386843354758e-03	2.054154e+00	2.054155e-03
3.155222780854759e-03	2.054154e+00	2.054155e-03
3.162058718354759e-03	2.054154e+00	2.054155e-03
3.168894655854759e-03	2.054154e+00	2.054155e-03
3.175730593354758e-03	2.054154e+00	2.054155e-03
3.182566530854759e-03	2.054154e+00	2.054155e-03
3.189402468354759e-03	2.054154e+00	2.054154e-03
3.196238405854759e-03	2.054154e+00	2.054154e-03
3.203074343354758e-03	2.054154e+00	2.054154e-03
3.209910280854759e-03	2.054154e+00	2.054154e-03
3.223582155854759e-03	2.054154e+00	2.054154e-03
3.237254030854759e-03	2.054154e+00	2.054154e-03
3.244089968354759e-03	2.054154e+00	2.054154e-03
3.250925905854759e-03	2.054154e+00	2.054154e-03
3.257761843354759e-03	2.054154e+00	2.054154e-03
3.264597780854759e-03	2.054154e+00	2.054154e-03
3.271433718354759e-03	2.054154e+00	2.054154e-03
3.278269655854758e-03	2.054154e+00	2.054154e-03
3.285105593354759e-03	2.054154e+00	2.054154e-03
3.298777468354759e-03	2.054154e+00	2.054154e-03
3.312449343354759e-03	2.054154e+00	2.054154e-03
3.326121218354759e-03	2.054154e+00	2.054154e-03
3.339793093354759e-03	2.054154e+00	2.054154e-03
3.360300905854758e-03	2.054154e+00	2.054154e-03
3.373972780854759e-03	2.054154e+00	2.054154e-03
3.387644655854759e-03	2.054154e+00	2.054154e-03
3.401316530854759e-03	2.054154e+00	2.054154e-03
3.414988405854759e-03	2.054154e+00	2.054154e-03
3.435496218354758e-03	2.054154e+00	2.054154e-03
3.993164062500000e-03	2.054154e+00	2.054154e-03
4.000000000000000e-03	1.029079e+00	9.532474e-01
4.000013351440430e-03	5.782002e-03	1.905239e+00
4.000013427028807e-03	1.931608e-10	1.912484e+00
4.000013578205564e-03	1.937315e-10	1.918133e+00
4.000013796055458e-03	1.941400e-10	1.922178e+00
4.000014013170635e-03	1.943634e-10	1.924390e+00
4.000014229013383e-03	1.945394e-10	1.926133e+00
4.000014443907953e-03	1.946896e-10	1.927621e+00
4.000014840156690e-03	1.949183e-10	1.929885e+00
