time	V(vout)	-I(Rl)
0.000000000000000e+000	9.996057e+000	1.009602e-009
1.999000000000000e-003	9.996057e+000	1.009602e-009
1.999004923631978e-003	9.448872e+000	6.116852e-001
1.999014770895935e-003	9.191786e+000	9.191785e-001
1.999016893966214e-003	9.203712e+000	9.203712e-001
1.999018329811095e-003	9.211293e+000	9.211293e-001
1.999019175753126e-003	9.216171e+000	9.216172e-001
1.999020170539958e-003	9.222749e+000	9.222748e-001
1.999021089380013e-003	9.227983e+000	9.227982e-001
1.999021818778611e-003	9.232350e+000	9.232351e-001
1.999022462807277e-003	9.235990e+000	9.235989e-001
1.999023117434673e-003	9.239891e+000	9.239891e-001
1.999023753184584e-003	9.243542e+000	9.243542e-001
1.999024500140912e-003	9.247893e+000	9.247893e-001
1.999025425154049e-003	9.253201e+000	9.253200e-001
1.999026686357011e-003	9.260392e+000	9.260392e-001
1.999028605601812e-003	9.271136e+000	9.271136e-001
1.999031621320683e-003	9.287485e+000	9.287485e-001
1.999036877696588e-003	9.314511e+000	9.314511e-001
1.999042777642436e-003	9.342644e+000	9.342644e-001
1.999048887347006e-003	9.369077e+000	9.369076e-001
1.999055162817962e-003	9.393402e+000	9.393402e-001
1.999061305281713e-003	9.414529e+000	9.414529e-001
1.999067777652405e-003	9.434089e+000	9.434089e-001
1.999074678365628e-003	9.452137e+000	9.452136e-001
1.999082945706560e-003	9.470359e+000	9.470358e-001
1.999093427633937e-003	9.489268e+000	9.489268e-001
1.999105041721158e-003	9.505837e+000	9.505838e-001
1.999119809454795e-003	9.522264e+000	9.522265e-001
1.999134856690634e-003	9.535939e+000	9.535939e-001
1.999147370785714e-003	9.546372e+000	9.546372e-001
1.999157877193352e-003	9.556114e+000	9.556113e-001
1.999170149050880e-003	9.571165e+000	9.571165e-001
1.999181745775379e-003	9.592422e+000	9.592422e-001
1.999194504925446e-003	9.628716e+000	9.628715e-001
1.999208896396067e-003	9.689485e+000	9.689485e-001
1.999224335640862e-003	9.779079e+000	9.779080e-001
1.999241210096076e-003	9.901469e+000	9.901469e-001
1.999255561179307e-003	1.001997e+001	1.001997e+000
1.999262175268422e-003	1.007781e+001	1.007781e+000
1.999265561772515e-003	1.010786e+001	1.010786e+000
1.999268018007334e-003	1.012966e+001	1.012966e+000
1.999270645764134e-003	1.015290e+001	1.015290e+000
1.999273219465216e-003	1.017556e+001	1.017556e+000
1.999275946335010e-003	1.019941e+001	1.019941e+000
1.999278227809182e-003	1.021922e+001	1.021922e+000
1.999280132848793e-003	1.023562e+001	1.023562e+000
1.999282202471150e-003	1.025328e+001	1.025328e+000
1.999284435350901e-003	1.027210e+001	1.027210e+000
1.999287927838345e-003	1.030108e+001	1.030108e+000
1.999291497341123e-003	1.033005e+001	1.033005e+000
1.999296277180044e-003	1.036778e+001	1.036778e+000
1.999300710439227e-003	1.040167e+001	1.040167e+000
1.999305389023380e-003	1.043621e+001	1.043621e+000
1.999309013532050e-003	1.046204e+001	1.046204e+000
1.999311993949801e-003	1.048250e+001	1.048250e+000
1.999315520945949e-003	1.050581e+001	1.050581e+000
1.999318949591947e-003	1.052768e+001	1.052768e+000
1.999321043590395e-003	1.054057e+001	1.054057e+000
1.999323161952959e-003	1.055317e+001	1.055317e+000
1.999325733058075e-003	1.056797e+001	1.056797e+000
1.999328530070130e-003	1.058345e+001	1.058345e+000
1.999331605712301e-003	1.059969e+001	1.059969e+000
1.999335215255817e-003	1.061764e+001	1.061764e+000
1.999340234232568e-003	1.064096e+001	1.064096e+000
1.999343894391978e-003	1.065668e+001	1.065668e+000
1.999347707376727e-003	1.067164e+001	1.067164e+000
1.999352505330948e-003	1.068867e+001	1.068867e+000
1.999357431352717e-003	1.070411e+001	1.070411e+000
1.999363064127598e-003	1.071922e+001	1.071922e+000
1.999368912780658e-003	1.073209e+001	1.073209e+000
1.999375518047520e-003	1.074281e+001	1.074281e+000
1.999386121558072e-003	1.075212e+001	1.075212e+000
1.999403720406641e-003	1.075377e+001	1.075377e+000
1.999418003750098e-003	1.074551e+001	1.074551e+000
1.999430082834836e-003	1.073341e+001	1.073341e+000
1.999441312345100e-003	1.072091e+001	1.072091e+000
1.999452379653604e-003	1.070906e+001	1.070906e+000
1.999464470798399e-003	1.069701e+001	1.069701e+000
1.999478150315476e-003	1.068410e+001	1.068410e+000
1.999494982074389e-003	1.066874e+001	1.066874e+000
1.999512005786882e-003	1.065354e+001	1.065354e+000
1.999528921519190e-003	1.063871e+001	1.063871e+000
1.999547728888405e-003	1.062253e+001	1.062253e+000
1.999567565640666e-003	1.060579e+001	1.060579e+000
1.999588314608722e-003	1.058872e+001	1.058872e+000
1.999610537418807e-003	1.057181e+001	1.057181e+000
1.999631630931090e-003	1.055808e+001	1.055808e+000
1.999654314794844e-003	1.054442e+001	1.054442e+000
1.999677469602943e-003	1.052935e+001	1.052935e+000
1.999704069646994e-003	1.051056e+001	1.051056e+000
1.999731230578825e-003	1.049077e+001	1.049077e+000
1.999759539107110e-003	1.047010e+001	1.047010e+000
1.999790802408230e-003	1.044760e+001	1.044760e+000
1.999824510113391e-003	1.042386e+001	1.042386e+000
1.999860835598390e-003	1.039895e+001	1.039895e+000
1.999903313674143e-003	1.037076e+001	1.037076e+000
1.999968112567407e-003	1.032938e+001	1.032938e+000
2.000033592259352e-003	1.028930e+001	1.028930e+000
2.000098383660184e-003	1.025162e+001	1.025162e+000
2.000199398421855e-003	1.019593e+001	1.019593e+000
2.000291698560201e-003	1.014779e+001	1.014778e+000
2.000379648272222e-003	1.010427e+001	1.010427e+000
2.000434763237633e-003	1.007821e+001	1.007821e+000
2.000494760320308e-003	1.005094e+001	1.005094e+000
2.000550874588034e-003	1.002637e+001	1.002637e+000
2.000646734093646e-003	9.985844e+000	9.985843e-001
2.000695118201826e-003	9.965976e+000	9.965976e-001
2.000735968670135e-003	9.949648e+000	9.949648e-001
2.000786289181561e-003	9.929951e+000	9.929950e-001
2.000831901013261e-003	9.912431e+000	9.912431e-001
2.000858261590742e-003	9.902491e+000	9.902490e-001
2.000889400482408e-003	9.890948e+000	9.890949e-001
2.000927780710036e-003	9.876949e+000	9.876949e-001
2.000964026895314e-003	9.863957e+000	9.863957e-001
2.001000734263631e-003	9.851046e+000	9.851045e-001
2.001040469874531e-003	9.837353e+000	9.837353e-001
2.001086093039115e-003	9.822025e+000	9.822026e-001
2.001138046725818e-003	9.805198e+000	9.805198e-001
2.001197789080381e-003	9.787110e+000	9.787110e-001
2.001271220373713e-003	9.767814e+000	9.767814e-001
2.001346925962260e-003	9.752784e+000	9.752784e-001
2.001406285225544e-003	9.746020e+000	9.746020e-001
2.001458513848227e-003	9.744308e+000	9.744308e-001
2.001493136114754e-003	9.745288e+000	9.745288e-001
2.001528335428018e-003	9.747740e+000	9.747739e-001
2.001567518085758e-003	9.751403e+000	9.751402e-001
2.001605177570638e-003	9.755413e+000	9.755413e-001
2.001649257582620e-003	9.760291e+000	9.760292e-001
2.001684487301773e-003	9.764124e+000	9.764124e-001
2.001719714313676e-003	9.767793e+000	9.767793e-001
2.001754948878923e-003	9.771265e+000	9.771265e-001
2.001806528123630e-003	9.776072e+000	9.776071e-001
2.001861031669346e-003	9.780924e+000	9.780924e-001
2.001927294202907e-003	9.786662e+000	9.786662e-001
2.002009764348529e-003	9.793773e+000	9.793772e-001
2.002111294285311e-003	9.802610e+000	9.802610e-001
2.002227905206062e-003	9.812869e+000	9.812869e-001
2.002352301905072e-003	9.823859e+000	9.823859e-001
2.002561977037454e-003	9.842346e+000	9.842347e-001
2.002843013797182e-003	9.866964e+000	9.866965e-001
2.003056361312578e-003	9.885355e+000	9.885355e-001
2.003261826379776e-003	9.902438e+000	9.902438e-001
2.003480675647887e-003	9.919400e+000	9.919401e-001
2.003714122884653e-003	9.934963e+000	9.934964e-001
2.004088388485730e-003	9.954601e+000	9.954602e-001
2.004376104301508e-003	9.965425e+000	9.965425e-001
2.004679844223962e-003	9.972836e+000	9.972836e-001
2.005063789015664e-003	9.978653e+000	9.978653e-001
2.005549594864388e-003	9.982777e+000	9.982776e-001
2.006156467233759e-003	9.985311e+000	9.985311e-001
2.006802179669543e-003	9.986466e+000	9.986466e-001
2.007571519025969e-003	9.986961e+000	9.986961e-001
2.008725946830774e-003	9.987199e+000	9.987199e-001
2.010006801196072e-003	9.987287e+000	9.987286e-001
2.012568509926667e-003	9.987378e+000	9.987378e-001
2.015732709980387e-003	9.987484e+000	9.987485e-001
2.022061110087829e-003	9.987697e+000	9.987697e-001
2.028897047587828e-003	9.987924e+000	9.987924e-001
2.035732985087828e-003	9.988145e+000	9.988145e-001
2.042568922587828e-003	9.988361e+000	9.988361e-001
2.049404860087829e-003	9.988570e+000	9.988570e-001
2.056240797587828e-003	9.988773e+000	9.988773e-001
2.063076735087828e-003	9.988970e+000	9.988970e-001
2.069912672587829e-003	9.989160e+000	9.989160e-001
2.076748610087829e-003	9.989344e+000	9.989344e-001
2.083584547587828e-003	9.989521e+000	9.989522e-001
2.090420485087828e-003	9.989694e+000	9.989694e-001
2.097256422587829e-003	9.989860e+000	9.989860e-001
2.104092360087829e-003	9.990021e+000	9.990021e-001
2.110928297587828e-003	9.990176e+000	9.990177e-001
2.117764235087828e-003	9.990327e+000	9.990327e-001
2.124600172587829e-003	9.990472e+000	9.990472e-001
2.131436110087829e-003	9.990612e+000	9.990612e-001
2.138272047587828e-003	9.990748e+000	9.990748e-001
2.145107985087828e-003	9.990879e+000	9.990879e-001
2.151943922587829e-003	9.991006e+000	9.991006e-001
2.158779860087828e-003	9.991128e+000	9.991128e-001
2.165615797587828e-003	9.991246e+000	9.991246e-001
2.172451735087828e-003	9.991361e+000	9.991360e-001
2.179287672587829e-003	9.991470e+000	9.991471e-001
2.186123610087828e-003	9.991577e+000	9.991577e-001
2.192959547587828e-003	9.991679e+000	9.991680e-001
2.199795485087829e-003	9.991778e+000	9.991779e-001
2.206631422587829e-003	9.991875e+000	9.991875e-001
2.213467360087828e-003	9.991967e+000	9.991967e-001
2.220303297587828e-003	9.992056e+000	9.992056e-001
2.227139235087829e-003	9.992143e+000	9.992143e-001
2.233975172587829e-003	9.992226e+000	9.992226e-001
2.240811110087828e-003	9.992306e+000	9.992306e-001
2.247647047587828e-003	9.992383e+000	9.992383e-001
2.254482985087829e-003	9.992458e+000	9.992458e-001
2.261318922587829e-003	9.992530e+000	9.992530e-001
2.268154860087828e-003	9.992599e+000	9.992600e-001
2.274990797587828e-003	9.992667e+000	9.992667e-001
2.281826735087829e-003	9.992732e+000	9.992732e-001
2.288662672587828e-003	9.992794e+000	9.992794e-001
2.295498610087828e-003	9.992855e+000	9.992855e-001
2.302334547587828e-003	9.992912e+000	9.992913e-001
2.309170485087829e-003	9.992970e+000	9.992969e-001
2.316006422587828e-003	9.993023e+000	9.993023e-001
2.322842360087828e-003	9.993075e+000	9.993075e-001
2.329678297587829e-003	9.993126e+000	9.993126e-001
2.336514235087829e-003	9.993175e+000	9.993175e-001
2.343350172587828e-003	9.993221e+000	9.993222e-001
2.350186110087828e-003	9.993267e+000	9.993267e-001
2.357022047587829e-003	9.993310e+000	9.993311e-001
2.363857985087829e-003	9.993352e+000	9.993352e-001
2.370693922587828e-003	9.993393e+000	9.993393e-001
2.377529860087828e-003	9.993432e+000	9.993432e-001
2.384365797587829e-003	9.993470e+000	9.993470e-001
2.391201735087828e-003	9.993506e+000	9.993507e-001
2.398037672587828e-003	9.993542e+000	9.993541e-001
2.404873610087828e-003	9.993576e+000	9.993575e-001
2.411709547587829e-003	9.993608e+000	9.993608e-001
2.418545485087828e-003	9.993639e+000	9.993639e-001
2.425381422587828e-003	9.993670e+000	9.993670e-001
2.432217360087829e-003	9.993699e+000	9.993699e-001
2.439053297587829e-003	9.993727e+000	9.993727e-001
2.445889235087828e-003	9.993754e+000	9.993755e-001
2.452725172587828e-003	9.993780e+000	9.993781e-001
2.459561110087829e-003	9.993806e+000	9.993806e-001
2.466397047587829e-003	9.993830e+000	9.993830e-001
2.473232985087828e-003	9.993854e+000	9.993854e-001
2.480068922587828e-003	9.993876e+000	9.993876e-001
2.486904860087829e-003	9.993898e+000	9.993898e-001
2.493740797587829e-003	9.993919e+000	9.993919e-001
2.500576735087828e-003	9.993939e+000	9.993939e-001
2.507412672587828e-003	9.993959e+000	9.993959e-001
2.514248610087829e-003	9.993978e+000	9.993978e-001
2.521084547587828e-003	9.993996e+000	9.993997e-001
2.527920485087828e-003	9.994014e+000	9.994014e-001
2.534756422587828e-003	9.994030e+000	9.994031e-001
2.541592360087829e-003	9.994047e+000	9.994047e-001
2.548428297587828e-003	9.994062e+000	9.994063e-001
2.555264235087828e-003	9.994078e+000	9.994078e-001
2.562100172587829e-003	9.994093e+000	9.994092e-001
2.568936110087829e-003	9.994106e+000	9.994106e-001
2.575772047587828e-003	9.994120e+000	9.994120e-001
2.582607985087828e-003	9.994133e+000	9.994133e-001
2.589443922587829e-003	9.994145e+000	9.994146e-001
2.603115797587828e-003	9.994169e+000	9.994169e-001
2.609951735087828e-003	9.994181e+000	9.994181e-001
2.616787672587829e-003	9.994191e+000	9.994192e-001
2.623623610087829e-003	9.994202e+000	9.994202e-001
2.630459547587828e-003	9.994212e+000	9.994212e-001
2.637295485087828e-003	9.994223e+000	9.994222e-001
2.644131422587829e-003	9.994231e+000	9.994231e-001
2.650967360087828e-003	9.994240e+000	9.994240e-001
2.657803297587828e-003	9.994249e+000	9.994249e-001
2.664639235087828e-003	9.994257e+000	9.994258e-001
2.671475172587829e-003	9.994266e+000	9.994265e-001
2.678311110087828e-003	9.994273e+000	9.994273e-001
2.691982985087829e-003	9.994288e+000	9.994288e-001
2.698818922587829e-003	9.994295e+000	9.994295e-001
2.705654860087828e-003	9.994302e+000	9.994302e-001
2.712490797587828e-003	9.994308e+000	9.994308e-001
2.719326735087829e-003	9.994314e+000	9.994314e-001
2.726162672587829e-003	9.994320e+000	9.994320e-001
2.732998610087828e-003	9.994326e+000	9.994326e-001
2.739834547587828e-003	9.994331e+000	9.994332e-001
2.746670485087829e-003	9.994337e+000	9.994338e-001
2.753506422587828e-003	9.994343e+000	9.994342e-001
2.760342360087828e-003	9.994348e+000	9.994348e-001
2.767178297587828e-003	9.994352e+000	9.994352e-001
2.780850172587828e-003	9.994361e+000	9.994361e-001
2.794522047587828e-003	9.994370e+000	9.994370e-001
2.808193922587828e-003	9.994378e+000	9.994377e-001
2.815029860087828e-003	9.994382e+000	9.994382e-001
2.821865797587829e-003	9.994385e+000	9.994385e-001
2.828701735087829e-003	9.994389e+000	9.994389e-001
2.835537672587828e-003	9.994391e+000	9.994392e-001
2.842373610087828e-003	9.994395e+000	9.994395e-001
2.856045485087829e-003	9.994401e+000	9.994401e-001
2.869717360087828e-003	9.994407e+000	9.994407e-001
2.883389235087828e-003	9.994412e+000	9.994412e-001
2.897061110087828e-003	9.994417e+000	9.994417e-001
2.917568922587828e-003	9.994423e+000	9.994423e-001
2.931240797587829e-003	9.994428e+000	9.994428e-001
2.944912672587828e-003	9.994431e+000	9.994431e-001
2.958584547587829e-003	9.994434e+000	9.994435e-001
2.979092360087829e-003	9.994440e+000	9.994439e-001
2.996670485087828e-003	9.994443e+000	9.994443e-001
3.014248610087829e-003	9.994446e+000	9.994446e-001
3.031826735087828e-003	9.994449e+000	9.994449e-001
3.049404860087829e-003	9.994452e+000	9.994452e-001
3.066982985087828e-003	9.994454e+000	9.994455e-001
3.084561110087829e-003	9.994457e+000	9.994457e-001
3.102139235087828e-003	9.994459e+000	9.994459e-001
3.120693922587829e-003	9.994461e+000	9.994461e-001
3.139248610087828e-003	9.994463e+000	9.994463e-001
3.157803297587828e-003	9.994464e+000	9.994464e-001
3.176357985087829e-003	9.994466e+000	9.994466e-001
3.194912672587829e-003	9.994467e+000	9.994467e-001
3.213467360087828e-003	9.994468e+000	9.994469e-001
3.232022047587828e-003	9.994470e+000	9.994470e-001
3.253506422587828e-003	9.994471e+000	9.994471e-001
3.274990797587828e-003	9.994472e+000	9.994472e-001
3.296475172587828e-003	9.994473e+000	9.994472e-001
3.317959547587829e-003	9.994474e+000	9.994473e-001
3.339443922587828e-003	9.994475e+000	9.994474e-001
3.360928297587829e-003	9.994475e+000	9.994475e-001
3.382412672587828e-003	9.994475e+000	9.994476e-001
3.408779860087829e-003	9.994476e+000	9.994476e-001
3.435147047587828e-003	9.994477e+000	9.994477e-001
3.461514235087828e-003	9.994477e+000	9.994477e-001
3.487881422587828e-003	9.994477e+000	9.994477e-001
3.514248610087829e-003	9.994478e+000	9.994478e-001
3.540615797587828e-003	9.994478e+000	9.994478e-001
3.566982985087828e-003	9.994478e+000	9.994478e-001
3.604092360087828e-003	9.994478e+000	9.994479e-001
3.641201735087828e-003	9.994479e+000	9.994479e-001
3.678311110087828e-003	9.994479e+000	9.994479e-001
3.715420485087829e-003	9.994479e+000	9.994479e-001
3.752529860087828e-003	9.994480e+000	9.994480e-001
3.789639235087829e-003	9.994480e+000	9.994480e-001
3.826748610087828e-003	9.994480e+000	9.994479e-001
3.850379389003853e-003	9.994480e+000	9.994479e-001
3.874010167919877e-003	9.994480e+000	9.994479e-001
3.897640946835902e-003	9.994480e+000	9.994479e-001
3.921271725751927e-003	9.994480e+000	9.994479e-001
3.944902504667951e-003	9.994480e+000	9.994479e-001
3.968533283583976e-003	9.994480e+000	9.994479e-001
3.992164062500000e-003	9.994480e+000	9.994479e-001
3.994869967324343e-003	9.994480e+000	9.994479e-001
3.999000000000000e-003	1.044838e+001	5.007481e-001
3.999008473740257e-003	1.060867e+001	3.331499e-001
3.999025421220772e-003	1.093415e+001	1.104350e-009
3.999029432204163e-003	1.092835e+001	1.103763e-009
3.999030242909862e-003	1.092819e+001	1.103747e-009
3.999031046976347e-003	1.092845e+001	1.103773e-009
3.999031772646691e-003	1.092763e+001	1.103691e-009
3.999032526313632e-003	1.092741e+001	1.103669e-009
3.999033275217102e-003	1.092693e+001	1.103619e-009
3.999034111844704e-003	1.092658e+001	1.103584e-009
3.999035316716537e-003	1.092600e+001	1.103526e-009
3.999037232192643e-003	1.092523e+001	1.103448e-009
3.999040462965603e-003	1.092398e+001	1.103322e-009
3.999044725172437e-003	1.092244e+001	1.103167e-009
3.999048323963671e-003	1.092119e+001	1.103040e-009
3.999052081693006e-003	1.091990e+001	1.102910e-009
3.999056148586666e-003	1.091851e+001	1.102770e-009
3.999061492795958e-003	1.091671e+001	1.102587e-009
3.999070304781710e-003	1.091374e+001	1.102288e-009
3.999079905510381e-003	1.091053e+001	1.101964e-009
3.999090930938273e-003	1.090689e+001	1.101596e-009
3.999106032869638e-003	1.090195e+001	1.101097e-009
3.999122085648096e-003	1.089680e+001	1.100577e-009
3.999139775893078e-003	1.089148e+001	1.100040e-009
3.999156183965675e-003	1.088763e+001	1.099651e-009
3.999168716772089e-003	1.088590e+001	1.099476e-009
3.999181065902826e-003	1.088475e+001	1.099360e-009
3.999193303462122e-003	1.088323e+001	1.099207e-009
3.999206491298742e-003	1.088095e+001	1.098976e-009
3.999219853312081e-003	1.087807e+001	1.098685e-009
3.999235018169475e-003	1.087429e+001	1.098303e-009
3.999251680675819e-003	1.086975e+001	1.097844e-009
3.999267429326460e-003	1.086522e+001	1.097388e-009
3.999284206708631e-003	1.086027e+001	1.096887e-009
3.999300313109138e-003	1.085545e+001	1.096400e-009
3.999317893642158e-003	1.085017e+001	1.095867e-009
3.999336009470005e-003	1.084475e+001	1.095319e-009
3.999357346703870e-003	1.083840e+001	1.094679e-009
3.999384845150382e-003	1.083031e+001	1.093861e-009
3.999404575544384e-003	1.082457e+001	1.093281e-009
3.999425427890418e-003	1.081858e+001	1.092677e-009
3.999450873912098e-003	1.081137e+001	1.091948e-009
3.999478148542188e-003	1.080376e+001	1.091180e-009
3.999514563600050e-003	1.079381e+001	1.090175e-009
3.999569762187405e-003	1.077910e+001	1.088689e-009
3.999625528160669e-003	1.076468e+001	1.087232e-009
3.999689759115319e-003	1.074864e+001	1.085613e-009
3.999770286528454e-003	1.072943e+001	1.083673e-009
3.999910076310150e-003	1.069793e+001	1.080491e-009
4.000054815050632e-003	1.066788e+001	1.077455e-009
4.000344292531596e-003	1.061500e+001	1.072115e-009
4.000858670611953e-003	1.053513e+001	1.064048e-009
4.001354285294488e-003	1.047250e+001	1.057723e-009
4.001983745130585e-003	1.040999e+001	1.051409e-009
4.002656041242017e-003	1.035884e+001	1.046243e-009
4.003564199438939e-003	1.030798e+001	1.041106e-009
4.004413818798727e-003	1.027373e+001	1.037647e-009
4.005178957231139e-003	1.025238e+001	1.035491e-009
4.006059870469538e-003	1.023571e+001	1.033806e-009
4.007008817024720e-003	1.022400e+001	1.032624e-009
4.008167345941702e-003	1.021545e+001	1.031761e-009
4.009624123933127e-003	1.020961e+001	1.031170e-009
4.011327115011608e-003	1.020624e+001	1.030830e-009
4.013312917758527e-003	1.020400e+001	1.030604e-009
4.015185452427628e-003	1.020230e+001	1.030432e-009
4.017307953767698e-003	1.020106e+001	1.030307e-009
