time	V(vout)	-I(Rl)
0.000000000000000e+000	9.996057e+000	1.009602e-009
1.009638400021875e-003	9.996057e+000	1.009602e-009
2.000000000000000e-003	9.996057e+000	1.009602e-009
2.000000686880260e-003	9.476509e+000	6.144490e-001
2.000002060640780e-003	9.130939e+000	9.130939e-001
2.000002302448823e-003	9.143770e+000	9.143770e-001
2.000002450822026e-003	9.155910e+000	9.155910e-001
2.000002505735647e-003	9.155874e+000	9.155874e-001
2.000002578167653e-003	9.156100e+000	9.156100e-001
2.000002653159289e-003	9.156214e+000	9.156214e-001
2.000002803142561e-003	9.156317e+000	9.156317e-001
2.000002986475828e-003	9.156338e+000	9.156337e-001
2.000003295401843e-003	9.156319e+000	9.156319e-001
2.000003675620630e-003	9.156349e+000	9.156349e-001
2.000004436058202e-003	9.156665e+000	9.156664e-001
2.000005403213618e-003	9.157502e+000	9.157501e-001
2.000006383284559e-003	9.158881e+000	9.158881e-001
2.000007280927596e-003	9.160675e+000	9.160675e-001
2.000008302163762e-003	9.163352e+000	9.163352e-001
2.000009532912862e-003	9.167495e+000	9.167495e-001
2.000011921235012e-003	9.177431e+000	9.177431e-001
2.000014417659162e-003	9.189651e+000	9.189650e-001
2.000017926382611e-003	9.208766e+000	9.208766e-001
2.000021291618961e-003	9.227937e+000	9.227937e-001
2.000026333096173e-003	9.256736e+000	9.256735e-001
2.000031304264545e-003	9.284217e+000	9.284217e-001
2.000036686929515e-003	9.312351e+000	9.312351e-001
2.000041925282239e-003	9.337798e+000	9.337798e-001
2.000047897619828e-003	9.364384e+000	9.364384e-001
2.000054100793291e-003	9.389468e+000	9.389468e-001
2.000059704770920e-003	9.409831e+000	9.409831e-001
2.000066002650094e-003	9.430198e+000	9.430198e-001
2.000072838284424e-003	9.449636e+000	9.449637e-001
2.000080608347575e-003	9.468583e+000	9.468583e-001
2.000090462683829e-003	9.488577e+000	9.488577e-001
2.000102334255563e-003	9.508037e+000	9.508036e-001
2.000115749877948e-003	9.525474e+000	9.525474e-001
2.000131154229518e-003	9.541823e+000	9.541823e-001
2.000144182770587e-003	9.554281e+000	9.554281e-001
2.000154934853794e-003	9.565131e+000	9.565130e-001
2.000166101252075e-003	9.579199e+000	9.579199e-001
2.000177220369673e-003	9.599384e+000	9.599384e-001
2.000190414794495e-003	9.636339e+000	9.636340e-001
2.000204766887503e-003	9.697286e+000	9.697286e-001
2.000219645795974e-003	9.786473e+000	9.786474e-001
2.000235143634808e-003	9.904963e+000	9.904963e-001
2.000246716745091e-003	1.000812e+001	1.000812e+000
2.000252540270110e-003	1.006474e+001	1.006474e+000
2.000255812732550e-003	1.009778e+001	1.009778e+000
2.000258502788281e-003	1.012531e+001	1.012531e+000
2.000261216497663e-003	1.015326e+001	1.015326e+000
2.000263768515730e-003	1.017966e+001	1.017966e+000
2.000266341841420e-003	1.020633e+001	1.020633e+000
2.000268709648753e-003	1.023086e+001	1.023087e+000
2.000270645938970e-003	1.025090e+001	1.025090e+000
2.000272522702331e-003	1.027028e+001	1.027028e+000
2.000274481322060e-003	1.029042e+001	1.029042e+000
2.000276976412206e-003	1.031592e+001	1.031592e+000
2.000280154913129e-003	1.034813e+001	1.034813e+000
2.000283681455642e-003	1.038340e+001	1.038340e+000
2.000288434437187e-003	1.043018e+001	1.043018e+000
2.000292115498905e-003	1.046573e+001	1.046573e+000
2.000296247186575e-003	1.050485e+001	1.050485e+000
2.000298884702853e-003	1.052933e+001	1.052933e+000
2.000301577494018e-003	1.055377e+001	1.055377e+000
2.000304488390098e-003	1.057962e+001	1.057962e+000
2.000307581835995e-003	1.060652e+001	1.060652e+000
2.000309048721596e-003	1.061902e+001	1.061902e+000
2.000310469099684e-003	1.063092e+001	1.063092e+000
2.000312064144213e-003	1.064408e+001	1.064408e+000
2.000313906938498e-003	1.065904e+001	1.065904e+000
2.000315610350286e-003	1.067263e+001	1.067263e+000
2.000317470635121e-003	1.068718e+001	1.068718e+000
2.000319386541084e-003	1.070185e+001	1.070185e+000
2.000321662138288e-003	1.071885e+001	1.071885e+000
2.000324356756503e-003	1.073839e+001	1.073839e+000
2.000327313783789e-003	1.075910e+001	1.075910e+000
2.000330597963492e-003	1.078114e+001	1.078114e+000
2.000334329607900e-003	1.080492e+001	1.080492e+000
2.000339037743078e-003	1.083287e+001	1.083287e+000
2.000345817939100e-003	1.086875e+001	1.086875e+000
2.000357581662286e-003	1.092096e+001	1.092096e+000
2.000369913873657e-003	1.096156e+001	1.096156e+000
2.000387652572186e-003	1.099502e+001	1.099502e+000
2.000409390654084e-003	1.100622e+001	1.100622e+000
2.000428897244629e-003	1.099496e+001	1.099496e+000
2.000444329282988e-003	1.097691e+001	1.097691e+000
2.000458320202520e-003	1.095868e+001	1.095868e+000
2.000472606668673e-003	1.094093e+001	1.094093e+000
2.000488565785031e-003	1.092216e+001	1.092216e+000
2.000505149401153e-003	1.090332e+001	1.090332e+000
2.000522427672669e-003	1.088414e+001	1.088414e+000
2.000539559574411e-003	1.086552e+001	1.086552e+000
2.000559313951616e-003	1.084450e+001	1.084450e+000
2.000579734177561e-003	1.082324e+001	1.082324e+000
2.000600324189250e-003	1.080229e+001	1.080230e+000
2.000623145607584e-003	1.077962e+001	1.077962e+000
2.000644669734721e-003	1.075885e+001	1.075886e+000
2.000668910727472e-003	1.073704e+001	1.073704e+000
2.000686273666635e-003	1.072343e+001	1.072343e+000
2.000705653767938e-003	1.070960e+001	1.070960e+000
2.000714945149308e-003	1.070270e+001	1.070270e+000
2.000723941625597e-003	1.069558e+001	1.069558e+000
2.000736624877591e-003	1.068517e+001	1.068517e+000
2.000761991381579e-003	1.066380e+001	1.066380e+000
2.000792010927321e-003	1.063833e+001	1.063833e+000
2.000827980651424e-003	1.060814e+001	1.060814e+000
2.000862838372647e-003	1.057961e+001	1.057961e+000
2.000905684522910e-003	1.054567e+001	1.054567e+000
2.000952717526959e-003	1.050985e+001	1.050985e+000
2.001018736822863e-003	1.046188e+001	1.046188e+000
2.001093452650229e-003	1.041027e+001	1.041026e+000
2.001163028760594e-003	1.036501e+001	1.036501e+000
2.001272995667073e-003	1.029837e+001	1.029837e+000
2.001416544256230e-003	1.021741e+001	1.021741e+000
2.001516684870344e-003	1.016495e+001	1.016495e+000
2.001615410280220e-003	1.011644e+001	1.011644e+000
2.001675444549102e-003	1.008840e+001	1.008839e+000
2.001740547536782e-003	1.005929e+001	1.005929e+000
2.001799785885420e-003	1.003383e+001	1.003383e+000
2.001881605020471e-003	9.999882e+000	9.999881e-001
2.001931023146009e-003	9.979956e+000	9.979955e-001
2.001975339671724e-003	9.962527e+000	9.962527e-001
2.002028411836881e-003	9.942088e+000	9.942088e-001
2.002086425097662e-003	9.920169e+000	9.920169e-001
2.002115681830885e-003	9.909315e+000	9.909315e-001
2.002146467794822e-003	9.898087e+000	9.898086e-001
2.002183844162792e-003	9.884660e+000	9.884659e-001
2.002224506392059e-003	9.870285e+000	9.870285e-001
2.002261500411512e-003	9.857431e+000	9.857432e-001
2.002305141608715e-003	9.842544e+000	9.842544e-001
2.002352030125287e-003	9.826860e+000	9.826860e-001
2.002410378420239e-003	9.807775e+000	9.807775e-001
2.002474455380173e-003	9.787351e+000	9.787350e-001
2.002557026230017e-003	9.761806e+000	9.761806e-001
2.002650360947389e-003	9.733946e+000	9.733946e-001
2.002775496393421e-003	9.698296e+000	9.698296e-001
2.002916450425398e-003	9.660529e+000	9.660528e-001
2.002981261791401e-003	9.645174e+000	9.645174e-001
2.003025669766980e-003	9.637008e+000	9.637008e-001
2.003058118743110e-003	9.633544e+000	9.633543e-001
2.003091826707020e-003	9.633458e+000	9.633458e-001
2.003130847169674e-003	9.638079e+000	9.638079e-001
2.003167974827845e-003	9.646976e+000	9.646977e-001
2.003202846547140e-003	9.658874e+000	9.658874e-001
2.003239276259735e-003	9.673732e+000	9.673732e-001
2.003277502681352e-003	9.690530e+000	9.690530e-001
2.003317401713873e-003	9.708152e+000	9.708152e-001
2.003365763927460e-003	9.728669e+000	9.728670e-001
2.003413895881896e-003	9.747872e+000	9.747872e-001
2.003460911135967e-003	9.765517e+000	9.765518e-001
2.003511291649437e-003	9.783649e+000	9.783649e-001
2.003565894822976e-003	9.802994e+000	9.802994e-001
2.003634767065044e-003	9.827491e+000	9.827491e-001
2.003694803334086e-003	9.849108e+000	9.849108e-001
2.003752054915617e-003	9.869911e+000	9.869911e-001
2.003813443736995e-003	9.892175e+000	9.892175e-001
2.003879223902699e-003	9.915627e+000	9.915627e-001
2.003938844279593e-003	9.936055e+000	9.936056e-001
2.003996965963587e-003	9.954487e+000	9.954487e-001
2.004056400942941e-003	9.970682e+000	9.970682e-001
2.004129613272894e-003	9.986252e+000	9.986252e-001
2.004185296685617e-003	9.994318e+000	9.994318e-001
2.004239032470568e-003	9.998787e+000	9.998788e-001
2.004283287207255e-003	1.000052e+001	1.000052e+000
2.004331383467935e-003	1.000100e+001	1.000100e+000
2.004382103557075e-003	1.000074e+001	1.000074e+000
2.004434305602348e-003	1.000021e+001	1.000021e+000
2.004483859758565e-003	9.999825e+000	9.999825e-001
2.004537086786333e-003	9.999727e+000	9.999727e-001
2.004599414931598e-003	9.999989e+000	9.999989e-001
2.004655704450715e-003	1.000043e+001	1.000043e+000
2.004723361796222e-003	1.000096e+001	1.000096e+000
2.004799071503572e-003	1.000133e+001	1.000133e+000
2.004876165177296e-003	1.000141e+001	1.000141e+000
2.004962434322112e-003	1.000127e+001	1.000127e+000
2.005057729773348e-003	1.000109e+001	1.000109e+000
2.005175271892503e-003	1.000101e+001	1.000101e+000
2.005300572707861e-003	1.000106e+001	1.000106e+000
2.005446175887020e-003	1.000113e+001	1.000113e+000
2.005618125012857e-003	1.000112e+001	1.000112e+000
2.005857396482248e-003	1.000107e+001	1.000107e+000
2.006076569366169e-003	1.000107e+001	1.000107e+000
2.006432694630102e-003	1.000107e+001	1.000107e+000
2.006796767374561e-003	1.000105e+001	1.000105e+000
2.007350866426788e-003	1.000103e+001	1.000103e+000
2.008350866426788e-003	1.000099e+001	1.000099e+000
2.009350866426788e-003	1.000096e+001	1.000095e+000
2.010350866426788e-003	1.000092e+001	1.000092e+000
2.011350866426788e-003	1.000088e+001	1.000088e+000
2.012350866426788e-003	1.000085e+001	1.000085e+000
2.013350866426788e-003	1.000081e+001	1.000081e+000
2.014350866426788e-003	1.000077e+001	1.000077e+000
2.015350866426788e-003	1.000074e+001	1.000074e+000
2.016350866426788e-003	1.000070e+001	1.000070e+000
2.017350866426788e-003	1.000067e+001	1.000067e+000
2.018350866426788e-003	1.000063e+001	1.000063e+000
2.019350866426788e-003	1.000060e+001	1.000060e+000
2.020350866426788e-003	1.000056e+001	1.000056e+000
2.021350866426788e-003	1.000053e+001	1.000053e+000
2.022350866426788e-003	1.000049e+001	1.000049e+000
2.023350866426788e-003	1.000046e+001	1.000046e+000
2.024350866426788e-003	1.000043e+001	1.000043e+000
2.025350866426788e-003	1.000039e+001	1.000039e+000
2.026350866426788e-003	1.000036e+001	1.000036e+000
2.027350866426788e-003	1.000033e+001	1.000033e+000
2.028350866426788e-003	1.000029e+001	1.000029e+000
2.029350866426788e-003	1.000026e+001	1.000026e+000
2.030350866426788e-003	1.000023e+001	1.000023e+000
2.031350866426788e-003	1.000019e+001	1.000020e+000
2.032350866426788e-003	1.000016e+001	1.000016e+000
2.033350866426788e-003	1.000013e+001	1.000013e+000
2.034350866426788e-003	1.000010e+001	1.000010e+000
2.035350866426788e-003	1.000007e+001	1.000007e+000
2.036350866426788e-003	1.000004e+001	1.000004e+000
2.037350866426788e-003	1.000000e+001	1.000000e+000
2.038350866426788e-003	9.999973e+000	9.999973e-001
2.039350866426788e-003	9.999942e+000	9.999942e-001
2.040350866426788e-003	9.999911e+000	9.999911e-001
2.041350866426788e-003	9.999881e+000	9.999880e-001
2.042350866426788e-003	9.999849e+000	9.999850e-001
2.043350866426788e-003	9.999820e+000	9.999819e-001
2.044350866426788e-003	9.999789e+000	9.999790e-001
2.045350866426788e-003	9.999760e+000	9.999759e-001
2.046350866426788e-003	9.999729e+000	9.999729e-001
2.047350866426788e-003	9.999701e+000	9.999700e-001
2.048350866426788e-003	9.999670e+000	9.999671e-001
2.049350866426788e-003	9.999641e+000	9.999641e-001
2.050350866426788e-003	9.999612e+000	9.999613e-001
2.051350866426788e-003	9.999583e+000	9.999583e-001
2.052350866426788e-003	9.999555e+000	9.999554e-001
2.053350866426788e-003	9.999526e+000	9.999526e-001
2.054350866426788e-003	9.999497e+000	9.999498e-001
2.055350866426788e-003	9.999469e+000	9.999470e-001
2.056350866426788e-003	9.999441e+000	9.999441e-001
2.057350866426788e-003	9.999413e+000	9.999413e-001
2.058350866426788e-003	9.999386e+000	9.999385e-001
2.059350866426788e-003	9.999358e+000	9.999357e-001
2.060350866426788e-003	9.999331e+000	9.999330e-001
2.061350866426788e-003	9.999303e+000	9.999303e-001
2.062350866426788e-003	9.999275e+000	9.999276e-001
2.063350866426788e-003	9.999249e+000	9.999249e-001
2.064350866426788e-003	9.999222e+000	9.999222e-001
2.065350866426788e-003	9.999195e+000	9.999195e-001
2.066350866426788e-003	9.999168e+000	9.999169e-001
2.068350866426788e-003	9.999116e+000	9.999116e-001
2.069350866426788e-003	9.999090e+000	9.999090e-001
2.070350866426788e-003	9.999063e+000	9.999064e-001
2.071350866426788e-003	9.999039e+000	9.999038e-001
2.072350866426788e-003	9.999013e+000	9.999013e-001
2.073350866426788e-003	9.998987e+000	9.998987e-001
2.074350866426788e-003	9.998961e+000	9.998962e-001
2.075350866426788e-003	9.998937e+000	9.998937e-001
2.076350866426788e-003	9.998911e+000	9.998912e-001
2.077350866426788e-003	9.998886e+000	9.998887e-001
2.078350866426788e-003	9.998861e+000	9.998862e-001
2.079350866426788e-003	9.998837e+000	9.998837e-001
2.080350866426788e-003	9.998813e+000	9.998813e-001
2.081350866426788e-003	9.998788e+000	9.998788e-001
2.082350866426788e-003	9.998764e+000	9.998764e-001
2.083350866426788e-003	9.998740e+000	9.998740e-001
2.084350866426788e-003	9.998716e+000	9.998716e-001
2.085350866426788e-003	9.998693e+000	9.998692e-001
2.086350866426788e-003	9.998669e+000	9.998668e-001
2.087350866426788e-003	9.998645e+000	9.998645e-001
2.088350866426788e-003	9.998622e+000	9.998622e-001
2.089350866426788e-003	9.998598e+000	9.998598e-001
2.090350866426788e-003	9.998575e+000	9.998575e-001
2.091350866426788e-003	9.998552e+000	9.998552e-001
2.092350866426788e-003	9.998529e+000	9.998530e-001
2.093350866426788e-003	9.998507e+000	9.998506e-001
2.094350866426788e-003	9.998484e+000	9.998484e-001
2.095350866426788e-003	9.998462e+000	9.998462e-001
2.096350866426788e-003	9.998439e+000	9.998440e-001
2.097350866426788e-003	9.998417e+000	9.998417e-001
2.098350866426788e-003	9.998395e+000	9.998395e-001
2.099350866426788e-003	9.998373e+000	9.998373e-001
2.100350866426788e-003	9.998351e+000	9.998351e-001
2.101350866426788e-003	9.998329e+000	9.998329e-001
2.102350866426788e-003	9.998307e+000	9.998307e-001
2.103350866426788e-003	9.998286e+000	9.998286e-001
2.104350866426788e-003	9.998264e+000	9.998265e-001
2.105350866426788e-003	9.998243e+000	9.998243e-001
2.106350866426788e-003	9.998222e+000	9.998223e-001
2.107350866426788e-003	9.998201e+000	9.998201e-001
2.108350866426788e-003	9.998180e+000	9.998181e-001
2.109350866426788e-003	9.998160e+000	9.998159e-001
2.110350866426788e-003	9.998139e+000	9.998139e-001
2.111350866426788e-003	9.998118e+000	9.998119e-001
2.112350866426788e-003	9.998098e+000	9.998099e-001
2.113350866426788e-003	9.998078e+000	9.998078e-001
2.114350866426788e-003	9.998058e+000	9.998058e-001
2.115350866426788e-003	9.998037e+000	9.998038e-001
2.116350866426788e-003	9.998018e+000	9.998018e-001
2.117350866426788e-003	9.997998e+000	9.997998e-001
2.118350866426788e-003	9.997978e+000	9.997978e-001
2.119350866426788e-003	9.997959e+000	9.997959e-001
2.120350866426788e-003	9.997939e+000	9.997939e-001
2.121350866426788e-003	9.997920e+000	9.997920e-001
2.122350866426788e-003	9.997900e+000	9.997901e-001
2.123350866426788e-003	9.997881e+000	9.997882e-001
2.124350866426788e-003	9.997862e+000	9.997863e-001
2.125350866426788e-003	9.997844e+000	9.997844e-001
2.126350866426788e-003	9.997825e+000	9.997824e-001
2.127350866426788e-003	9.997806e+000	9.997805e-001
2.128350866426788e-003	9.997787e+000	9.997787e-001
2.129350866426788e-003	9.997768e+000	9.997768e-001
2.130350866426788e-003	9.997750e+000	9.997751e-001
2.131350866426788e-003	9.997732e+000	9.997731e-001
2.132350866426788e-003	9.997713e+000	9.997714e-001
2.133350866426788e-003	9.997696e+000	9.997696e-001
2.134350866426788e-003	9.997677e+000	9.997678e-001
2.135350866426788e-003	9.997660e+000	9.997660e-001
2.136350866426788e-003	9.997642e+000	9.997642e-001
2.137350866426788e-003	9.997624e+000	9.997624e-001
2.138350866426788e-003	9.997606e+000	9.997606e-001
2.139350866426788e-003	9.997589e+000	9.997589e-001
2.141350866426788e-003	9.997555e+000	9.997554e-001
2.142350866426788e-003	9.997538e+000	9.997537e-001
2.143350866426788e-003	9.997520e+000	9.997520e-001
2.144350866426788e-003	9.997503e+000	9.997503e-001
2.145350866426788e-003	9.997486e+000	9.997486e-001
2.146350866426788e-003	9.997469e+000	9.997469e-001
2.147350866426788e-003	9.997453e+000	9.997452e-001
2.148350866426788e-003	9.997436e+000	9.997436e-001
2.149350866426788e-003	9.997419e+000	9.997419e-001
2.150350866426788e-003	9.997402e+000	9.997403e-001
2.151350866426788e-003	9.997387e+000	9.997386e-001
2.153350866426788e-003	9.997355e+000	9.997354e-001
2.154350866426788e-003	9.997337e+000	9.997338e-001
2.155350866426788e-003	9.997322e+000	9.997322e-001
2.156350866426788e-003	9.997306e+000	9.997306e-001
2.157350866426788e-003	9.997291e+000	9.997290e-001
2.158350866426788e-003	9.997274e+000	9.997275e-001
2.159350866426788e-003	9.997259e+000	9.997259e-001
2.160350866426788e-003	9.997243e+000	9.997243e-001
2.161350866426788e-003	9.997228e+000	9.997228e-001
2.162350866426788e-003	9.997212e+000	9.997213e-001
2.163350866426788e-003	9.997197e+000	9.997197e-001
2.164350866426788e-003	9.997182e+000	9.997182e-001
2.165350866426788e-003	9.997167e+000	9.997167e-001
2.166350866426788e-003	9.997151e+000	9.997152e-001
2.167350866426788e-003	9.997137e+000	9.997137e-001
2.168350866426788e-003	9.997122e+000	9.997122e-001
2.169350866426788e-003	9.997108e+000	9.997107e-001
2.170350866426788e-003	9.997092e+000	9.997092e-001
2.171350866426788e-003	9.997078e+000	9.997078e-001
2.172350866426788e-003	9.997064e+000	9.997064e-001
2.173350866426788e-003	9.997049e+000	9.997050e-001
2.174350866426788e-003	9.997035e+000	9.997035e-001
2.175350866426788e-003	9.997021e+000	9.997021e-001
2.176350866426788e-003	9.997006e+000	9.997007e-001
2.177350866426788e-003	9.996992e+000	9.996992e-001
2.178350866426788e-003	9.996978e+000	9.996978e-001
2.179350866426788e-003	9.996964e+000	9.996964e-001
2.180350866426788e-003	9.996950e+000	9.996951e-001
2.181350866426788e-003	9.996937e+000	9.996936e-001
2.182350866426788e-003	9.996922e+000	9.996923e-001
2.183350866426788e-003	9.996909e+000	9.996909e-001
2.184350866426788e-003	9.996896e+000	9.996896e-001
2.185350866426788e-003	9.996882e+000	9.996882e-001
2.186350866426788e-003	9.996868e+000	9.996869e-001
2.187350866426788e-003	9.996855e+000	9.996855e-001
2.188350866426788e-003	9.996841e+000	9.996842e-001
2.189350866426788e-003	9.996829e+000	9.996829e-001
2.190350866426788e-003	9.996816e+000	9.996816e-001
2.191350866426788e-003	9.996803e+000	9.996803e-001
2.192350866426788e-003	9.996790e+000	9.996790e-001
2.193350866426788e-003	9.996777e+000	9.996777e-001
2.194350866426788e-003	9.996764e+000	9.996764e-001
2.195350866426788e-003	9.996752e+000	9.996752e-001
2.196350866426788e-003	9.996738e+000	9.996738e-001
2.197350866426788e-003	9.996726e+000	9.996726e-001
2.198350866426788e-003	9.996714e+000	9.996713e-001
2.199350866426788e-003	9.996701e+000	9.996701e-001
2.200350866426788e-003	9.996689e+000	9.996688e-001
2.202350866426788e-003	9.996664e+000	9.996664e-001
2.203350866426788e-003	9.996652e+000	9.996651e-001
2.204350866426788e-003	9.996639e+000	9.996639e-001
2.205350866426788e-003	9.996628e+000	9.996628e-001
2.206350866426788e-003	9.996615e+000	9.996616e-001
2.207350866426788e-003	9.996604e+000	9.996604e-001
2.208350866426788e-003	9.996592e+000	9.996592e-001
2.209350866426788e-003	9.996580e+000	9.996580e-001
2.210350866426788e-003	9.996569e+000	9.996569e-001
2.211350866426788e-003	9.996557e+000	9.996557e-001
2.212350866426788e-003	9.996545e+000	9.996545e-001
2.214350866426788e-003	9.996522e+000	9.996522e-001
2.215350866426788e-003	9.996511e+000	9.996511e-001
2.216350866426788e-003	9.996499e+000	9.996499e-001
2.217350866426788e-003	9.996489e+000	9.996488e-001
