time	V(vout)	-I(Rl)
0.000000000000000e+000	9.996057e+000	1.009602e-009
1.999000000000000e-003	9.996057e+000	1.009602e-009
1.999004923631978e-003	9.448315e+000	6.116296e-001
1.999014770895935e-003	9.190215e+000	9.190215e-001
1.999016878334412e-003	9.201929e+000	9.201929e-001
1.999018300062000e-003	9.209357e+000	9.209358e-001
1.999019136243616e-003	9.214138e+000	9.214138e-001
1.999020122149510e-003	9.220620e+000	9.220620e-001
1.999021015727089e-003	9.225682e+000	9.225682e-001
1.999021724562140e-003	9.229913e+000	9.229912e-001
1.999022349623230e-003	9.233424e+000	9.233423e-001
1.999022985353675e-003	9.237199e+000	9.237199e-001
1.999023606161646e-003	9.240754e+000	9.240755e-001
1.999024341248201e-003	9.245026e+000	9.245026e-001
1.999025262005413e-003	9.250304e+000	9.250304e-001
1.999026534379374e-003	9.257561e+000	9.257560e-001
1.999028499787581e-003	9.268581e+000	9.268582e-001
1.999031633714216e-003	9.285626e+000	9.285626e-001
1.999037201914143e-003	9.314432e+000	9.314432e-001
1.999042964987827e-003	9.342176e+000	9.342176e-001
1.999049201834409e-003	9.369555e+000	9.369555e-001
1.999055412142949e-003	9.394152e+000	9.394151e-001
1.999061539414862e-003	9.415835e+000	9.415835e-001
1.999067976446218e-003	9.436011e+000	9.436011e-001
1.999074899893653e-003	9.454944e+000	9.454944e-001
1.999083228198351e-003	9.474303e+000	9.474304e-001
1.999093827921121e-003	9.494706e+000	9.494706e-001
1.999105079582991e-003	9.512097e+000	9.512098e-001
1.999119756920428e-003	9.530133e+000	9.530134e-001
1.999134614235197e-003	9.545372e+000	9.545372e-001
1.999146970403642e-003	9.557148e+000	9.557148e-001
1.999157292038483e-003	9.568057e+000	9.568057e-001
1.999169429864410e-003	9.584813e+000	9.584813e-001
1.999180978094733e-003	9.608382e+000	9.608383e-001
1.999193790749293e-003	9.648798e+000	9.648798e-001
1.999208195162589e-003	9.716404e+000	9.716404e-001
1.999223641870560e-003	9.815833e+000	9.815834e-001
1.999238416312794e-003	9.933294e+000	9.933295e-001
1.999245996407970e-003	1.000201e+001	1.000201e+000
1.999250629533779e-003	1.004719e+001	1.004719e+000
1.999254274289289e-003	1.008383e+001	1.008383e+000
1.999257030909243e-003	1.011195e+001	1.011195e+000
1.999259760516251e-003	1.014004e+001	1.014004e+000
1.999262315094167e-003	1.016646e+001	1.016645e+000
1.999264896882192e-003	1.019323e+001	1.019323e+000
1.999267418737825e-003	1.021942e+001	1.021942e+000
1.999269556790217e-003	1.024160e+001	1.024161e+000
1.999271394872390e-003	1.026064e+001	1.026064e+000
1.999273405159476e-003	1.028139e+001	1.028139e+000
1.999275476566434e-003	1.030268e+001	1.030268e+000
1.999278503974300e-003	1.033356e+001	1.033356e+000
1.999281707101167e-003	1.036588e+001	1.036588e+000
1.999285861366033e-003	1.040722e+001	1.040722e+000
1.999289764897602e-003	1.044540e+001	1.044540e+000
1.999293828303700e-003	1.048438e+001	1.048438e+000
1.999297771544036e-003	1.052143e+001	1.052143e+000
1.999300590365105e-003	1.054733e+001	1.054733e+000
1.999303208799639e-003	1.057084e+001	1.057084e+000
1.999306073744015e-003	1.059603e+001	1.059603e+000
1.999308290100249e-003	1.061513e+001	1.061513e+000
1.999309730986370e-003	1.062733e+001	1.062733e+000
1.999311198690440e-003	1.063955e+001	1.063956e+000
1.999312831377817e-003	1.065295e+001	1.065295e+000
1.999314603182778e-003	1.066725e+001	1.066725e+000
1.999316348063019e-003	1.068108e+001	1.068108e+000
1.999318231168199e-003	1.069571e+001	1.069571e+000
1.999320271150940e-003	1.071121e+001	1.071121e+000
1.999322683150996e-003	1.072902e+001	1.072902e+000
1.999325938151001e-003	1.075226e+001	1.075226e+000
1.999329376562584e-003	1.077582e+001	1.077582e+000
1.999332985378759e-003	1.079932e+001	1.079932e+000
1.999337368558429e-003	1.082609e+001	1.082609e+000
1.999343235788514e-003	1.085837e+001	1.085837e+000
1.999354732530378e-003	1.091206e+001	1.091206e+000
1.999367640771789e-003	1.095826e+001	1.095826e+000
1.999383245928711e-003	1.099165e+001	1.099165e+000
1.999407592363846e-003	1.100829e+001	1.100829e+000
1.999428802374757e-003	1.099823e+001	1.099823e+000
1.999444307133360e-003	1.098038e+001	1.098038e+000
1.999458158507824e-003	1.096229e+001	1.096228e+000
1.999472394137238e-003	1.094453e+001	1.094453e+000
1.999488263900159e-003	1.092580e+001	1.092580e+000
1.999504848340575e-003	1.090689e+001	1.090689e+000
1.999522074755719e-003	1.088771e+001	1.088771e+000
1.999539152802264e-003	1.086909e+001	1.086909e+000
1.999558894979165e-003	1.084801e+001	1.084801e+000
1.999579253302872e-003	1.082675e+001	1.082675e+000
1.999599888360566e-003	1.080569e+001	1.080569e+000
1.999622727601156e-003	1.078292e+001	1.078292e+000
1.999644239527091e-003	1.076208e+001	1.076208e+000
1.999668422688782e-003	1.074022e+001	1.074022e+000
1.999686819365889e-003	1.072571e+001	1.072571e+000
1.999707159618940e-003	1.071109e+001	1.071109e+000
1.999716477064250e-003	1.070412e+001	1.070412e+000
1.999725518185857e-003	1.069692e+001	1.069692e+000
1.999737995839967e-003	1.068664e+001	1.068664e+000
1.999760100539908e-003	1.066797e+001	1.066797e+000
1.999791534204834e-003	1.064123e+001	1.064123e+000
1.999825346992685e-003	1.061277e+001	1.061277e+000
1.999861688679549e-003	1.058294e+001	1.058294e+000
1.999906222329936e-003	1.054756e+001	1.054756e+000
1.999952906636744e-003	1.051192e+001	1.051192e+000
2.000017976600205e-003	1.046453e+001	1.046453e+000
2.000092150731469e-003	1.041315e+001	1.041315e+000
2.000161547115362e-003	1.036788e+001	1.036788e+000
2.000270200447427e-003	1.030184e+001	1.030184e+000
2.000416475299328e-003	1.021917e+001	1.021917e+000
2.000518862080509e-003	1.016545e+001	1.016545e+000
2.000618142897430e-003	1.011665e+001	1.011665e+000
2.000678526689448e-003	1.008845e+001	1.008845e+000
2.000744099635990e-003	1.005915e+001	1.005915e+000
2.000803715838155e-003	1.003354e+001	1.003354e+000
2.000885875400143e-003	9.999473e+000	9.999472e-001
2.000935360412075e-003	9.979534e+000	9.979534e-001
2.000979709209681e-003	9.962106e+000	9.962106e-001
2.001032588805841e-003	9.941749e+000	9.941748e-001
2.001087333211020e-003	9.921063e+000	9.921064e-001
2.001116511761716e-003	9.910235e+000	9.910235e-001
2.001147817513087e-003	9.898810e+000	9.898810e-001
2.001185649430136e-003	9.885211e+000	9.885212e-001
2.001225129633657e-003	9.871245e+000	9.871246e-001
2.001262517767856e-003	9.858247e+000	9.858247e-001
2.001305540999933e-003	9.843557e+000	9.843557e-001
2.001352678946213e-003	9.827777e+000	9.827777e-001
2.001410217516234e-003	9.808936e+000	9.808936e-001
2.001473478716999e-003	9.788746e+000	9.788746e-001
2.001555654956822e-003	9.763285e+000	9.763284e-001
2.001647883035025e-003	9.735703e+000	9.735703e-001
2.001772117838016e-003	9.700198e+000	9.700199e-001
2.001911080531274e-003	9.662678e+000	9.662678e-001
2.001975935588608e-003	9.646910e+000	9.646909e-001
2.002019711592812e-003	9.638244e+000	9.638243e-001
2.002052230597082e-003	9.633977e+000	9.633976e-001
2.002085199576024e-003	9.632820e+000	9.632820e-001
2.002125694261954e-003	9.636335e+000	9.636335e-001
2.002167942342275e-003	9.645420e+000	9.645420e-001
2.002203967543359e-003	9.657187e+000	9.657188e-001
2.002241757252761e-003	9.672389e+000	9.672389e-001
2.002280414738939e-003	9.689360e+000	9.689360e-001
2.002320146959108e-003	9.707007e+000	9.707007e-001
2.002368078723899e-003	9.727470e+000	9.727470e-001
2.002414940527521e-003	9.746246e+000	9.746246e-001
2.002461477847794e-003	9.763738e+000	9.763738e-001
2.002512258186218e-003	9.782007e+000	9.782007e-001
2.002565929127445e-003	9.800990e+000	9.800991e-001
2.002630659010315e-003	9.823968e+000	9.823968e-001
2.002690062958453e-003	9.845325e+000	9.845326e-001
2.002746499587064e-003	9.865829e+000	9.865828e-001
2.002808600752673e-003	9.888396e+000	9.888396e-001
2.002870297973381e-003	9.910534e+000	9.910533e-001
2.002925209779904e-003	9.929649e+000	9.929649e-001
2.002978850332512e-003	9.947277e+000	9.947277e-001
2.003034831781675e-003	9.963776e+000	9.963776e-001
2.003099004628894e-003	9.979506e+000	9.979506e-001
2.003155774262785e-003	9.989818e+000	9.989818e-001
2.003214788801186e-003	9.996700e+000	9.996700e-001
2.003264546911012e-003	9.999854e+000	9.999854e-001
2.003308952340450e-003	1.000095e+001	1.000095e+000
2.003359253969962e-003	1.000106e+001	1.000106e+000
2.003406461373694e-003	1.000068e+001	1.000068e+000
2.003470875294822e-003	1.000009e+001	1.000009e+000
2.003535448233126e-003	9.999844e+000	9.999844e-001
2.003595996610438e-003	1.000002e+001	1.000002e+000
2.003654251756419e-003	1.000046e+001	1.000046e+000
2.003717020548116e-003	1.000097e+001	1.000097e+000
2.003792369470778e-003	1.000139e+001	1.000139e+000
2.003876151077539e-003	1.000151e+001	1.000151e+000
2.003964982539677e-003	1.000139e+001	1.000139e+000
2.004060248361100e-003	1.000120e+001	1.000120e+000
2.004171379088033e-003	1.000111e+001	1.000111e+000
2.004290345305524e-003	1.000116e+001	1.000116e+000
2.004437260043573e-003	1.000123e+001	1.000123e+000
2.004597167581339e-003	1.000123e+001	1.000123e+000
2.004798462283201e-003	1.000118e+001	1.000118e+000
2.005013510838519e-003	1.000117e+001	1.000118e+000
2.005323565764405e-003	1.000118e+001	1.000118e+000
2.005652811006855e-003	1.000116e+001	1.000116e+000
2.006233624200487e-003	1.000114e+001	1.000114e+000
2.007009092934165e-003	1.000111e+001	1.000111e+000
2.007892280120855e-003	1.000108e+001	1.000108e+000
2.009388987829798e-003	1.000102e+001	1.000102e+000
2.011447933524358e-003	1.000095e+001	1.000095e+000
2.014790462034805e-003	1.000082e+001	1.000082e+000
2.020410176549752e-003	1.000063e+001	1.000063e+000
2.027246114049752e-003	1.000039e+001	1.000039e+000
2.034082051549752e-003	1.000017e+001	1.000017e+000
2.040917989049752e-003	9.999951e+000	9.999952e-001
2.047753926549752e-003	9.999744e+000	9.999744e-001
2.054589864049752e-003	9.999544e+000	9.999545e-001
2.061425801549752e-003	9.999352e+000	9.999353e-001
2.068261739049752e-003	9.999168e+000	9.999169e-001
2.075097676549752e-003	9.998991e+000	9.998991e-001
2.081933614049752e-003	9.998820e+000	9.998820e-001
2.088769551549752e-003	9.998656e+000	9.998657e-001
2.095605489049752e-003	9.998499e+000	9.998499e-001
2.102441426549752e-003	9.998346e+000	9.998347e-001
2.109277364049752e-003	9.998201e+000	9.998201e-001
2.116113301549752e-003	9.998060e+000	9.998060e-001
2.122949239049752e-003	9.997926e+000	9.997926e-001
2.129785176549752e-003	9.997796e+000	9.997796e-001
2.136621114049752e-003	9.997671e+000	9.997671e-001
2.143457051549752e-003	9.997551e+000	9.997551e-001
2.150292989049752e-003	9.997436e+000	9.997436e-001
2.157128926549752e-003	9.997324e+000	9.997324e-001
2.163964864049752e-003	9.997217e+000	9.997217e-001
2.170800801549752e-003	9.997114e+000	9.997115e-001
2.177636739049752e-003	9.997015e+000	9.997016e-001
2.184472676549752e-003	9.996920e+000	9.996920e-001
2.191308614049752e-003	9.996828e+000	9.996828e-001
2.198144551549752e-003	9.996740e+000	9.996740e-001
2.204980489049752e-003	9.996655e+000	9.996656e-001
2.211816426549752e-003	9.996573e+000	9.996574e-001
2.218652364049752e-003	9.996495e+000	9.996495e-001
2.225488301549752e-003	9.996420e+000	9.996420e-001
2.232324239049752e-003	9.996347e+000	9.996347e-001
2.239160176549752e-003	9.996277e+000	9.996277e-001
2.245996114049752e-003	9.996210e+000	9.996210e-001
2.252832051549752e-003	9.996145e+000	9.996145e-001
2.259667989049752e-003	9.996082e+000	9.996083e-001
2.266503926549752e-003	9.996022e+000	9.996023e-001
2.273339864049752e-003	9.995965e+000	9.995965e-001
2.280175801549752e-003	9.995910e+000	9.995909e-001
2.287011739049752e-003	9.995855e+000	9.995856e-001
2.293847676549752e-003	9.995804e+000	9.995804e-001
2.300683614049752e-003	9.995755e+000	9.995755e-001
2.307519551549752e-003	9.995708e+000	9.995707e-001
2.314355489049752e-003	9.995661e+000	9.995661e-001
2.321191426549752e-003	9.995617e+000	9.995617e-001
2.328027364049752e-003	9.995575e+000	9.995574e-001
2.334863301549752e-003	9.995534e+000	9.995534e-001
2.341699239049752e-003	9.995494e+000	9.995494e-001
2.348535176549752e-003	9.995457e+000	9.995456e-001
2.355371114049752e-003	9.995420e+000	9.995420e-001
2.362207051549752e-003	9.995384e+000	9.995384e-001
2.369042989049752e-003	9.995351e+000	9.995351e-001
2.375878926549752e-003	9.995318e+000	9.995319e-001
2.382714864049752e-003	9.995287e+000	9.995287e-001
2.389550801549752e-003	9.995256e+000	9.995257e-001
2.396386739049752e-003	9.995228e+000	9.995228e-001
2.403222676549752e-003	9.995200e+000	9.995200e-001
2.410058614049752e-003	9.995173e+000	9.995173e-001
2.416894551549752e-003	9.995148e+000	9.995148e-001
2.423730489049752e-003	9.995123e+000	9.995123e-001
2.430566426549752e-003	9.995098e+000	9.995098e-001
2.437402364049752e-003	9.995075e+000	9.995075e-001
2.444238301549752e-003	9.995053e+000	9.995053e-001
2.451074239049752e-003	9.995031e+000	9.995032e-001
2.457910176549752e-003	9.995011e+000	9.995011e-001
2.464746114049752e-003	9.994991e+000	9.994991e-001
2.471582051549752e-003	9.994972e+000	9.994972e-001
2.478417989049752e-003	9.994954e+000	9.994954e-001
2.485253926549752e-003	9.994936e+000	9.994936e-001
2.492089864049752e-003	9.994919e+000	9.994919e-001
2.498925801549752e-003	9.994903e+000	9.994903e-001
2.505761739049752e-003	9.994887e+000	9.994887e-001
2.512597676549752e-003	9.994872e+000	9.994872e-001
2.519433614049752e-003	9.994858e+000	9.994857e-001
2.526269551549752e-003	9.994843e+000	9.994843e-001
2.533105489049752e-003	9.994830e+000	9.994830e-001
2.539941426549752e-003	9.994817e+000	9.994817e-001
2.546777364049752e-003	9.994804e+000	9.994804e-001
2.553613301549752e-003	9.994792e+000	9.994792e-001
2.560449239049752e-003	9.994781e+000	9.994780e-001
2.567285176549752e-003	9.994769e+000	9.994769e-001
2.574121114049752e-003	9.994759e+000	9.994758e-001
2.580957051549752e-003	9.994748e+000	9.994748e-001
2.587792989049752e-003	9.994739e+000	9.994738e-001
2.601464864049752e-003	9.994720e+000	9.994719e-001
2.608300801549752e-003	9.994711e+000	9.994711e-001
2.615136739049752e-003	9.994701e+000	9.994702e-001
2.621972676549752e-003	9.994694e+000	9.994693e-001
2.628808614049752e-003	9.994686e+000	9.994686e-001
2.635644551549752e-003	9.994678e+000	9.994678e-001
2.642480489049752e-003	9.994671e+000	9.994671e-001
2.649316426549752e-003	9.994663e+000	9.994664e-001
2.656152364049752e-003	9.994657e+000	9.994657e-001
2.662988301549752e-003	9.994650e+000	9.994650e-001
2.669824239049752e-003	9.994643e+000	9.994644e-001
2.676660176549752e-003	9.994637e+000	9.994638e-001
2.690332051549752e-003	9.994626e+000	9.994626e-001
2.697167989049752e-003	9.994621e+000	9.994621e-001
2.704003926549752e-003	9.994616e+000	9.994615e-001
2.710839864049752e-003	9.994611e+000	9.994611e-001
2.717675801549752e-003	9.994606e+000	9.994606e-001
2.724511739049752e-003	9.994600e+000	9.994601e-001
2.731347676549752e-003	9.994596e+000	9.994596e-001
2.738183614049752e-003	9.994592e+000	9.994592e-001
2.745019551549752e-003	9.994588e+000	9.994588e-001
2.751855489049752e-003	9.994584e+000	9.994584e-001
2.758691426549752e-003	9.994580e+000	9.994580e-001
2.765527364049752e-003	9.994576e+000	9.994577e-001
2.779199239049752e-003	9.994569e+000	9.994569e-001
2.792871114049752e-003	9.994563e+000	9.994563e-001
2.806542989049752e-003	9.994556e+000	9.994557e-001
2.813378926549752e-003	9.994555e+000	9.994554e-001
2.820214864049752e-003	9.994551e+000	9.994551e-001
2.827050801549752e-003	9.994549e+000	9.994549e-001
2.833886739049752e-003	9.994546e+000	9.994546e-001
2.840722676549752e-003	9.994543e+000	9.994543e-001
2.854394551549752e-003	9.994539e+000	9.994539e-001
2.868066426549752e-003	9.994534e+000	9.994534e-001
2.881738301549752e-003	9.994531e+000	9.994531e-001
2.895410176549752e-003	9.994527e+000	9.994527e-001
2.915917989049752e-003	9.994522e+000	9.994522e-001
2.929589864049752e-003	9.994518e+000	9.994519e-001
2.943261739049752e-003	9.994515e+000	9.994516e-001
2.956933614049752e-003	9.994514e+000	9.994513e-001
2.977441426549752e-003	9.994510e+000	9.994510e-001
2.995019551549752e-003	9.994507e+000	9.994507e-001
3.012597676549752e-003	9.994504e+000	9.994504e-001
3.030175801549752e-003	9.994502e+000	9.994502e-001
3.047753926549752e-003	9.994500e+000	9.994500e-001
3.065332051549752e-003	9.994498e+000	9.994498e-001
3.082910176549752e-003	9.994497e+000	9.994496e-001
3.100488301549752e-003	9.994495e+000	9.994495e-001
3.120019551549752e-003	9.994494e+000	9.994493e-001
3.139550801549752e-003	9.994493e+000	9.994492e-001
3.159082051549752e-003	9.994491e+000	9.994491e-001
3.178613301549752e-003	9.994490e+000	9.994490e-001
3.198144551549752e-003	9.994489e+000	9.994489e-001
3.217675801549752e-003	9.994488e+000	9.994488e-001
3.237207051549752e-003	9.994487e+000	9.994487e-001
3.259667989049752e-003	9.994486e+000	9.994486e-001
3.282128926549752e-003	9.994486e+000	9.994485e-001
3.304589864049752e-003	9.994485e+000	9.994485e-001
3.327050801549752e-003	9.994485e+000	9.994484e-001
3.349511739049752e-003	9.994484e+000	9.994483e-001
3.371972676549752e-003	9.994484e+000	9.994483e-001
3.394433614049752e-003	9.994483e+000	9.994483e-001
3.422753926549752e-003	9.994483e+000	9.994483e-001
3.451074239049752e-003	9.994482e+000	9.994482e-001
3.479394551549752e-003	9.994482e+000	9.994482e-001
3.507714864049752e-003	9.994482e+000	9.994482e-001
3.536035176549752e-003	9.994482e+000	9.994481e-001
3.564355489049752e-003	9.994481e+000	9.994481e-001
3.592675801549752e-003	9.994481e+000	9.994481e-001
3.635644551549752e-003	9.994481e+000	9.994481e-001
3.678613301549752e-003	9.994480e+000	9.994481e-001
3.721582051549752e-003	9.994480e+000	9.994481e-001
3.764550801549752e-003	9.994480e+000	9.994481e-001
3.807519551549752e-003	9.994480e+000	9.994480e-001
3.850488301549752e-003	9.994480e+000	9.994480e-001
3.893457051549752e-003	9.994480e+000	9.994480e-001
3.907128926549752e-003	9.994480e+000	9.994480e-001
3.920800801549752e-003	9.994480e+000	9.994480e-001
3.934472676549752e-003	9.994480e+000	9.994480e-001
3.948144551549752e-003	9.994480e+000	9.994480e-001
3.961816426549752e-003	9.994480e+000	9.994480e-001
3.975488301549751e-003	9.994480e+000	9.994480e-001
3.989160176549752e-003	9.994480e+000	9.994480e-001
3.992164062500000e-003	9.994480e+000	9.994480e-001
3.995687337601984e-003	9.994480e+000	9.994480e-001
3.996922443393057e-003	9.994480e+000	9.994480e-001
3.999000000000000e-003	1.043870e+001	5.007517e-001
3.999004284977300e-003	1.060074e+001	3.331488e-001
3.999012854931900e-003	1.094141e+001	1.105082e-009
3.999014099061508e-003	1.093791e+001	1.104729e-009
3.999014784702619e-003	1.093640e+001	1.104576e-009
3.999015401981205e-003	1.093643e+001	1.104579e-009
3.999015875419073e-003	1.093528e+001	1.104463e-009
3.999016373589580e-003	1.093500e+001	1.104435e-009
3.999016824117756e-003	1.093445e+001	1.104379e-009
3.999017501441506e-003	1.093391e+001	1.104325e-009
3.999018640897594e-003	1.093307e+001	1.104240e-009
3.999020131828721e-003	1.093217e+001	1.104149e-009
3.999021766721078e-003	1.093132e+001	1.104063e-009
3.999023844811544e-003	1.093036e+001	1.103966e-009
3.999025787818214e-003	1.092953e+001	1.103883e-009
3.999028210386638e-003	1.092856e+001	1.103785e-009
3.999030723447362e-003	1.092760e+001	1.103688e-009
3.999034235687834e-003	1.092631e+001	1.103557e-009
3.999039217955810e-003	1.092453e+001	1.103378e-009
3.999043521994765e-003	1.092302e+001	1.103225e-009
3.999048344224158e-003	1.092135e+001	1.103057e-009
3.999053259662026e-003	1.091967e+001	1.102887e-009
3.999062104474229e-003	1.091666e+001	1.102583e-009
3.999072193411166e-003	1.091327e+001	1.102240e-009
3.999084322013999e-003	1.090922e+001	1.101832e-009
3.999100282440851e-003	1.090397e+001	1.101301e-009
3.999115164178394e-003	1.089913e+001	1.100812e-009
3.999131855241982e-003	1.089380e+001	1.100274e-009
3.999149979059853e-003	1.088830e+001	1.099718e-009
3.999162080667194e-003	1.088528e+001	1.099413e-009
3.999174999686957e-003	1.088317e+001	1.099200e-009
3.999189087592018e-003	1.088155e+001	1.099037e-009
3.999203076828889e-003	1.087969e+001	1.098849e-009
3.999216745290189e-003	1.087725e+001	1.098602e-009
3.999230795814808e-003	1.087414e+001	1.098288e-009
3.999246434040027e-003	1.087020e+001	1.097890e-009
3.999261881665253e-003	1.086598e+001	1.097464e-009
3.999279111878086e-003	1.086104e+001	1.096965e-009
